#  HZ   S   RI   R     50 
! Rohde & Schwarz ZVA/B 
! 
! 
! 
 3.000000000000000E5    -1.799050176987112E-3  -4.623734271777043E-2   9.976665911897219E-1  -4.678428860206562E-2   9.983408913551686E-1  -4.656859147985747E-2  -2.103379291802518E-3  -4.530064228096629E-2  
 3.061459028037530E5    -2.162839362972479E-3  -4.728007564985348E-2   9.981436997588087E-1  -4.781727925184671E-2   9.981496452447537E-1  -4.799030381786144E-2  -1.998265867775184E-3  -4.651506065387603E-2  
 3.124177126784167E5    -2.162646603789033E-3  -4.802801621956203E-2   9.978513240539095E-1  -4.885579699714408E-2   9.980511664679961E-1  -4.885628539487887E-2  -2.327213270907473E-3  -4.775674586596680E-2  
 3.188180089993913E5    -2.334381528615612E-3  -4.909418205380947E-2   9.977114952431720E-1  -4.974400011176878E-2   9.977465206706777E-1  -4.958752577269471E-2  -2.240558106292598E-3  -4.838937665455990E-2  
 3.253494239840457E5    -2.410083612375665E-3  -5.008771589177823E-2   9.976173411968451E-1  -5.100218290108336E-2   9.979052554860890E-1  -5.078374971292578E-2  -2.454896232921529E-3  -4.945552539150618E-2  
 3.320146437742557E5    -2.412068788722991E-3  -5.125065620098863E-2   9.973622026111789E-1  -5.176956409911364E-2   9.976874879271982E-1  -5.186695914200318E-2  -2.829533760821734E-3  -5.071860274429546E-2  
 3.388164095411199E5    -2.638830969451696E-3  -5.218128024280916E-2   9.974137708846749E-1  -5.314451915230541E-2   9.977937872512277E-1  -5.297754131302526E-2  -2.792453423360413E-3  -5.171339153257117E-2  
 3.457575186123076E5    -2.964033562275767E-3  -5.299419714782262E-2   9.971446649284079E-1  -5.441049158950856E-2   9.974741784141495E-1  -5.400691069340090E-2  -2.985324098475314E-3  -5.254754853953545E-2  
 3.528408256225012E5    -3.080858200330828E-3  -5.430623390075171E-2   9.971677973842208E-1  -5.526352305224300E-2   9.974315148361981E-1  -5.504334246343939E-2  -3.125908239851573E-3  -5.385402431935026E-2  
 3.600692436874074E5    -3.165862631196548E-3  -5.551075479242583E-2   9.967806333532051E-1  -5.641305550468926E-2   9.973692490817161E-1  -5.615715012090675E-2  -3.322971108949480E-3  -5.476915983591400E-2  
 3.674457456018197E5    -3.271680897298626E-3  -5.671319994647249E-2   9.963499157107005E-1  -5.757964900616552E-2   9.968881702747494E-1  -5.736694387407897E-2  -3.516762594462165E-3  -5.600944170189457E-2  
 3.749733650622242E5    -3.492499441027299E-3  -5.774198253271010E-2   9.963788584550417E-1  -5.880241166326919E-2   9.968305744231328E-1  -5.875088765170398E-2  -3.571492252094086E-3  -5.717549882085442E-2  
 3.826551979144529E5    -3.710860274445687E-3  -5.877925176936948E-2   9.963357753549317E-1  -5.990193944953048E-2   9.967031395156846E-1  -5.983682862761825E-2  -3.768908847920310E-3  -5.835637318995864E-2  
 3.904944034268967E5    -3.964179016859184E-3  -6.015515440989019E-2   9.959504053639513E-1  -6.111806396153403E-2   9.966657661406568E-1  -6.083410748617685E-2  -3.815227010173499E-3  -5.959658869931652E-2  
 3.984942055898008E5    -4.130265227685471E-3  -6.138098748273187E-2   9.963096553823059E-1  -6.221940805437460E-2   9.965164761933554E-1  -6.224922263622305E-2  -4.077007830222499E-3  -6.079584566406274E-2  
 4.066578944411798E5    -4.322728923961163E-3  -6.255252519626782E-2   9.959512340565270E-1  -6.342741113744460E-2   9.962887546103258E-1  -6.329818395162877E-2  -4.266758177786969E-3  -6.226738903123406E-2  
 4.149888274198943E5    -4.274591324486694E-3  -6.367775050279985E-2   9.957130977618478E-1  -6.466032878700759E-2   9.963335942882150E-1  -6.500737861670840E-2  -4.490932286160598E-3  -6.355181815748073E-2  
 4.234904307464480E5    -4.669926096909438E-3  -6.500380196661536E-2   9.956365823870442E-1  -6.627136061771485E-2   9.959740007100064E-1  -6.606493290651430E-2  -4.585316383219873E-3  -6.479668798566003E-2  
 4.321662008320720E5    -4.952380042947529E-3  -6.647301197571262E-2   9.954409546138505E-1  -6.756617702776387E-2   9.958355437906217E-1  -6.745884483809204E-2  -4.780640088977854E-3  -6.604392429838819E-2  
 4.410197057166757E5    -5.031329870669760E-3  -6.769498142091809E-2   9.951555711528036E-1  -6.904446977068575E-2   9.956253498735046E-1  -6.863420622097015E-2  -4.940846516945713E-3  -6.751519836284806E-2  
 4.500545865362572E5    -5.018811637073857E-3  -6.908873501005289E-2   9.951516163022042E-1  -7.030664568507952E-2   9.953821451080841E-1  -7.015403977102420E-2  -5.230485690786526E-3  -6.876264719500502E-2  
 4.592745590203743E5    -5.372960901375672E-3  -7.067718418931752E-2   9.949646171895537E-1  -7.165818019163020E-2   9.954033020665544E-1  -7.150837918475303E-2  -5.618906742717918E-3  -7.010413612364720E-2  
 4.686834150202934E5    -5.416929674461988E-3  -7.192984638905235E-2   9.945801485288002E-1  -7.294634661606997E-2   9.949819902526844E-1  -7.314255014533819E-2  -5.597099257766704E-3  -7.159487044206626E-2  
 4.782850240684460E5    -5.706782390527436E-3  -7.352145872307052E-2   9.946342628937583E-1  -7.456212744912720E-2   9.948095297397843E-1  -7.453577984355429E-2  -6.060606558231707E-3  -7.309615691672455E-2  
 4.880833349698305E5    -6.038715186283582E-3  -7.485321172239152E-2   9.942155206612215E-1  -7.611420014715370E-2   9.945159109653916E-1  -7.601960990830456E-2  -5.881306844045838E-3  -7.461606193609355E-2  
 4.980823774260179E5    -6.184957529405658E-3  -7.628186877365217E-2   9.940716990128810E-1  -7.738163495819216E-2   9.943889651646116E-1  -7.736300674141208E-2  -6.365472069355584E-3  -7.614221611028159E-2  
 5.082862636924264E5    -6.447162639578785E-3  -7.787813977313049E-2   9.938157989497675E-1  -7.915109752673311E-2   9.941987833506416E-1  -7.897388143166718E-2  -6.511338853102221E-3  -7.765389543369194E-2  
 5.186991902695479E5    -6.780735690275699E-3  -7.950556015232820E-2   9.934005704309393E-1  -8.063271523875468E-2   9.940053051563773E-1  -8.086154418149570E-2  -6.945603755291174E-3  -7.929329507963341E-2  
 5.293254396288213E5    -7.122572681251974E-3  -8.117341195995827E-2   9.933909822265008E-1  -8.239354715119568E-2   9.936238032144706E-1  -8.242430416038667E-2  -7.001772201877748E-3  -8.094269256671095E-2  
 5.401693819738632E5    -7.337400876624493E-3  -8.286899132597037E-2   9.928699272117929E-1  -8.393348486218316E-2   9.933215512403892E-1  -8.404827873249933E-2  -7.437536178102754E-3  -8.261495370201172E-2  
 5.512354770377789E5    -7.582254356361548E-3  -8.446603772000540E-2   9.927512019002802E-1  -8.577998265651803E-2   9.931969086487616E-1  -8.567912213749067E-2  -7.750913052056012E-3  -8.414917143701062E-2  
 5.625282759172944E5    -7.793059968549592E-3  -8.614061360847353E-2   9.921603468980582E-1  -8.736643426823575E-2   9.928524569054688E-1  -8.723528440704149E-2  -7.876919472109712E-3  -8.612462913452762E-2  
 5.740524229444626E5    -8.114530423945960E-3  -8.786784120170497E-2   9.919341705759690E-1  -8.923401116639378E-2   9.921837403988857E-1  -8.927522671891154E-2  -8.241025537341786E-3  -8.764346024230055E-2  
 5.858126575967147E5    -8.399501161335759E-3  -8.961288688591131E-2   9.916951603218380E-1  -9.103951323546289E-2   9.921788041834689E-1  -9.094482119958093E-2  -8.508987906244452E-3  -8.946963708896434E-2  
 5.978138164460403E5    -8.713396598748631E-3  -9.148611772019841E-2   9.914014993197022E-1  -9.280869515137466E-2   9.918031532802660E-1  -9.276285427415867E-2  -8.920722313431957E-3  -9.133248911317028E-2  
 6.100608351481004E5    -9.013639821489677E-3  -9.338588893337031E-2   9.910241172276718E-1  -9.478975436647343E-2   9.913536732364111E-1  -9.457130227396832E-2  -9.280257418562686E-3  -9.315171908033464E-2  
 6.225587504720892E5    -9.359473802767419E-3  -9.523618414626425E-2   9.907654756788690E-1  -9.661063787954095E-2   9.908420183010065E-1  -9.654624192727920E-2  -9.654955203999017E-3  -9.515786721655052E-2  
 6.353127023721805E5    -9.807116737648502E-3  -9.716854120468099E-2   9.902610863923546E-1  -9.865759844330452E-2   9.904961737280092E-1  -9.853020923649342E-2  -1.016887554387539E-2  -9.695123506100103E-2  
 6.483279361014109E5    -1.023446706377399E-2  -9.916102411844081E-2   9.896788536830339E-1  -1.005162494432377E-1   9.902839830344505E-1  -1.004503299506061E-1  -1.040339589043427E-2  -9.908800200969503E-2  
 6.616098043688679E5    -1.056276518411033E-2  -1.010576618156761E-1   9.895169164122082E-1  -1.025121698023434E-1   9.899261040108965E-1  -1.024254928579837E-1  -1.089778546748036E-2  -1.010314110340038E-1  
 6.751637695410716E5    -1.101442158864708E-2  -1.031071267748045E-1   9.889236822727793E-1  -1.046200136897829E-1   9.892490082019853E-1  -1.045221389245842E-1  -1.125765313769713E-2  -1.028191927530215E-1  
 6.889954058884548E5    -1.143104294002572E-2  -1.053219821080453E-1   9.887536193187834E-1  -1.066351855166674E-1   9.887892625580833E-1  -1.066242115224078E-1  -1.177999988523776E-2  -1.049894721586336E-1  
 7.031104018778642E5    -1.195849916837127E-2  -1.074001214184540E-1   9.880240198225744E-1  -1.088847635516690E-1   9.885941816828862E-1  -1.085637077605670E-1  -1.228283048273643E-2  -1.070932978786003E-1  
 7.175145625120278E5    -1.242944344938062E-2  -1.095282982089093E-1   9.876870382383475E-1  -1.109388873604697E-1   9.879252725923040E-1  -1.108636849719902E-1  -1.276534622262094E-2  -1.093622714159481E-1  
 7.322138117169489E5    -1.298050423704253E-2  -1.116904483122340E-1   9.870536931763807E-1  -1.131331318084271E-1   9.874008978516309E-1  -1.131175402568924E-1  -1.303011466722437E-2  -1.114345861286323E-1  
 7.472141947782085E5    -1.337620274206895E-2  -1.138978259658722E-1   9.864087808393199E-1  -1.153589465090613E-1   9.869070026271113E-1  -1.153160081518847E-1  -1.372025553562176E-2  -1.136465710768058E-1  
 7.625218808271801E5    -1.396778284985536E-2  -1.161685867795038E-1   9.859904911234247E-1  -1.178591314478630E-1   9.862776923607559E-1  -1.177398701768345E-1  -1.433543092186709E-2  -1.160829087836147E-1  
 7.781431653781761E5    -1.448729252274508E-2  -1.185208658013373E-1   9.853356095973591E-1  -1.197985825658152E-1   9.858880821277859E-1  -1.201006390833693E-1  -1.476011582801717E-2  -1.184673302698342E-1  
 7.940844729175728E5    -1.507407352373129E-2  -1.208532037591930E-1   9.848444551903083E-1  -1.224977559281896E-1   9.852040718104049E-1  -1.224209596687595E-1  -1.528911350654631E-2  -1.206446097821836E-1  
 8.103523595459757E5    -1.566059726096066E-2  -1.234278329693614E-1   9.842680044082530E-1  -1.248850068050589E-1   9.844627253159218E-1  -1.248259080522104E-1  -1.595041797933085E-2  -1.230529652534073E-1  
 8.269535156745140E5    -1.629596755658926E-2  -1.258589117305897E-1   9.835779415536117E-1  -1.271993005476236E-1   9.839477063303075E-1  -1.273673364111100E-1  -1.651967058569812E-2  -1.254157518379945E-1  
 8.438947687763721E5    -1.689420715170746E-2  -1.282504820555235E-1   9.829542688421973E-1  -1.297589608113106E-1   9.832373465969091E-1  -1.299302810716728E-1  -1.738996185559667E-2  -1.280658051388269E-1  
 8.611830861946895E5    -1.774334161536298E-2  -1.309986824396676E-1   9.822612801837646E-1  -1.324651927587365E-1   9.823932637104761E-1  -1.324434519258869E-1  -1.806524920793233E-2  -1.304316546286583E-1  
 8.788255780079850E5    -1.830274591788782E-2  -1.333737323753746E-1   9.815443167676450E-1  -1.347849867495593E-1   9.818763975048298E-1  -1.349650586284656E-1  -1.871557216065762E-2  -1.332078421287722E-1  
 8.968294999542822E5    -1.925335927845919E-2  -1.361166933512861E-1   9.807036574706947E-1  -1.375683826694500E-1   9.810456209704805E-1  -1.378370552862785E-1  -1.940694550072838E-2  -1.357554339696578E-1  
 9.152022564151404E5    -1.986417046007541E-2  -1.387471302778715E-1   9.800879844811550E-1  -1.404535824573686E-1   9.802523944246209E-1  -1.404793365219219E-1  -2.008380192976282E-2  -1.383907739301745E-1  
 9.339514034608167E5    -2.054997321972679E-2  -1.414404699422359E-1   9.791669036364530E-1  -1.431589360448413E-1   9.794602818850126E-1  -1.431176295970915E-1  -2.103448639229093E-2  -1.412358787445143E-1  
 9.530846519578132E5    -2.150418402977771E-2  -1.442279449298891E-1   9.785709072656434E-1  -1.458248882420443E-1   9.786390058455290E-1  -1.459491217850165E-1  -2.173127607849147E-2  -1.439773036234094E-1  
 9.726098707400849E5    -2.249143699207255E-2  -1.470516447239839E-1   9.774908913699237E-1  -1.489163898930559E-1   9.778574339851895E-1  -1.488657970513299E-1  -2.259556546491562E-2  -1.468121090910386E-1  
 9.925350898452161E5    -2.322594375554203E-2  -1.498731945578430E-1   9.766028656337320E-1  -1.514929008751408E-1   9.770177044301038E-1  -1.517219020231858E-1  -2.374714083192905E-2  -1.497846796016363E-1  
 1.012868503816893E6    -2.416929689266548E-2  -1.528214066114665E-1   9.755905502647931E-1  -1.549732948076607E-1   9.757988079627820E-1  -1.549831187357190E-1  -2.433347903773487E-2  -1.524952835340949E-1  
 1.033618475075031E6    -2.547239161996916E-2  -1.558942377800080E-1   9.748246829650661E-1  -1.579505729608436E-1   9.751751690867099E-1  -1.578230883860798E-1  -2.526581623195588E-2  -1.554381881148211E-1  
 1.054793537354946E6    -2.608954749194701E-2  -1.590404200371768E-1   9.742885685377094E-1  -1.609043081302948E-1   9.737850548131269E-1  -1.610698922459483E-1  -2.638039600468531E-2  -1.584170957616658E-1  
 1.076402399216980E6    -2.706289826030604E-2  -1.619522722011331E-1   9.725725776815967E-1  -1.640912969038758E-1   9.727321162920972E-1  -1.638637605280315E-1  -2.711674804022809E-2  -1.614696931805334E-1  
 1.098453947628028E6    -2.841651859075286E-2  -1.649805566801302E-1   9.714292779379719E-1  -1.668845893868536E-1   9.719266169561053E-1  -1.669865849911366E-1  -2.876004070052388E-2  -1.647021427744373E-1  
 1.120957251616430E6    -2.985996743229008E-2  -1.683173321483114E-1   9.699923541885152E-1  -1.699064542731334E-1   9.707515630111913E-1  -1.706376256483207E-1  -2.992309890251468E-2  -1.681537299226481E-1  
 1.143921566001752E6    -3.039990792201211E-2  -1.718736246123827E-1   9.688948019117053E-1  -1.735134490531188E-1   9.698179879745615E-1  -1.740079215098849E-1  -3.088092981583461E-2  -1.714003181592178E-1  
 1.167356335200965E6    -3.178666442741187E-2  -1.750543975190546E-1   9.681161814514110E-1  -1.765209983182945E-1   9.677772823285346E-1  -1.768480277407870E-1  -3.250868203473867E-2  -1.747458539317563E-1  
 1.191271197112600E6    -3.317667158393969E-2  -1.783625857012771E-1   9.666473868523422E-1  -1.805137219385117E-1   9.668127770774381E-1  -1.801702081841104E-1  -3.345655346375197E-2  -1.773473097116795E-1  
 1.215675987080482E6    -3.478362227780548E-2  -1.816683260211985E-1   9.657112041140777E-1  -1.833843010003354E-1   9.652362523138118E-1  -1.839396668255410E-1  -3.511180143120703E-2  -1.813061874855041E-1  
 1.240580741938659E6    -3.617673639066752E-2  -1.852268067215657E-1   9.640787491293938E-1  -1.871694001968520E-1   9.642693314491165E-1  -1.869860783092353E-1  -3.611280833256213E-2  -1.850314103502118E-1  
 1.265995704139202E6    -3.715593007679457E-2  -1.884960068717961E-1   9.626561679049264E-1  -1.906660115769245E-1   9.629258904117081E-1  -1.911636364288473E-1  -3.783950546022936E-2  -1.886633360575303E-1  
 1.291931325964563E6    -3.900589273053473E-2  -1.922333550547209E-1   9.611530544507884E-1  -1.942506680132688E-1   9.610753636558376E-1  -1.946456522754667E-1  -3.926864707219992E-2  -1.916573372322960E-1  
 1.318398273826236E6    -4.075202874582773E-2  -1.958373614055392E-1   9.598257558469201E-1  -1.983956108681746E-1   9.597265142833527E-1  -1.976973404512326E-1  -4.075627145703741E-2  -1.957300651340284E-1  
 1.345407432651476E6    -4.202437201625033E-2  -1.993782199696096E-1   9.581981644620388E-1  -2.019108822056095E-1   9.583192886946754E-1  -2.021031177703461E-1  -4.255374576439487E-2  -1.990430119932302E-1  
 1.372969910359885E6    -4.375923878090875E-2  -2.034055366298585E-1   9.561579974852991E-1  -2.053276384564841E-1   9.560780993610556E-1  -2.057818987653262E-1  -4.396602131671261E-2  -2.024575447331736E-1  
 1.401097042431717E6    -4.507203683640219E-2  -2.068111535264907E-1   9.546039194628376E-1  -2.090287502083829E-1   9.549118844326534E-1  -2.092155743408423E-1  -4.558150053135105E-2  -2.066547207349934E-1  
 1.429800396569754E6    -4.698428915334259E-2  -2.106252474191510E-1   9.523729399299623E-1  -2.135413219626194E-1   9.530207855182524E-1  -2.136043259765639E-1  -4.741154603608014E-2  -2.106466621753335E-1  
 1.459091777456705E6    -4.908127853771631E-2  -2.144107105324671E-1   9.511434869851244E-1  -2.171967801942911E-1   9.513097114915077E-1  -2.175868740373180E-1  -4.942190556186589E-2  -2.147235813205792E-1  
 1.488983231610052E6    -5.086472483536562E-2  -2.187721137329063E-1   9.492199557368906E-1  -2.211324467090742E-1   9.489796743341380E-1  -2.217203214595005E-1  -5.123311361613559E-2  -2.187181293290580E-1  
 1.519487052336364E6    -5.264829795993473E-2  -2.230398104527096E-1   9.465382499311694E-1  -2.254537800720244E-1   9.472105107768727E-1  -2.253974057819895E-1  -5.333669805280627E-2  -2.223682593576417E-1  
 1.550615784787099E6    -5.490783252987052E-2  -2.270924483960072E-1   9.453494644025819E-1  -2.294393025815479E-1   9.449706736112289E-1  -2.292743231212944E-1  -5.534953363054072E-2  -2.263828262623891E-1  
 1.582382231117988E6    -5.725711252463849E-2  -2.310108208872708E-1   9.429042941879663E-1  -2.339237931006338E-1   9.424503182927466E-1  -2.336175584601226E-1  -5.754881965020901E-2  -2.305922503259170E-1  
 1.614799455754111E6    -5.917511580134208E-2  -2.352197274454233E-1   9.402706715387108E-1  -2.378839737569977E-1   9.410670172164050E-1  -2.378534679697593E-1  -6.004226337403510E-2  -2.352147298545182E-1  
 1.647880790762838E6    -6.164602755093007E-2  -2.394307642731771E-1   9.381079304637190E-1  -2.420412655345598E-1   9.385433303031214E-1  -2.423126718597106E-1  -6.243030137860131E-2  -2.389141515650402E-1  
 1.681639841336839E6    -6.421155996443925E-2  -2.439936136562270E-1   9.358822777950433E-1  -2.464805248512643E-1   9.360242324979367E-1  -2.463462325478342E-1  -6.474499331273984E-2  -2.434049840217999E-1  
 1.716090491389422E6    -6.653122155705335E-2  -2.480233022128453E-1   9.335539753696849E-1  -2.505117619204265E-1   9.336992302825895E-1  -2.508893935168343E-1  -6.722733151458619E-2  -2.477024828887218E-1  
 1.751246909264502E6    -6.925185201110716E-2  -2.524513308751734E-1   9.305998255347643E-1  -2.552621445213655E-1   9.307197391415979E-1  -2.554658491564983E-1  -6.989061454118821E-2  -2.520852559517099E-1  
 1.787123553563544E6    -7.211117282584051E-2  -2.563816947827622E-1   9.275297491918657E-1  -2.596733260220391E-1   9.282151668619673E-1  -2.597990521342330E-1  -7.262872295114614E-2  -2.567777239596260E-1  
 1.823735179091875E6    -7.458231944040364E-2  -2.611874876583112E-1   9.251986527338396E-1  -2.644321525182521E-1   9.253807174159400E-1  -2.643529916303868E-1  -7.470771572703665E-2  -2.607498614149078E-1  
 1.861096842926821E6    -7.745309738122581E-2  -2.656620447686074E-1   9.222653419590927E-1  -2.689024821346793E-1   9.228683215085223E-1  -2.689154611988209E-1  -7.820279550086501E-2  -2.651586055515471E-1  
 1.899223910610154E6    -8.048610755281717E-2  -2.703945305893482E-1   9.193097220324202E-1  -2.736678758660445E-1   9.195668014200035E-1  -2.739159175140222E-1  -8.108249334904383E-2  -2.697777421042322E-1  
 1.938132062467400E6    -8.373257575867356E-2  -2.752089540910618E-1   9.160455171172929E-1  -2.780983517936462E-1   9.163520895989800E-1  -2.785547437905034E-1  -8.371618077275798E-2  -2.746918166649769E-1  
 1.977837300056607E6    -8.648056466159781E-2  -2.797124715048044E-1   9.129578641792366E-1  -2.826428888449510E-1   9.134464178016626E-1  -2.829109603182865E-1  -8.688434687923823E-2  -2.790094094367155E-1  
