#  HZ   S   RI   R     50 
! Rohde & Schwarz ZVA/B 
! 
! 
! 
 3.000000000000000E5     6.045530092485432E-4   1.756695796779343E-4   9.999316013509397E-1  -8.802715019023175E-4   1.000050762113203  -1.526615982906969E-3   3.553476929250427E-4   7.636145330667041E-4  
 3.061459028037530E5     4.391614807155248E-4   5.237962160580334E-6   9.999326730361416E-1  -7.950240216996868E-4   9.997788387178106E-1  -1.236730591000045E-3   5.157217366035758E-4   6.400830928493854E-4  
 3.124177126784167E5     4.887732171692092E-4   3.099932742885776E-4   1.000276324935816  -1.146097262841327E-3   1.000114091974601  -1.173700693163192E-3   2.515012445693142E-4   3.194032281199843E-4  
 3.188180089993913E5     3.475673128335274E-4   2.013778787474397E-4   9.998802826168751E-1  -1.250068723592412E-3   9.999189419929325E-1  -1.528125771339203E-3   5.852776813428987E-4   7.057693003979073E-4  
 3.253494239840457E5     5.004397079066341E-4   1.418917916104631E-4   9.999142501073279E-1  -1.267718880499689E-3   9.998667905857559E-1  -1.161132510451948E-3   2.605204097432126E-4   5.165432549121554E-4  
 3.320146437742557E5     5.283209367820311E-4   1.214542890703808E-5   9.999396738553428E-1  -9.672352431592934E-4   1.000027240431482  -1.458379751144453E-3   1.855118803194591E-4   2.743819050667339E-4  
 3.388164095411199E5     3.908775568197920E-4   9.930390825974928E-5   9.997543598833139E-1  -1.285362383362518E-3   1.000106974064186  -1.071173656066360E-3   2.651912197204744E-4   2.949130568228937E-4  
 3.457575186123076E5     4.065810475521750E-4   1.467449210445518E-4   9.994468885205922E-1  -1.272000681213766E-3   1.000133396170797  -1.320161461574063E-3   1.712514152556638E-4   4.621664165781517E-4  
 3.528408256225012E5     3.576644488166830E-4   4.316618342643753E-5   9.996551564408922E-1  -1.251467104701334E-3   1.000006699405584  -1.133952063164107E-3   2.757666550820317E-5   2.339936984288477E-4  
 3.600692436874074E5     2.024087134368132E-4  -4.859401651291741E-5   9.999698975401887E-1  -1.113268191772251E-3   1.000066464227327  -1.368683708527294E-3   1.582773542512416E-4   3.067086529469054E-4  
 3.674457456018197E5     2.707757145588392E-4  -1.222836184827061E-4   9.998234546178103E-1  -1.249922782913386E-3   1.000020557937048  -1.292004984036282E-3   7.582393858159055E-6   2.806632571197524E-4  
 3.749733650622242E5     1.827195553006128E-4  -1.933806358850892E-4   9.997971135695082E-1  -1.190791145097272E-3   9.998074925435534E-1  -1.536862875413028E-3   1.066753931275954E-4   2.623968089794956E-4  
 3.826551979144529E5     1.546687388802632E-4   2.028832121572515E-5   9.996807960602300E-1  -1.094908180087077E-3   9.999411708867266E-1  -1.314868298009124E-3   1.713732998087704E-5   1.860849666076410E-4  
 3.904944034268967E5    -5.660535433363840E-7  -8.510976473765886E-5   9.999771704910127E-1  -1.546443873583682E-3   1.000092265592503  -1.358097643893179E-3   1.589568877192802E-4  -9.828113796465803E-6  
 3.984942055898008E5     2.805112521661210E-5  -2.899817995036557E-4   9.998025131968389E-1  -1.316969861354775E-3   9.999086415917986E-1  -1.223754792807264E-3   1.825318238733215E-5   4.630884775087066E-5  
 4.066578944411798E5     3.040915126192823E-5  -2.221940494019585E-4   9.998832654342983E-1  -1.206110676556070E-3   1.000053590998974  -1.278348605968465E-3   7.843959062776555E-6  -1.311960265143112E-4  
 4.149888274198943E5     2.410305698779839E-4  -6.177502827207718E-5   9.996362635412245E-1  -1.348174063642308E-3   1.000074023835302  -1.404652038034598E-3  -1.110071808948625E-4  -1.744151172334336E-4  
 4.234904307464480E5     1.348583614767961E-4  -1.423170476398146E-4   9.997139626708630E-1  -1.358203301223249E-3   1.000185255408604  -1.263930227689666E-3  -1.401685502326748E-5  -1.451483936647969E-4  
 4.321662008320720E5     7.086099159296073E-5  -3.870868183348059E-4   1.000006838470363  -1.274213376577487E-3   1.000059112367794  -1.389745251928981E-3  -5.366942833837806E-5  -8.493126147423830E-5  
 4.410197057166757E5     3.371977444242951E-5  -1.895361696920561E-4   9.998113246033774E-1  -1.719043878365356E-3   9.999191516472338E-1  -1.296033452243467E-3   9.869932292276427E-5  -1.995668855233832E-4  
 4.500545865362572E5     1.020680534279403E-4  -2.918693616529599E-4   9.999708999034134E-1  -1.532546762005756E-3   9.999605763515245E-1  -1.384748939583186E-3  -9.026246242181217E-5  -1.545305274526955E-4  
 4.592745590203743E5     8.936829069706003E-5  -3.786344898859096E-4   9.996586222981742E-1  -1.628873779364519E-3   1.000201047646462  -1.575343198768734E-3  -1.851114087905050E-4  -1.385227776022740E-4  
 4.686834150202934E5     2.423019940740288E-4  -2.997934257359070E-4   9.997894033547565E-1  -1.492435982620853E-3   9.999145465707451E-1  -1.488094781356638E-3  -9.297483657820948E-5  -2.310840038093220E-4  
 4.782850240684460E5     9.963507765225753E-5  -4.236079973558927E-4   9.996334554537376E-1  -1.783626335525557E-3   9.999885948863729E-1  -1.440425503420651E-3  -3.285768218998296E-4  -3.091809161462530E-4  
 4.880833349698305E5     7.526575239601828E-5  -3.652225975987898E-4   9.998711254724069E-1  -1.621853335046208E-3   1.000045513102296  -1.554194737733062E-3   6.428551567207562E-5  -2.558625445639831E-4  
 4.980823774260179E5     2.256538838340256E-5  -3.217941445687085E-4   9.997891914630785E-1  -1.514548661559339E-3   1.000113129470199  -1.489743537384753E-3  -2.167381944126224E-4  -3.999522134705690E-4  
 5.082862636924264E5     4.683683897076028E-5  -3.768538675192570E-4   9.997680696618562E-1  -1.799320672804341E-3   1.000219179610123  -1.692047443067228E-3  -4.110369274692133E-5  -3.200889207614696E-4  
 5.186991902695479E5    -1.237614953310489E-4  -4.372687613682610E-4   9.997610233972207E-1  -1.688822406106183E-3   1.000170662460691  -1.758203558337606E-3  -3.838945147631297E-4  -3.890951853894155E-4  
 5.293254396288213E5    -2.974219827335405E-5  -5.303922930552410E-4   9.998203144338694E-1  -1.856843544825116E-3   1.000071619238529  -1.877424439626873E-3  -1.119860252152812E-4  -4.365199329640626E-4  
 5.401693819738632E5    -3.557727420557139E-5  -6.560060875647366E-4   9.997580306871421E-1  -1.826887923604027E-3   9.999335169184292E-1  -1.816796931942770E-3  -1.816326880673260E-4  -5.597011027760482E-4  
 5.512354770377789E5     6.560987909972893E-5  -6.154781102532808E-4   9.996177900038050E-1  -1.858919967507049E-3   9.998651329649380E-1  -1.842448337016516E-3  -2.630609868222426E-4  -4.803034878176110E-4  
 5.625282759172944E5    -4.511854992958165E-5  -5.544685068283962E-4   9.997871995654494E-1  -1.706991972703211E-3   1.000063216876815  -1.891782731681900E-3  -7.723385232460182E-5  -7.993713923072916E-4  
 5.740524229444626E5     8.475132702932158E-5  -5.253582025036377E-4   9.998030664218701E-1  -1.963871263875880E-3   9.998790859173925E-1  -1.918729629143604E-3  -1.573677923606287E-4  -5.545083196871778E-4  
 5.858126575967147E5     1.003232866615353E-4  -5.823856320866119E-4   9.999937311257412E-1  -2.040909886506013E-3   1.000127955730213  -1.906614613389891E-3  -1.127244443209379E-4  -5.119180117580066E-4  
 5.978138164460403E5     4.329712546157569E-5  -6.576501596811109E-4   9.997390884920603E-1  -1.766873185897493E-3   1.000124898060774  -2.044753911186868E-3  -1.791912544538046E-4  -6.723598801235218E-4  
 6.100608351481004E5     1.809380091967405E-4  -7.023849372645008E-4   9.998170545326189E-1  -1.882022037717983E-3   1.000124559601952  -1.833386290660545E-3  -1.924066038647324E-4  -6.727182521850625E-4  
 6.225587504720892E5     1.518449071922824E-4  -7.271770206749818E-4   9.998723287013036E-1  -1.811399633059702E-3   9.999230963856062E-1  -2.111432056476661E-3  -1.650814934438286E-4  -8.040458688519181E-4  
 6.353127023721805E5     6.106194727473366E-5  -7.242106142410723E-4   9.998877321438700E-1  -2.112396385641268E-3   1.000036663130502  -2.017927174127936E-3  -3.649925494717016E-4  -7.405665397858466E-4  
 6.483279361014109E5     5.020286126533191E-5  -8.546017443501065E-4   9.998245906829021E-1  -2.115460726982440E-3   1.000156363558745  -2.109305602285852E-3  -1.722075680612881E-4  -9.116276398181960E-4  
 6.616098043688679E5     1.280164434190864E-4  -8.164585549250848E-4   9.996654864833172E-1  -2.034460721873182E-3   1.000095670030296  -2.221631358798095E-3  -2.963303533187430E-4  -9.682206932100930E-4  
 6.751637695410716E5     9.729007560375850E-5  -8.493084917182128E-4   1.000047645417004  -2.315929235061819E-3   9.998973681070288E-1  -2.278380231110860E-3  -2.960131829405594E-4  -7.340032177657901E-4  
 6.889954058884548E5     8.013531384521199E-5  -9.771811370688428E-4   9.997962695256812E-1  -2.223914581193315E-3   1.000062836524017  -2.354343736754357E-3  -2.857263776366425E-4  -8.409637739754450E-4  
 7.031104018778642E5     2.153197146622377E-5  -9.642626073970617E-4   9.996737387651693E-1  -2.455583318026448E-3   9.999974527578832E-1  -2.341124355280421E-3  -4.501208975089212E-4  -8.960101310341889E-4  
 7.175145625120278E5     3.801726086181872E-5  -9.702663070864653E-4   9.999104507439605E-1  -2.391249135987153E-3   1.000012691418243  -2.356890522483579E-3  -3.263336748099345E-4  -1.039071945952956E-3  
 7.322138117169489E5    -2.162769132461972E-5  -1.015921816091334E-3   9.997553760785557E-1  -2.450073957097310E-3   1.000080216257769  -2.237887495631728E-3  -1.714760035101853E-4  -9.032157651341832E-4  
 7.472141947782085E5     1.452804151497902E-4  -9.598002836668180E-4   9.998366134012732E-1  -2.539261447725507E-3   9.999709783292645E-1  -2.452512741217016E-3  -3.236162513482769E-4  -9.660400693274927E-4  
 7.625218808271801E5     3.875912395263051E-5  -9.895478289629707E-4   9.998689453810016E-1  -2.612820443878059E-3   1.000122608798139  -2.486670436063077E-3  -3.715799421972038E-4  -1.088885322721189E-3  
 7.781431653781761E5     1.067366021903779E-4  -1.061736913699176E-3   9.998726812092299E-1  -2.640784967096438E-3   1.000091970481076  -2.589183237418566E-3  -2.359784053076773E-4  -1.210384329417728E-3  
 7.940844729175728E5     1.090978193856676E-4  -1.046468826996473E-3   9.997551181455641E-1  -2.474510198707914E-3   1.000171895778417  -2.520336031269150E-3  -2.183638131513327E-4  -1.014823418102121E-3  
 8.103523595459757E5     1.209304329658400E-4  -1.221067368326566E-3   9.998939853573594E-1  -2.622023093929950E-3   1.000019891364163  -2.426034089347408E-3  -2.514498465383251E-4  -1.114659108600075E-3  
 8.269535156745140E5     1.327757346587379E-4  -1.221950500154522E-3   9.998547379915936E-1  -2.737210820253162E-3   1.000180216280602  -2.811766614184766E-3  -1.865385058169620E-4  -1.081991315293161E-3  
 8.438947687763721E5     1.702495184418856E-4  -1.185301628917241E-3   9.999114072911667E-1  -2.742491335757242E-3   9.999762050329348E-1  -2.883315989989447E-3  -3.330407322176204E-4  -1.295587620895695E-3  
 8.611830861946895E5     1.176846543511317E-4  -1.432534571851763E-3   9.996352894833535E-1  -2.875640899216897E-3   9.999954905440340E-1  -2.919471624771783E-3  -4.318165518482747E-4  -1.166104434363109E-3  
 8.788255780079850E5     1.206621453135986E-4  -1.226571999630132E-3   9.999742726755256E-1  -2.979143947616653E-3   1.000093283017020  -2.838668776392077E-3  -3.038339316385067E-4  -1.352847103440295E-3  
 8.968294999542822E5    -6.029174389329865E-5  -1.356168100523656E-3   9.998295646221427E-1  -2.830262718529546E-3   1.000094491613911  -2.995994307560140E-3  -2.796432770961056E-4  -1.270649617322620E-3  
 9.152022564151404E5     1.129340316111679E-4  -1.327549671618113E-3   9.998823408737416E-1  -2.874639002206322E-3   1.000033785893885  -2.947896951046661E-3  -2.963426891969135E-4  -1.214781837457206E-3  
 9.339514034608167E5     1.929448718113099E-4  -1.405869440532514E-3   9.998892012538871E-1  -3.150034144371333E-3   1.000073733926715  -3.020733929719109E-3  -2.952003376078740E-4  -1.457945731065384E-3  
 9.530846519578132E5     1.206488616527778E-4  -1.382271530224716E-3   9.998425042259116E-1  -3.174718519249743E-3   1.000101990290007  -3.153537611316665E-3  -2.848431636825227E-4  -1.377021327227246E-3  
 9.726098707400849E5     3.401421086614523E-5  -1.431864900057517E-3   9.999911383284760E-1  -3.227936175283433E-3   1.000101854275384  -3.196380494215462E-3  -1.594746591672890E-4  -1.439497671667334E-3  
 9.925350898452161E5     8.764502183335337E-5  -1.415198586248741E-3   9.997934860219737E-1  -3.182986846862809E-3   1.000065331871375  -3.256092654835419E-3  -3.406468702963134E-4  -1.519100924909753E-3  
 1.012868503816893E6     2.975218363949297E-4  -1.439462389419000E-3   9.997677017216089E-1  -3.071754784947914E-3   9.999700294644722E-1  -3.515284394785446E-3  -1.203300970904308E-4  -1.604103747322620E-3  
 1.033618475075031E6    -1.716459231868586E-4  -1.758687629099438E-3   9.993443869149107E-1  -3.781186707435802E-3   1.000220592023722  -3.882251096804761E-3  -1.455768990102047E-4  -1.241194182213236E-3  
 1.054793537354946E6     7.369528612869607E-5  -1.800274310996321E-3   9.996635534772997E-1  -3.147693055888651E-3   9.997391887190249E-1  -3.481923724720600E-3  -2.419034132242795E-4  -1.559582213454250E-3  
 1.076402399216980E6     3.600637924998412E-4  -1.402221747728355E-3   9.998273269525322E-1  -3.556229567832570E-3   1.000517566839642  -3.346135113090420E-3  -5.763430517225756E-5  -1.393472622838135E-3  
 1.098453947628028E6    -3.736165037615116E-5  -1.586244264412666E-3   9.997091228226138E-1  -3.622577355521597E-3   1.000313958364378  -3.575317432020558E-3  -4.607040372444901E-4  -1.615241609366735E-3  
 1.120957251616430E6    -2.596120939284821E-5  -1.557754415583923E-3   9.998586656010355E-1  -3.985031915600469E-3   1.000438042743017  -3.856491342470114E-3  -2.789946456864823E-4  -1.889483003299650E-3  
 1.143921566001752E6     5.497281087729426E-4  -1.931335723687269E-3   9.997496099449401E-1  -3.993487130516772E-3   1.000500832307150  -4.112463628861507E-3  -1.129128829357879E-4  -1.928200393158772E-3  
 1.167356335200965E6     1.365668849984479E-4  -2.009569276626250E-3   9.995186178283684E-1  -3.794616388949221E-3   9.998672330437739E-1  -4.237262929266805E-3  -5.439393747387449E-4  -1.976153107867691E-3  
 1.191271197112600E6     2.000481907706038E-4  -1.967377787859793E-3   9.997869346548407E-1  -4.086574410706212E-3   9.999737029870590E-1  -3.453438680100548E-3  -4.948083565831986E-4  -1.417445210388261E-3  
 1.215675987080482E6    -1.339942213479588E-4  -1.937805649090442E-3   1.000285938532653  -3.525271641797351E-3   1.000010305735254  -4.602215893790865E-3  -5.258234586106539E-4  -1.982497545737424E-3  
 1.240580741938659E6    -7.375148011072752E-5  -1.723269042987684E-3   9.999401335283102E-1  -4.196996916175522E-3   1.000211373961402  -4.092952156933172E-3  -7.148088275677589E-5  -2.004424983378390E-3  
 1.265995704139202E6     1.814945827677455E-4  -1.808164012485210E-3   9.997947003786805E-1  -3.817034264378821E-3   1.000083151387312  -4.444781708378010E-3  -2.448579053299013E-4  -2.343599899063701E-3  
 1.291931325964563E6    -6.724585191678093E-5  -1.792377616592822E-3   9.995865183300294E-1  -4.590946271958549E-3   9.999719058462665E-1  -4.421900109275558E-3  -3.890091408409694E-4  -2.011444096621554E-3  
 1.318398273826236E6     1.609526579977239E-4  -2.134421040100830E-3   9.999552387712205E-1  -4.682309176896810E-3   1.000265352557955  -4.289279272209894E-3  -3.571475540038951E-4  -2.325619230772138E-3  
 1.345407432651476E6     9.708669769668473E-5  -2.013414625807935E-3   9.997586871563826E-1  -4.547476911675574E-3   9.997855632361969E-1  -4.467388866107475E-3  -4.420129751003203E-4  -2.185167215155515E-3  
 1.372969910359885E6    -1.864975109426313E-4  -2.353535192070486E-3   1.000005511888295  -4.665662172435571E-3   9.999726655456530E-1  -4.713229839795382E-3  -4.291218945236826E-4  -1.632504086881957E-3  
 1.401097042431717E6    -1.586339206683004E-5  -2.034608779489507E-3   9.995013070568540E-1  -4.553150982440616E-3   9.999427056911739E-1  -5.088272637843474E-3  -3.279399383678232E-4  -2.272641021640901E-3  
 1.429800396569754E6     2.454766074847709E-4  -2.081943036803747E-3   1.000062821712209  -4.903085270270760E-3   1.000389881640868  -4.528299177659712E-3  -1.611901233585535E-4  -2.460214221107327E-3  
 1.459091777456705E6     5.430962304285152E-5  -1.892888028994220E-3   9.996659715571399E-1  -4.891250567155780E-3   1.000048509788319  -4.908585723439897E-3  -1.573221829502648E-4  -2.482675562680835E-3  
 1.488983231610052E6     2.294093116686155E-4  -2.299366281266363E-3   1.000092309160099  -5.023568507461104E-3   9.998011865150445E-1  -5.097704922219719E-3  -2.344205174707809E-4  -2.691378824633001E-3  
 1.519487052336364E6     3.089842580260785E-4  -2.605824968742511E-3   9.999956690788729E-1  -5.253819384177712E-3   9.999319168137344E-1  -5.207475465199719E-3  -3.692270251562846E-4  -2.597211920310706E-3  
 1.550615784787099E6     1.018542385411079E-4  -2.512511071493843E-3   9.999101098223281E-1  -5.366883583387432E-3   1.000206159542230  -5.288652412714405E-3  -3.449726039596316E-4  -2.390598865918848E-3  
 1.582382231117988E6     1.961732601368891E-4  -2.544821132413508E-3   1.000181077596078  -5.233082595579332E-3   1.000231087617959  -4.841314983805703E-3  -6.533242564370030E-4  -2.545482334556414E-3  
 1.614799455754111E6     4.751366987238544E-4  -2.520999540490945E-3   9.995403798290076E-1  -5.674959937929969E-3   1.000161237022920  -5.429743464959788E-3  -2.185458694005092E-4  -2.991951069380247E-3  
 1.647880790762838E6     2.792028508364560E-4  -2.740431119216753E-3   1.000299217991860  -5.290513297697436E-3   1.000525276593470  -5.590358525157587E-3  -5.786295362723872E-4  -2.659029031757020E-3  
 1.681639841336839E6     2.571658108793971E-4  -3.091884197503568E-3   1.000477870475370  -5.352877336031560E-3   9.999375419667813E-1  -5.885803420544165E-3  -3.386597412129044E-4  -2.831064761263759E-3  
 1.716090491389422E6     1.858203306013589E-4  -2.746854918652585E-3   1.000542085040941  -5.225693311734453E-3   9.994931981072982E-1  -6.019770635658469E-3  -5.573276284106124E-4  -2.794543939435631E-3  
 1.751246909264502E6     2.218499594823121E-4  -2.810806031688227E-3   9.999786846266088E-1  -5.587495966768394E-3   1.000124483343612  -6.056380063527879E-3  -5.804598417326057E-4  -2.927311992455446E-3  
 1.787123553563544E6    -2.388008596478413E-4  -2.676046546792976E-3   9.999091944322195E-1  -5.763107798733521E-3   1.000147971913516  -6.463526436909889E-3  -4.391318060379225E-4  -3.205670044964929E-3  
 1.823735179091875E6     1.307609011740780E-4  -2.619930756015972E-3   1.000100729119958  -5.847249671723662E-3   1.000131678213012  -6.077332529808172E-3  -1.802928925749129E-4  -2.609787354546044E-3  
 1.861096842926821E6     6.128880359811093E-5  -2.824904027178249E-3   9.999171853000697E-1  -6.384260937305519E-3   1.000057928299647  -6.550258114259677E-3  -5.822706277126710E-4  -2.905790803238754E-3  
 1.899223910610154E6     3.090356929770848E-4  -3.057600943987423E-3   1.000030494127176  -6.514079119132258E-3   1.000053643233826  -6.367125755856920E-3  -5.717327838171362E-4  -2.981278142343503E-3  
 1.938132062467400E6     1.235995098711100E-4  -3.264495273930299E-3   9.996406639306236E-1  -6.716891304869433E-3   1.000421253699930  -6.503364194032729E-3  -3.062070460055225E-4  -3.169131038636443E-3  
 1.977837300056607E6     1.173425656757946E-4  -3.117032581981935E-3   9.993804702194238E-1  -6.206464469370601E-3   1.000212562028627  -6.582876856126502E-3  -5.080266931161497E-4  -3.021592521321556E-3  
 2.018355952749225E6    -1.583017196281609E-5  -3.224556988220906E-3   1.000020987114353  -8.102212350856033E-3   1.000989464545176  -6.980327401803417E-3   5.595698782874271E-4  -3.415787574211941E-3  
 2.059704684445802E6    -5.853971976684597E-6  -3.498343251285459E-3   9.996838056750568E-1  -5.926187736293675E-3   1.000584775094519  -8.678693778653650E-3  -1.206603108715759E-3  -3.121106471900108E-3  
