#  HZ   S   RI   R     50 
! Rohde & Schwarz ZVA/B 
! 
! 
! 
 3.000000000000000E5    -1.735280723225475E-3  -4.642182159111633E-2   9.973641018239544E-1  -4.739338002515411E-2   9.982297538598404E-1  -4.715932250639048E-2  -1.986281975854672E-3  -4.568078177011389E-2  
 3.061459028037530E5    -2.084889734063630E-3  -4.742735389295596E-2   9.978298137859333E-1  -4.805154482996844E-2   9.982980747037139E-1  -4.804380010816945E-2  -2.021188779240341E-3  -4.670958908989147E-2  
 3.124177126784167E5    -2.074209564685631E-3  -4.826160161348088E-2   9.976268693118376E-1  -4.921674941613120E-2   9.979507853051882E-1  -4.924779349513120E-2  -2.246077755905392E-3  -4.801128462248365E-2  
 3.188180089993913E5    -2.394662061164780E-3  -4.926650461606607E-2   9.972868256773486E-1  -4.997926029219701E-2   9.978199277888732E-1  -4.996423613690763E-2  -2.161714001896099E-3  -4.860360598925263E-2  
 3.253494239840457E5    -2.354368849844569E-3  -5.034222748550730E-2   9.974851220282924E-1  -5.132074255925540E-2   9.977380285287357E-1  -5.097142538142031E-2  -2.552900865589720E-3  -4.968027305014258E-2  
 3.320146437742557E5    -2.470149439502688E-3  -5.140118128150013E-2   9.972745656916728E-1  -5.227656168739832E-2   9.976164633997422E-1  -5.196216892488621E-2  -2.802291448535730E-3  -5.090899432646459E-2  
 3.388164095411199E5    -2.638625870439965E-3  -5.241394297274139E-2   9.968991124207833E-1  -5.321543345570688E-2   9.976870997945195E-1  -5.305881574847859E-2  -2.795214492914175E-3  -5.193761246339583E-2  
 3.457575186123076E5    -2.839348203042312E-3  -5.335326188481356E-2   9.969374786364407E-1  -5.449042973447230E-2   9.974189414332568E-1  -5.436394604569143E-2  -2.962750761899902E-3  -5.285206649499206E-2  
 3.528408256225012E5    -2.988355068581606E-3  -5.459002271218870E-2   9.968531398241514E-1  -5.568147070399919E-2   9.974431483027280E-1  -5.530837289092827E-2  -3.213538451945959E-3  -5.410825406865669E-2  
 3.600692436874074E5    -3.213635900311963E-3  -5.573243216101587E-2   9.965979932201855E-1  -5.666802136871241E-2   9.971812406870365E-1  -5.645471682194030E-2  -3.365351684070297E-3  -5.506359495566986E-2  
 3.674457456018197E5    -3.254248697371363E-3  -5.684512055805461E-2   9.963473698316482E-1  -5.779541436503087E-2   9.970161592967266E-1  -5.748845127996201E-2  -3.575712707454775E-3  -5.619302725024299E-2  
 3.749733650622242E5    -3.576149373362395E-3  -5.807903388303535E-2   9.962777687085130E-1  -5.894777037300306E-2   9.967177320463336E-1  -5.894456464005116E-2  -3.564666885857131E-3  -5.738981761806723E-2  
 3.826551979144529E5    -3.665850880571603E-3  -5.900433396498241E-2   9.963908833853050E-1  -6.000074724090347E-2   9.967272576178702E-1  -5.996328017301696E-2  -3.811368460257382E-3  -5.862065920938057E-2  
 3.904944034268967E5    -4.048052301596982E-3  -6.034713263947955E-2   9.960872661692061E-1  -6.140077779768338E-2   9.967230571510179E-1  -6.104461508089477E-2  -3.851974276959224E-3  -5.995859434871501E-2  
 3.984942055898008E5    -4.072698535044768E-3  -6.167450887275870E-2   9.959086144603511E-1  -6.257812980852236E-2   9.963241797944905E-1  -6.237343188145466E-2  -4.154020751119836E-3  -6.114619008548836E-2  
 4.066578944411798E5    -4.370589527485608E-3  -6.283734124282495E-2   9.959904890593541E-1  -6.360561281453500E-2   9.964212875055617E-1  -6.352979837958081E-2  -4.248198517922853E-3  -6.252520699750355E-2  
 4.149888274198943E5    -4.362062360510165E-3  -6.397251291110864E-2   9.955094307079926E-1  -6.491684449536428E-2   9.961778699271778E-1  -6.490829849403401E-2  -4.529053543087537E-3  -6.385805401877091E-2  
 4.234904307464480E5    -4.685096279051291E-3  -6.529568038474551E-2   9.952646033795227E-1  -6.625646320388136E-2   9.960805684345657E-1  -6.640596383191739E-2  -4.520457090339251E-3  -6.519239986618304E-2  
 4.321662008320720E5    -4.893842445799766E-3  -6.678414641993091E-2   9.953265536333614E-1  -6.768442638948055E-2   9.957426050650352E-1  -6.769389962104451E-2  -4.858557101691427E-3  -6.628701156896273E-2  
 4.410197057166757E5    -5.054930875958192E-3  -6.801389401863428E-2   9.949609666520198E-1  -6.916763258995208E-2   9.954166049984649E-1  -6.889974872484270E-2  -4.841193769701138E-3  -6.780975657265702E-2  
 4.500545865362572E5    -5.054894524002607E-3  -6.942997652401396E-2   9.950124106087780E-1  -7.046956189152555E-2   9.952586707010386E-1  -7.046405005642205E-2  -5.143521618577675E-3  -6.899824117085289E-2  
 4.592745590203743E5    -5.363121578319947E-3  -7.096255309372634E-2   9.946712783704407E-1  -7.192438413082414E-2   9.951397209173472E-1  -7.186573222214490E-2  -5.565265681565814E-3  -7.045549533541225E-2  
 4.686834150202934E5    -5.354835481785596E-3  -7.219354943465944E-2   9.945556775507878E-1  -7.318382388843703E-2   9.948503433539673E-1  -7.334076684309344E-2  -5.661595721844011E-3  -7.189482187196014E-2  
 4.782850240684460E5    -5.773618654236372E-3  -7.378382034615817E-2   9.942181772419834E-1  -7.491809137024749E-2   9.946043714095151E-1  -7.480882525988493E-2  -6.109778261827180E-3  -7.339882858214297E-2  
 4.880833349698305E5    -6.042425073562219E-3  -7.523661828305366E-2   9.939399775480126E-1  -7.643860644975346E-2   9.943665405232565E-1  -7.625910787961124E-2  -5.893200052096944E-3  -7.496195651531140E-2  
 4.980823774260179E5    -6.235529606338950E-3  -7.666452167750032E-2   9.940108149417705E-1  -7.795956330571494E-2   9.941591274111882E-1  -7.782674614524962E-2  -6.373388279699416E-3  -7.651991061330524E-2  
 5.082862636924264E5    -6.504154139319122E-3  -7.826070237237227E-2   9.934556484722463E-1  -7.959415629096030E-2   9.942132759905284E-1  -7.930258233644123E-2  -6.522405124235976E-3  -7.795158469057090E-2  
 5.186991902695479E5    -6.870631505390302E-3  -7.984180347374882E-2   9.934290064585161E-1  -8.117583999714285E-2   9.937716947713210E-1  -8.121652363121266E-2  -6.952113695277450E-3  -7.961453565547420E-2  
 5.293254396288213E5    -7.147623701858329E-3  -8.152204588283318E-2   9.930342061631734E-1  -8.286417564021045E-2   9.934117631774452E-1  -8.278155941240413E-2  -6.968426982002809E-3  -8.127341261036347E-2  
 5.401693819738632E5    -7.454394512882458E-3  -8.326364166164381E-2   9.927965145423393E-1  -8.442591235075295E-2   9.930568412289080E-1  -8.443480227053606E-2  -7.564214005551866E-3  -8.297285634688896E-2  
 5.512354770377789E5    -7.642453706872675E-3  -8.498446344353154E-2   9.927699659922177E-1  -8.620122229476086E-2   9.927988928686327E-1  -8.613260142639700E-2  -7.746793082773755E-3  -8.449463094551420E-2  
 5.625282759172944E5    -7.868257371350333E-3  -8.651771474598331E-2   9.919458988126244E-1  -8.777551337876549E-2   9.927161905659618E-1  -8.795114828343294E-2  -7.886709819995123E-3  -8.660746749087250E-2  
 5.740524229444626E5    -8.139816265231671E-3  -8.824410828619035E-2   9.917563199105777E-1  -8.946986853021981E-2   9.922748421239587E-1  -8.972131578721947E-2  -8.290571116740027E-3  -8.806482699907071E-2  
 5.858126575967147E5    -8.481596522495045E-3  -9.002522530153338E-2   9.914773217940075E-1  -9.159193813058088E-2   9.920910205584936E-1  -9.156651527412413E-2  -8.543438958545514E-3  -8.978604114407507E-2  
 5.978138164460403E5    -8.786148183532712E-3  -9.191333089899201E-2   9.911894874518253E-1  -9.324080931413746E-2   9.916165672479674E-1  -9.317146758303831E-2  -8.928467681167101E-3  -9.170543167558072E-2  
 6.100608351481004E5    -9.055725130041816E-3  -9.378639509042991E-2   9.907802971002521E-1  -9.507537881760542E-2   9.913121650998109E-1  -9.521836854554674E-2  -9.268425461528054E-3  -9.362516497981381E-2  
 6.225587504720892E5    -9.448357383491351E-3  -9.566135514473505E-2   9.904965321985265E-1  -9.699741408286301E-2   9.907205631204360E-1  -9.713468533604777E-2  -9.683442320863806E-3  -9.559123867585967E-2  
 6.353127023721805E5    -9.837675843122604E-3  -9.756149219229539E-2   9.900215100350477E-1  -9.893706607685007E-2   9.903615677061710E-1  -9.901404792840951E-2  -1.020882239314416E-2  -9.736974768866002E-2  
 6.483279361014109E5    -1.030034258438679E-2  -9.967657812237510E-2   9.895547742858454E-1  -1.008296961324780E-1   9.901024720670972E-1  -1.010906462181225E-1  -1.046277909883546E-2  -9.954964667129951E-2  
 6.616098043688679E5    -1.064709828331136E-2  -1.015519734283937E-1   9.891511451215953E-1  -1.027198254916753E-1   9.896340150611604E-1  -1.030599542086590E-1  -1.097571360842857E-2  -1.015315909993001E-1  
 6.751637695410716E5    -1.110744198973935E-2  -1.036563051115603E-1   9.889562222441349E-1  -1.049152646346536E-1   9.890285510714096E-1  -1.050658110708385E-1  -1.136015795650657E-2  -1.032709038704306E-1  
 6.889954058884548E5    -1.152696899865510E-2  -1.057869872645783E-1   9.882948507623190E-1  -1.070388546077646E-1   9.886841883353175E-1  -1.072680491731507E-1  -1.185771808362188E-2  -1.054643995126191E-1  
 7.031104018778642E5    -1.198911251240081E-2  -1.078674180478058E-1   9.878845279969465E-1  -1.094043434005424E-1   9.882863228941839E-1  -1.093217319227945E-1  -1.231910821506212E-2  -1.075715055908269E-1  
 7.175145625120278E5    -1.257893366596827E-2  -1.099909669707330E-1   9.875358562906870E-1  -1.114490756621676E-1   9.877850720329819E-1  -1.114588022937826E-1  -1.279975533339838E-2  -1.098484501615917E-1  
 7.322138117169489E5    -1.311924105161691E-2  -1.121202580446705E-1   9.867420731099631E-1  -1.136150502076931E-1   9.873055615828966E-1  -1.135791268391397E-1  -1.311360707352081E-2  -1.119064718172318E-1  
 7.472141947782085E5    -1.345167181826685E-2  -1.143714080079799E-1   9.864043849016887E-1  -1.159714258311603E-1   9.868805094408569E-1  -1.160078065611210E-1  -1.377357474380062E-2  -1.140857504573581E-1  
 7.625218808271801E5    -1.411893525745190E-2  -1.166404333001821E-1   9.859277621696956E-1  -1.182455423198986E-1   9.862958787549996E-1  -1.181759782604865E-1  -1.443016784060850E-2  -1.165653823482082E-1  
 7.781431653781761E5    -1.461756458934446E-2  -1.190867397051133E-1   9.850659140963368E-1  -1.202946023885814E-1   9.855554232752127E-1  -1.205992723208898E-1  -1.490882261848541E-2  -1.189205635758981E-1  
 7.940844729175728E5    -1.518470434410471E-2  -1.213908896646768E-1   9.845484581802358E-1  -1.229772429387885E-1   9.851370653296750E-1  -1.230744287221749E-1  -1.542299721756649E-2  -1.212730051593597E-1  
 8.103523595459757E5    -1.579621706459600E-2  -1.238965354670125E-1   9.839388951266844E-1  -1.254138055666005E-1   9.843549573766018E-1  -1.254178560695084E-1  -1.609873067614496E-2  -1.236679023001203E-1  
 8.269535156745140E5    -1.641463039054330E-2  -1.264515657433135E-1   9.833353966157961E-1  -1.277716613204908E-1   9.839172610616639E-1  -1.280167697124989E-1  -1.661847720957331E-2  -1.259498851707386E-1  
 8.438947687763721E5    -1.708101092744933E-2  -1.288220573624598E-1   9.829530837974434E-1  -1.303953993299988E-1   9.830293885447774E-1  -1.305276377634622E-1  -1.749858319675355E-2  -1.286480952078473E-1  
 8.611830861946895E5    -1.784454613274480E-2  -1.315309348231619E-1   9.819648659507454E-1  -1.330215715789708E-1   9.823629269672827E-1  -1.330179311487579E-1  -1.820237601578520E-2  -1.311292998860288E-1  
 8.788255780079850E5    -1.848258358797904E-2  -1.339268311371853E-1   9.814481487775628E-1  -1.355703810098363E-1   9.816352026671407E-1  -1.357545641711118E-1  -1.885873820498870E-2  -1.337678700505609E-1  
 8.968294999542822E5    -1.940947743926551E-2  -1.367299539294574E-1   9.805629562300281E-1  -1.382087037089178E-1   9.808504211328717E-1  -1.383981426410591E-1  -1.955086287187665E-2  -1.363127130664147E-1  
 9.152022564151404E5    -2.004032317506873E-2  -1.393345290754312E-1   9.797088767861917E-1  -1.410451417238996E-1   9.801302396594283E-1  -1.412289697753160E-1  -2.027533308642313E-2  -1.390023884266327E-1  
 9.339514034608167E5    -2.073381434486538E-2  -1.420892105947077E-1   9.788856612660368E-1  -1.439408971945785E-1   9.792482368798168E-1  -1.439435449719222E-1  -2.115687486236349E-2  -1.418711496111000E-1  
 9.530846519578132E5    -2.171738062258300E-2  -1.447946768308541E-1   9.781414705386055E-1  -1.468181186189946E-1   9.784040764609701E-1  -1.467860419663609E-1  -2.195104536148820E-2  -1.445650685735640E-1  
 9.726098707400849E5    -2.267557792352396E-2  -1.476490769175253E-1   9.773258824105958E-1  -1.495119065149609E-1   9.776476342431687E-1  -1.496026489436315E-1  -2.273605047491700E-2  -1.474515494779217E-1  
 9.925350898452161E5    -2.352825327127148E-2  -1.505398953331850E-1   9.762201827177880E-1  -1.523354709425072E-1   9.766173069780232E-1  -1.525017240898118E-1  -2.389547377820494E-2  -1.503594840469051E-1  
 1.012868503816893E6    -2.429310282289693E-2  -1.535157495860706E-1   9.756192597984180E-1  -1.547668645904207E-1   9.753253337413188E-1  -1.554995646278105E-1  -2.469727657283783E-2  -1.532631542035937E-1  
 1.033618475075031E6    -2.547075953442888E-2  -1.562331526441792E-1   9.736451280776004E-1  -1.583970583777964E-1   9.750644116537137E-1  -1.585909724939695E-1  -2.549621093027668E-2  -1.560879914673288E-1  
 1.054793537354946E6    -2.622783368640341E-2  -1.597745220800111E-1   9.733594840886608E-1  -1.614987521318164E-1   9.737170811287742E-1  -1.615323626762345E-1  -2.677130931401457E-2  -1.591028395962915E-1  
 1.076402399216980E6    -2.725564309193981E-2  -1.625723470158142E-1   9.722732182424272E-1  -1.647385275651636E-1   9.729185505160597E-1  -1.649590815507787E-1  -2.760504496934428E-2  -1.622184850384439E-1  
 1.098453947628028E6    -2.873203581270548E-2  -1.657955524032364E-1   9.713908578012094E-1  -1.679330517298130E-1   9.717035019668203E-1  -1.682877108354947E-1  -2.890438643191164E-2  -1.652577573195457E-1  
 1.120957251616430E6    -2.986756726474190E-2  -1.690343636505999E-1   9.697388261599858E-1  -1.713124381224375E-1   9.706252904807837E-1  -1.714030653285218E-1  -3.015419215759179E-2  -1.689974887481173E-1  
 1.143921566001752E6    -3.061423732089290E-2  -1.725216889931084E-1   9.687988044970827E-1  -1.746612195984043E-1   9.692976486566165E-1  -1.745990804337923E-1  -3.111691799954072E-2  -1.721519834503464E-1  
 1.167356335200965E6    -3.230797820100872E-2  -1.757760823965934E-1   9.676321042303949E-1  -1.781816901236337E-1   9.680754139502513E-1  -1.776817028243773E-1  -3.264663211111643E-2  -1.754296247935203E-1  
 1.191271197112600E6    -3.337248029009016E-2  -1.790310706212137E-1   9.661715602437394E-1  -1.816145989631779E-1   9.666995256270946E-1  -1.811584368767961E-1  -3.379589660494040E-2  -1.782469994603558E-1  
 1.215675987080482E6    -3.506396776345558E-2  -1.822408881321883E-1   9.647130948675668E-1  -1.845050520727279E-1   9.651546512255080E-1  -1.846544410640844E-1  -3.542607584297128E-2  -1.821552712280321E-1  
 1.240580741938659E6    -3.650740064137638E-2  -1.857945027679760E-1   9.634163427740990E-1  -1.880929969265193E-1   9.638673398232319E-1  -1.882954721971203E-1  -3.640966307317693E-2  -1.856680535862570E-1  
 1.265995704139202E6    -3.765596684672580E-2  -1.892924775598759E-1   9.621174779070810E-1  -1.915010915066294E-1   9.621504249898089E-1  -1.917621021092557E-1  -3.792921443756718E-2  -1.893955429167146E-1  
 1.291931325964563E6    -3.895361469688596E-2  -1.927966364974527E-1   9.608630253836481E-1  -1.949089275484799E-1   9.613648522533183E-1  -1.951662611792856E-1  -3.948491657170478E-2  -1.925805162460205E-1  
 1.318398273826236E6    -4.079622669114941E-2  -1.966681930867328E-1   9.591155594910374E-1  -1.992217199523635E-1   9.592735727660544E-1  -1.987385669405928E-1  -4.116775186402620E-2  -1.963261823433807E-1  
 1.345407432651476E6    -4.221810017504274E-2  -2.001311045234543E-1   9.573045738548022E-1  -2.026091022661771E-1   9.578905064700138E-1  -2.026545799009555E-1  -4.283895179705131E-2  -2.000317022274411E-1  
 1.372969910359885E6    -4.415877550318452E-2  -2.041370175940340E-1   9.554427822916072E-1  -2.062980474066831E-1   9.559352370693510E-1  -2.066224560403523E-1  -4.437253357954130E-2  -2.032817547011402E-1  
 1.401097042431717E6    -4.545346473357514E-2  -2.076730209898370E-1   9.538459219430386E-1  -2.101918039846974E-1   9.546811982165312E-1  -2.108208157333564E-1  -4.590859900691557E-2  -2.074077269046405E-1  
 1.429800396569754E6    -4.756011773564749E-2  -2.115489109502735E-1   9.521294496805318E-1  -2.147279298709730E-1   9.524663984695297E-1  -2.140494248345697E-1  -4.769234465657660E-2  -2.115756695940902E-1  
 1.459091777456705E6    -4.942676877683303E-2  -2.153355151950273E-1   9.504857919597234E-1  -2.183149412691809E-1   9.506781838895371E-1  -2.185663734171315E-1  -4.983346431380924E-2  -2.155746562083994E-1  
 1.488983231610052E6    -5.136252948087544E-2  -2.195833029189725E-1   9.485455164792591E-1  -2.221116164900625E-1   9.487458743115764E-1  -2.221025089765485E-1  -5.173490407231951E-2  -2.196385980468989E-1  
 1.519487052336364E6    -5.336526698268509E-2  -2.236669240125054E-1   9.459688097666448E-1  -2.265445355950511E-1   9.464417273569663E-1  -2.264612705130539E-1  -5.377403032529121E-2  -2.233455214915191E-1  
 1.550615784787099E6    -5.546718981093877E-2  -2.276363158162701E-1   9.445634607806506E-1  -2.304428466513024E-1   9.448899786957936E-1  -2.306991838226430E-1  -5.584568212436785E-2  -2.274402693645652E-1  
 1.582382231117988E6    -5.761029970257706E-2  -2.320366473725619E-1   9.421322526150462E-1  -2.348144253531302E-1   9.425383389759960E-1  -2.348712447165224E-1  -5.819277997445014E-2  -2.315711442333672E-1  
 1.614799455754111E6    -5.948673814379790E-2  -2.361585221778443E-1   9.398890434237773E-1  -2.387131862499667E-1   9.403165648259294E-1  -2.390157460720099E-1  -6.043635388863721E-2  -2.359390765364987E-1  
 1.647880790762838E6    -6.209270405069350E-2  -2.402978436367299E-1   9.372659964240165E-1  -2.431691739983993E-1   9.381842646768336E-1  -2.433730390957635E-1  -6.298713379411834E-2  -2.398190759525638E-1  
 1.681639841336839E6    -6.454029066068477E-2  -2.449557892438087E-1   9.349586223478220E-1  -2.472549341311866E-1   9.356505906076879E-1  -2.477110301390710E-1  -6.532431098118893E-2  -2.442937666402897E-1  
 1.716090491389422E6    -6.692845489432590E-2  -2.489453823892550E-1   9.330193855866594E-1  -2.516563955750222E-1   9.327897434586536E-1  -2.518681649105141E-1  -6.780422176549268E-2  -2.485760490835284E-1  
 1.751246909264502E6    -6.965418406713529E-2  -2.532758569237732E-1   9.296932026082587E-1  -2.563200343783240E-1   9.301696362497923E-1  -2.567081152847436E-1  -7.042737717111611E-2  -2.529593737709878E-1  
 1.787123553563544E6    -7.287914224186332E-2  -2.575706433604235E-1   9.273333112128566E-1  -2.607905332127887E-1   9.274462969079301E-1  -2.613023961994089E-1  -7.298361836068407E-2  -2.576594054930336E-1  
 1.823735179091875E6    -7.519329869940977E-2  -2.619750785705119E-1   9.244653704155963E-1  -2.653298659558629E-1   9.245036151287170E-1  -2.655093388158009E-1  -7.542958400190029E-2  -2.616430135289698E-1  
 1.861096842926821E6    -7.809959630162709E-2  -2.666447185376493E-1   9.216594678764435E-1  -2.702113346612166E-1   9.220689393215455E-1  -2.701899849275171E-1  -7.889619783645729E-2  -2.661693158394532E-1  
 1.899223910610154E6    -8.087407051029372E-2  -2.713208824394474E-1   9.183495996277942E-1  -2.746311258237961E-1   9.192246992395600E-1  -2.749670395216725E-1  -8.180707014447126E-2  -2.707580034861776E-1  
 1.938132062467400E6    -8.445786848253542E-2  -2.760811357263451E-1   9.156902287924686E-1  -2.789801425998023E-1   9.156869177722422E-1  -2.797702494159858E-1  -8.426533052610376E-2  -2.755212833150812E-1  
 1.977837300056607E6    -8.727557704151354E-2  -2.807014870318837E-1   9.120968521892319E-1  -2.839269922051266E-1   9.126943971725527E-1  -2.840247678498438E-1  -8.739632772864815E-2  -2.799892056094295E-1  
