#  HZ   S   RI   R     50 
! Rohde & Schwarz ZVA/B 
! 
! 
! 
 3.000000000000000E5    -1.828529089200698E-3  -4.634166735171631E-2   9.977655741805673E-1  -4.711149911622860E-2   9.980660591734936E-1  -4.708394536190816E-2  -2.076919419430503E-3  -4.561211813605805E-2  
 3.061459028037530E5    -2.170830325610501E-3  -4.747736141871406E-2   9.978954168522477E-1  -4.785573109382417E-2   9.981452858053515E-1  -4.808114678366115E-2  -1.984390976532735E-3  -4.668832792347245E-2  
 3.124177126784167E5    -2.068296005370516E-3  -4.828060776247430E-2   9.976956858472821E-1  -4.914176186337953E-2   9.979841150620705E-1  -4.899999057353305E-2  -2.295047458584488E-3  -4.790661666406027E-2  
 3.188180089993913E5    -2.484235593927341E-3  -4.931062258213878E-2   9.976404767263034E-1  -5.000163294476289E-2   9.978313111490313E-1  -4.987951895304017E-2  -2.121940568250201E-3  -4.851541858123887E-2  
 3.253494239840457E5    -2.450293435130254E-3  -5.026447831134695E-2   9.976485166559888E-1  -5.106173878422929E-2   9.976635374439461E-1  -5.089393958851660E-2  -2.543659177152112E-3  -4.974186490763154E-2  
 3.320146437742557E5    -2.433638481688299E-3  -5.144144495698245E-2   9.974420652503657E-1  -5.226092781819368E-2   9.976519070285502E-1  -5.202423199215447E-2  -2.823595742624731E-3  -5.086848409674614E-2  
 3.388164095411199E5    -2.631588981919870E-3  -5.240092292291496E-2   9.970814807723349E-1  -5.318760876349031E-2   9.978394896040782E-1  -5.315415073865872E-2  -2.749992348820172E-3  -5.190339053130726E-2  
 3.457575186123076E5    -2.877544066852232E-3  -5.330678240393217E-2   9.971290839245507E-1  -5.458676055023341E-2   9.974333970800973E-1  -5.421248539544243E-2  -2.965983735582357E-3  -5.279558024213082E-2  
 3.528408256225012E5    -3.057745245839197E-3  -5.456830746471257E-2   9.967042696113563E-1  -5.536396415491169E-2   9.972141740849709E-1  -5.521325867808275E-2  -3.199409283010519E-3  -5.414313715132436E-2  
 3.600692436874074E5    -3.304299170753144E-3  -5.574449023648942E-2   9.970545272846983E-1  -5.672615502731780E-2   9.973253632974716E-1  -5.643464059844387E-2  -3.297145140662108E-3  -5.505106434060059E-2  
 3.674457456018197E5    -3.321916549168465E-3  -5.678313940974364E-2   9.965659940094191E-1  -5.789062491447044E-2   9.972246902898406E-1  -5.735473316707281E-2  -3.563679498201618E-3  -5.615031620823970E-2  
 3.749733650622242E5    -3.537649379053012E-3  -5.802956007399446E-2   9.964551282901396E-1  -5.915719373653784E-2   9.968434663332240E-1  -5.892137163904076E-2  -3.543466258426568E-3  -5.735080048755264E-2  
 3.826551979144529E5    -3.644631531399655E-3  -5.899534361426136E-2   9.963008019516111E-1  -6.025856226184943E-2   9.966861640310507E-1  -6.006701481171328E-2  -3.754242621348208E-3  -5.859327074958518E-2  
 3.904944034268967E5    -4.127178477627074E-3  -6.039341487881492E-2   9.964259369332387E-1  -6.126912956047108E-2   9.968089422921553E-1  -6.125259349341984E-2  -3.844909419898839E-3  -5.992255521559965E-2  
 3.984942055898008E5    -4.149710164175674E-3  -6.166360780576845E-2   9.961751890298213E-1  -6.247180526909462E-2   9.965156873674315E-1  -6.251537530378205E-2  -4.109198783917596E-3  -6.111843541916413E-2  
 4.066578944411798E5    -4.417762920889869E-3  -6.273212580799173E-2   9.960277051068760E-1  -6.397823422859927E-2   9.961648109686603E-1  -6.335900115907461E-2  -4.270012307145977E-3  -6.242442030229320E-2  
 4.149888274198943E5    -4.350495817787878E-3  -6.398369472356570E-2   9.957722934758728E-1  -6.511947476668989E-2   9.961043468309947E-1  -6.517649332938484E-2  -4.559444997809966E-3  -6.377944037248823E-2  
 4.234904307464480E5    -4.614934280804743E-3  -6.534405795867276E-2   9.952767140183515E-1  -6.630489096950942E-2   9.960926414590721E-1  -6.642691351317082E-2  -4.604944825581842E-3  -6.516064093438678E-2  
 4.321662008320720E5    -4.910069531980508E-3  -6.687277425728078E-2   9.954362750061565E-1  -6.770564394517986E-2   9.956737434232666E-1  -6.762195446372474E-2  -4.784226635583692E-3  -6.631496402066570E-2  
 4.410197057166757E5    -5.044170893642159E-3  -6.798099309709298E-2   9.949931443470491E-1  -6.937466994310479E-2   9.954177040269149E-1  -6.892803248110008E-2  -4.863424894561008E-3  -6.776991825737357E-2  
 4.500545865362572E5    -5.016173560875499E-3  -6.944714005234516E-2   9.949856150967623E-1  -7.064547369004283E-2   9.952442043185736E-1  -7.044144128246638E-2  -5.185559056931378E-3  -6.900835986775342E-2  
 4.592745590203743E5    -5.352723755497183E-3  -7.093210130160159E-2   9.946783756214332E-1  -7.195153961783381E-2   9.951096193503908E-1  -7.178995066508977E-2  -5.623935191445620E-3  -7.046993697099006E-2  
 4.686834150202934E5    -5.399116848268657E-3  -7.213993772892313E-2   9.944497890247637E-1  -7.352652211853077E-2   9.948234099390068E-1  -7.339363690864507E-2  -5.602044692172941E-3  -7.194552528908237E-2  
 4.782850240684460E5    -5.774299967320979E-3  -7.381910551019147E-2   9.943387099644745E-1  -7.486208349551991E-2   9.946935366052103E-1  -7.475980759274520E-2  -6.059773772978164E-3  -7.342657974044843E-2  
 4.880833349698305E5    -6.066293559778046E-3  -7.523558879664807E-2   9.940751614019977E-1  -7.636362597888892E-2   9.944539946833315E-1  -7.630937302328632E-2  -5.917978590580960E-3  -7.497251198267334E-2  
 4.980823774260179E5    -6.201560830336732E-3  -7.665879943761116E-2   9.938641058391461E-1  -7.790737958085944E-2   9.941213835523348E-1  -7.782672502880199E-2  -6.409048656940232E-3  -7.645811871111993E-2  
 5.082862636924264E5    -6.472956075608417E-3  -7.826403544381658E-2   9.934288645108236E-1  -7.946351077533653E-2   9.939221299650149E-1  -7.942240218056833E-2  -6.534885590185064E-3  -7.795042932522719E-2  
 5.186991902695479E5    -6.918443352137650E-3  -7.991500692973153E-2   9.932935394181355E-1  -8.107800958508757E-2   9.938162723232988E-1  -8.117429709041749E-2  -6.973250310692424E-3  -7.959742785061109E-2  
 5.293254396288213E5    -7.132772776545596E-3  -8.157108317339445E-2   9.931416151519168E-1  -8.248793156812671E-2   9.933799913619639E-1  -8.277597856405763E-2  -6.936699382525675E-3  -8.127980634594251E-2  
 5.401693819738632E5    -7.458472096692695E-3  -8.327154175562496E-2   9.928820173596544E-1  -8.439336965515561E-2   9.930235396116277E-1  -8.416513780062837E-2  -7.466689484746078E-3  -8.302345778842116E-2  
 5.512354770377789E5    -7.618897894984680E-3  -8.487642750266505E-2   9.924880246584575E-1  -8.625694699144298E-2   9.926950852915533E-1  -8.612910491920306E-2  -7.739860308711720E-3  -8.457403359724408E-2  
 5.625282759172944E5    -7.883183125029667E-3  -8.650389417442475E-2   9.921657460433420E-1  -8.798552335645508E-2   9.926229667864306E-1  -8.787663666862304E-2  -7.859593920160422E-3  -8.653461901903199E-2  
 5.740524229444626E5    -8.163377123011692E-3  -8.814610898369055E-2   9.917610433012558E-1  -8.962742554454839E-2   9.921171443923540E-1  -8.948819121620759E-2  -8.276951717431978E-3  -8.800464778663540E-2  
 5.858126575967147E5    -8.454664155969462E-3  -9.004111743628930E-2   9.913844696714093E-1  -9.145216767732446E-2   9.921327841125960E-1  -9.141141556327241E-2  -8.567923382258100E-3  -8.982379333466052E-2  
 5.978138164460403E5    -8.769080910737222E-3  -9.188411923962779E-2   9.909866709961475E-1  -9.328259581040041E-2   9.916642050919866E-1  -9.310555024947505E-2  -8.971608322267880E-3  -9.172968230607653E-2  
 6.100608351481004E5    -9.022068634547905E-3  -9.369308025997518E-2   9.907611440275677E-1  -9.525629959012254E-2   9.911471314231440E-1  -9.496839290901436E-2  -9.253833239313756E-3  -9.354951547273602E-2  
 6.225587504720892E5    -9.498408188203085E-3  -9.563226777681350E-2   9.904627286449261E-1  -9.705494539389400E-2   9.906920915471921E-1  -9.703317001611321E-2  -9.675684405155420E-3  -9.561565539533427E-2  
 6.353127023721805E5    -9.862099067310771E-3  -9.758686669155700E-2   9.899990336098798E-1  -9.899121975477512E-2   9.904557352953527E-1  -9.908767231741440E-2  -1.020007913435390E-2  -9.738577727577120E-2  
 6.483279361014109E5    -1.021927470073961E-2  -9.953473740863268E-2   9.894836106766514E-1  -1.008908696741175E-1   9.900531696707129E-1  -1.009184428126447E-1  -1.043073269671770E-2  -9.951621094033113E-2  
 6.616098043688679E5    -1.061355245323720E-2  -1.015466787373470E-1   9.890128267531740E-1  -1.028430187234479E-1   9.895901964069100E-1  -1.029967302873373E-1  -1.095852208546523E-2  -1.014634621377477E-1  
 6.751637695410716E5    -1.106467856530613E-2  -1.036284870049426E-1   9.888521065204937E-1  -1.048377334259459E-1   9.891445197172766E-1  -1.049893418737429E-1  -1.134746151739687E-2  -1.033351313021757E-1  
 6.889954058884548E5    -1.161485712773097E-2  -1.057894185183150E-1   9.883455707627584E-1  -1.070247798313850E-1   9.886455083913863E-1  -1.071456008967843E-1  -1.184284171435737E-2  -1.054610052372593E-1  
 7.031104018778642E5    -1.197810117686686E-2  -1.078362717660248E-1   9.878614254252011E-1  -1.090964361186513E-1   9.882439953707026E-1  -1.092604600086536E-1  -1.236332001842431E-2  -1.075487692842568E-1  
 7.175145625120278E5    -1.252979693241683E-2  -1.100295023168655E-1   9.873710782772509E-1  -1.114093302268944E-1   9.877101405188395E-1  -1.113769630139717E-1  -1.274053471887291E-2  -1.098497053213490E-1  
 7.322138117169489E5    -1.304401552288000E-2  -1.121434203697769E-1   9.867625141510399E-1  -1.135931962309899E-1   9.872109373086868E-1  -1.136008843966466E-1  -1.309725839120482E-2  -1.118694557307506E-1  
 7.472141947782085E5    -1.354882738449614E-2  -1.143150186719082E-1   9.864332566671682E-1  -1.158336828061373E-1   9.866700270616858E-1  -1.160348369730577E-1  -1.382310111998638E-2  -1.141360402982232E-1  
 7.625218808271801E5    -1.405880156941317E-2  -1.166846132130069E-1   9.859169315756112E-1  -1.180902228521393E-1   9.861727540482690E-1  -1.183071544831146E-1  -1.445218097207155E-2  -1.164487075477654E-1  
 7.781431653781761E5    -1.463749453383141E-2  -1.190187772007798E-1   9.851887874178159E-1  -1.203377697242013E-1   9.856162386743216E-1  -1.205387292079053E-1  -1.483266009196198E-2  -1.189315920850784E-1  
 7.940844729175728E5    -1.517212479564356E-2  -1.214203312740180E-1   9.845700493300414E-1  -1.228427294988680E-1   9.851581192819168E-1  -1.229286492306956E-1  -1.536219750928827E-2  -1.211570555651638E-1  
 8.103523595459757E5    -1.577160392304576E-2  -1.239436581639014E-1   9.842469696551024E-1  -1.253048563523066E-1   9.844396366178446E-1  -1.254322747015447E-1  -1.605763020749653E-2  -1.236076427044703E-1  
 8.269535156745140E5    -1.644931774925517E-2  -1.264230138593606E-1   9.833571402191209E-1  -1.278995510561545E-1   9.837864091409290E-1  -1.279560124541984E-1  -1.663255130086117E-2  -1.260372245512778E-1  
 8.438947687763721E5    -1.706449045582901E-2  -1.287839527689144E-1   9.827951275754125E-1  -1.305414276175221E-1   9.829916762873386E-1  -1.303142147216218E-1  -1.741131597582803E-2  -1.286243925106871E-1  
 8.611830861946895E5    -1.777737838767922E-2  -1.315106022267042E-1   9.819272134618662E-1  -1.329390021093519E-1   9.824171072386293E-1  -1.331437405649938E-1  -1.820094598795349E-2  -1.310456152611135E-1  
 8.788255780079850E5    -1.849118577491614E-2  -1.339427555184901E-1   9.814046011190436E-1  -1.356571889811745E-1   9.816449835031222E-1  -1.357134036318919E-1  -1.891427670632920E-2  -1.338073896187579E-1  
 8.968294999542822E5    -1.936210679954751E-2  -1.366468426964207E-1   9.805889224423434E-1  -1.381576349336502E-1   9.809031521386487E-1  -1.385069561513419E-1  -1.952596121340577E-2  -1.363393790553923E-1  
 9.152022564151404E5    -2.001650749460876E-2  -1.393652609110604E-1   9.796958364587014E-1  -1.410096574638753E-1   9.802172965776298E-1  -1.411114022610559E-1  -2.027030449716131E-2  -1.389613637024177E-1  
 9.339514034608167E5    -2.071255280611093E-2  -1.421107351128607E-1   9.790850073345927E-1  -1.438060392060964E-1   9.793110753997404E-1  -1.438249874741337E-1  -2.112077027434943E-2  -1.418247926462534E-1  
 9.530846519578132E5    -2.161037575996979E-2  -1.447524214684680E-1   9.780773853584952E-1  -1.465705674263952E-1   9.784983058769894E-1  -1.467537081668046E-1  -2.195110996615971E-2  -1.445758407270646E-1  
 9.726098707400849E5    -2.255464984064180E-2  -1.477323088538583E-1   9.772358060835817E-1  -1.494176431828054E-1   9.776270707301518E-1  -1.495745651218748E-1  -2.279276167898625E-2  -1.474081345851573E-1  
 9.925350898452161E5    -2.339276788191649E-2  -1.505049209745412E-1   9.760634894639035E-1  -1.523174082653451E-1   9.767826633261542E-1  -1.524505283595040E-1  -2.387526526411704E-2  -1.504115733757745E-1  
 1.012868503816893E6    -2.445113827993593E-2  -1.535927321467114E-1   9.753334656451338E-1  -1.552179046074443E-1   9.755930488791632E-1  -1.554384846040716E-1  -2.459584057127449E-2  -1.532724885552267E-1  
 1.033618475075031E6    -2.562459318026438E-2  -1.565576426533440E-1   9.744011186228944E-1  -1.583933027052669E-1   9.748943148593292E-1  -1.585212515388572E-1  -2.548139565042493E-2  -1.559659143641946E-1  
 1.054793537354946E6    -2.628457201334638E-2  -1.597011466915629E-1   9.736497640104225E-1  -1.616542444472082E-1   9.733790385991334E-1  -1.614059517932474E-1  -2.662969823009322E-2  -1.592458825618251E-1  
 1.076402399216980E6    -2.728514778512609E-2  -1.626252312144969E-1   9.723144660608198E-1  -1.644158156531373E-1   9.726201070011975E-1  -1.652840830144947E-1  -2.739282946701682E-2  -1.621056328033252E-1  
 1.098453947628028E6    -2.847698645581004E-2  -1.656991875385183E-1   9.710134816703564E-1  -1.678688773949728E-1   9.717286158424213E-1  -1.674850855978196E-1  -2.885303407626526E-2  -1.655334691197545E-1  
 1.120957251616430E6    -2.997760537187206E-2  -1.690005552652803E-1   9.698756423172642E-1  -1.713123540067766E-1   9.703460637064163E-1  -1.712739289237259E-1  -3.002288983223199E-2  -1.690139229431781E-1  
 1.143921566001752E6    -3.060981706663803E-2  -1.725830110642042E-1   9.687217482259914E-1  -1.740826805695338E-1   9.696785710877452E-1  -1.744300577058196E-1  -3.117406714660281E-2  -1.721925982062178E-1  
 1.167356335200965E6    -3.218353211375306E-2  -1.757490845614169E-1   9.674209446144043E-1  -1.776446444386539E-1   9.677264349838429E-1  -1.778972560864431E-1  -3.284894580680359E-2  -1.753084161360309E-1  
 1.191271197112600E6    -3.358945772900551E-2  -1.790372485919186E-1   9.661382960008931E-1  -1.811749882034308E-1   9.665815900438753E-1  -1.807427497358849E-1  -3.369176007880234E-2  -1.780769436648514E-1  
 1.215675987080482E6    -3.500021491300574E-2  -1.823120912214304E-1   9.651415026682236E-1  -1.839613143949200E-1   9.650126936988096E-1  -1.844934844944303E-1  -3.538935992690995E-2  -1.820256295792777E-1  
 1.240580741938659E6    -3.635133188101476E-2  -1.857445253941272E-1   9.636509080232546E-1  -1.878532425617279E-1   9.641030498829055E-1  -1.878965434988081E-1  -3.627979642091319E-2  -1.857480633519842E-1  
 1.265995704139202E6    -3.754013516674173E-2  -1.892065411696537E-1   9.623714175123641E-1  -1.914993345799523E-1   9.626990202065378E-1  -1.914551491093801E-1  -3.814501162705504E-2  -1.893480193917571E-1  
 1.291931325964563E6    -3.914083074147563E-2  -1.927770325308991E-1   9.607936390621392E-1  -1.951006395079984E-1   9.611845136040234E-1  -1.951644684057370E-1  -3.955604459975735E-2  -1.925198110344969E-1  
 1.318398273826236E6    -4.066439595354254E-2  -1.966910138483650E-1   9.590534089087862E-1  -1.991559147730696E-1   9.593609044386590E-1  -1.987076049445180E-1  -4.117671689140880E-2  -1.964800661093680E-1  
 1.345407432651476E6    -4.223062349295369E-2  -1.999656877907086E-1   9.574347748850774E-1  -2.026643354382775E-1   9.577049760475046E-1  -2.028170397804563E-1  -4.277469178207218E-2  -2.000302141380653E-1  
 1.372969910359885E6    -4.414912057652507E-2  -2.043800117831688E-1   9.558278867535188E-1  -2.059408735845154E-1   9.558342258154343E-1  -2.067289058937351E-1  -4.437670955697905E-2  -2.031151299476911E-1  
 1.401097042431717E6    -4.576231943481512E-2  -2.078764400485173E-1   9.538212524234844E-1  -2.101868342210271E-1   9.546845132544006E-1  -2.110049082801672E-1  -4.616791446166099E-2  -2.072930621378037E-1  
 1.429800396569754E6    -4.724244374525428E-2  -2.117037632807830E-1   9.522458848798001E-1  -2.143161438452359E-1   9.528443471180056E-1  -2.139685248978581E-1  -4.770975893985693E-2  -2.115865407005275E-1  
 1.459091777456705E6    -4.939837524479263E-2  -2.152596206441584E-1   9.504517957725606E-1  -2.176691440872192E-1   9.508831261237296E-1  -2.178979051679438E-1  -4.978042460876096E-2  -2.154858205935652E-1  
 1.488983231610052E6    -5.141107421444002E-2  -2.196615071869413E-1   9.489148664860623E-1  -2.224060251578594E-1   9.487073430474520E-1  -2.223669631998926E-1  -5.168191076556401E-2  -2.194578326005399E-1  
 1.519487052336364E6    -5.318125194433800E-2  -2.236129180948220E-1   9.459759417909504E-1  -2.260249717444656E-1   9.464666931266565E-1  -2.262688011472230E-1  -5.367899414861725E-2  -2.232202917998663E-1  
 1.550615784787099E6    -5.553969162203275E-2  -2.279042753094803E-1   9.443885531447664E-1  -2.306546310346584E-1   9.450012463846707E-1  -2.303130612843762E-1  -5.580708006421407E-2  -2.272730783229757E-1  
 1.582382231117988E6    -5.745414340976961E-2  -2.318604270697305E-1   9.420987294945993E-1  -2.346027306821346E-1   9.425435158486246E-1  -2.344285475955988E-1  -5.827050618065914E-2  -2.313722350318130E-1  
 1.614799455754111E6    -5.959773080067096E-2  -2.362051744187603E-1   9.399905403249561E-1  -2.390291739726140E-1   9.399956952119013E-1  -2.389929133052347E-1  -6.036286976929403E-2  -2.358949093343370E-1  
 1.647880790762838E6    -6.200343797833751E-2  -2.404082061095963E-1   9.376379249276152E-1  -2.427713770474801E-1   9.383772484606703E-1  -2.429191288875415E-1  -6.271436078630405E-2  -2.398614544100819E-1  
 1.681639841336839E6    -6.458255788898056E-2  -2.447010885527221E-1   9.347412082204969E-1  -2.474928596403702E-1   9.354381562641664E-1  -2.474807895400959E-1  -6.520420991483933E-2  -2.443664863933214E-1  
 1.716090491389422E6    -6.713932034690733E-2  -2.489847806182944E-1   9.329181810290836E-1  -2.519310344316422E-1   9.327097987072175E-1  -2.517077030940693E-1  -6.751593562381021E-2  -2.485216219923795E-1  
 1.751246909264502E6    -6.976521261049563E-2  -2.532969503383389E-1   9.302249619526680E-1  -2.560606869872669E-1   9.305267821209782E-1  -2.565213824575233E-1  -7.030006158244719E-2  -2.527484656175229E-1  
 1.787123553563544E6    -7.253674393593131E-2  -2.574206384914746E-1   9.274283236809187E-1  -2.606295392482219E-1   9.279386266933719E-1  -2.611755061592140E-1  -7.303489394333834E-2  -2.577608699463601E-1  
 1.823735179091875E6    -7.501043461536554E-2  -2.621867573042270E-1   9.244390200660408E-1  -2.651641815807094E-1   9.251178775509195E-1  -2.655079972406326E-1  -7.536617954572547E-2  -2.616420242296275E-1  
 1.861096842926821E6    -7.793286197012159E-2  -2.666168259388616E-1   9.218908101923593E-1  -2.697616729361897E-1   9.220110190559364E-1  -2.702680903867664E-1  -7.884187340373806E-2  -2.661045361664747E-1  
 1.899223910610154E6    -8.082396886842237E-2  -2.712257331704792E-1   9.187169102001164E-1  -2.746547356625290E-1   9.190676696213503E-1  -2.744217199729740E-1  -8.155841986837518E-2  -2.706204421049128E-1  
 1.938132062467400E6    -8.427992064477333E-2  -2.763129923627008E-1   9.155965278184806E-1  -2.789569401759742E-1   9.158325986898946E-1  -2.795649436682269E-1  -8.435717278664712E-2  -2.756292487330972E-1  
 1.977837300056607E6    -8.707734408350598E-2  -2.806461183635241E-1   9.122449700116847E-1  -2.837840287298614E-1   9.128919298698529E-1  -2.843571722611556E-1  -8.758632742648062E-2  -2.800949608847760E-1  
