#  HZ   S   RI   R     50 
! Rohde & Schwarz ZVA/B 
! 
! 
! 
 3.000000000000000E5    -1.783444287835413E-3  -4.605036848692029E-2   9.977427429053296E-1  -4.667210456878617E-2   9.981132438382396E-1  -4.673330247769199E-2  -2.019351410531002E-3  -4.529962472431414E-2  
 3.061459028037530E5    -2.083067103565574E-3  -4.719907635751780E-2   9.977232708977339E-1  -4.769607839959687E-2   9.980310628855367E-1  -4.780758532039574E-2  -1.951681939150001E-3  -4.641046050029672E-2  
 3.124177126784167E5    -2.060151930081758E-3  -4.795142400011743E-2   9.977208041195910E-1  -4.876489614643967E-2   9.980857694584738E-1  -4.872190446477216E-2  -2.258959522414966E-3  -4.764824068796226E-2  
 3.188180089993913E5    -2.506367591112898E-3  -4.896423570368412E-2   9.978397537714623E-1  -4.967829338975549E-2   9.979775424273869E-1  -4.945683808977691E-2  -2.145710753620669E-3  -4.820173473560608E-2  
 3.253494239840457E5    -2.293209883620761E-3  -4.988754126407297E-2   9.972310212658273E-1  -5.095841219663176E-2   9.978362597397863E-1  -5.043207904340856E-2  -2.478259872094390E-3  -4.940047040823280E-2  
 3.320146437742557E5    -2.465582988515417E-3  -5.111119381299398E-2   9.972961913555694E-1  -5.165413017349642E-2   9.977310224338222E-1  -5.155749215132290E-2  -2.732026491406901E-3  -5.053897567946527E-2  
 3.388164095411199E5    -2.587627246051664E-3  -5.202224330622605E-2   9.972061347933421E-1  -5.281680755513940E-2   9.974479922857060E-1  -5.261353723971901E-2  -2.701570953256690E-3  -5.161382861682780E-2  
 3.457575186123076E5    -2.780400009407036E-3  -5.290837491326876E-2   9.966141787029355E-1  -5.421357770763233E-2   9.975347954291038E-1  -5.395447885673238E-2  -2.934059404565165E-3  -5.244915843035748E-2  
 3.528408256225012E5    -3.057632576775568E-3  -5.417725454651608E-2   9.968534119271552E-1  -5.496503827216986E-2   9.972858485895987E-1  -5.468969825958142E-2  -3.173142006789132E-3  -5.380336987143020E-2  
 3.600692436874074E5    -3.210289829070998E-3  -5.538814900596262E-2   9.968023284557791E-1  -5.637114938020126E-2   9.975034110796841E-1  -5.597368791746757E-2  -3.227970564806627E-3  -5.457904308824922E-2  
 3.674457456018197E5    -3.332675983382372E-3  -5.647539216913459E-2   9.966547249330546E-1  -5.722679967217064E-2   9.970432215367351E-1  -5.707500599909209E-2  -3.552261742393751E-3  -5.584382202022166E-2  
 3.749733650622242E5    -3.514799626891840E-3  -5.766082751070945E-2   9.963814313853876E-1  -5.835738339677921E-2   9.967792170568119E-1  -5.866371260276174E-2  -3.539453180471906E-3  -5.697856524094061E-2  
 3.826551979144529E5    -3.648211812055935E-3  -5.860869067544237E-2   9.962488383156309E-1  -5.948179154435510E-2   9.968152720989045E-1  -5.956278248343146E-2  -3.798988623040287E-3  -5.820317535836167E-2  
 3.904944034268967E5    -3.978465379788940E-3  -5.997350311670692E-2   9.961215505964620E-1  -6.102843121749754E-2   9.965474480620689E-1  -6.086840275208035E-2  -3.773219284891016E-3  -5.952496695603282E-2  
 3.984942055898008E5    -4.093150794132617E-3  -6.120236027113306E-2   9.961336656181008E-1  -6.206492282946522E-2   9.965734364028706E-1  -6.200685093298258E-2  -4.112430969284227E-3  -6.067609168750744E-2  
 4.066578944411798E5    -4.309377795188176E-3  -6.235116364081572E-2   9.958844515688862E-1  -6.316107677524424E-2   9.963208145997182E-1  -6.329149580705001E-2  -4.182402587369707E-3  -6.206984855615646E-2  
 4.149888274198943E5    -4.298588709351797E-3  -6.350076180666885E-2   9.955266380601698E-1  -6.470996362330886E-2   9.960841842395283E-1  -6.472107695502195E-2  -4.480181096209246E-3  -6.334705087432162E-2  
 4.234904307464480E5    -4.595831747564136E-3  -6.481864690925884E-2   9.955162596196768E-1  -6.607055992288245E-2   9.960458850441719E-1  -6.565822860633104E-2  -4.497165364485152E-3  -6.469782867687612E-2  
 4.321662008320720E5    -4.892317337126140E-3  -6.639644847343765E-2   9.952320485286796E-1  -6.718101853582902E-2   9.957596583109866E-1  -6.730342962111938E-2  -4.790016944598923E-3  -6.589224346834394E-2  
 4.410197057166757E5    -4.975533240673877E-3  -6.756812233050717E-2   9.950485155213157E-1  -6.879040691777223E-2   9.956132366296780E-1  -6.846600718803744E-2  -4.796152254445190E-3  -6.736946065234784E-2  
 4.500545865362572E5    -5.016132268797640E-3  -6.900420229471239E-2   9.950320386945373E-1  -6.980836655115408E-2   9.954735188616243E-1  -6.982034856944441E-2  -5.158856452827867E-3  -6.855339532649894E-2  
 4.592745590203743E5    -5.347855018724588E-3  -7.047601639382045E-2   9.945614937224125E-1  -7.130188193362828E-2   9.953930934270615E-1  -7.128716791430215E-2  -5.536372408009358E-3  -6.999302757983368E-2  
 4.686834150202934E5    -5.350224363341806E-3  -7.168869014120029E-2   9.944487776022821E-1  -7.271686317307217E-2   9.951441192265224E-1  -7.289144379002445E-2  -5.557849222666732E-3  -7.142527819112450E-2  
 4.782850240684460E5    -5.668860687540502E-3  -7.334660429580681E-2   9.943644946886164E-1  -7.436619839783595E-2   9.947822679306708E-1  -7.430922213577880E-2  -6.031065589615806E-3  -7.288906475982188E-2  
 4.880833349698305E5    -6.028659644222219E-3  -7.471797365063290E-2   9.942321229348141E-1  -7.568529084497683E-2   9.945571167132636E-1  -7.569089810664480E-2  -5.800970527556670E-3  -7.447093397346373E-2  
 4.980823774260179E5    -6.105289761724094E-3  -7.613034430748587E-2   9.938973753909398E-1  -7.726737001999232E-2   9.941908583900944E-1  -7.720621793861646E-2  -6.380043586382323E-3  -7.598364744769458E-2  
 5.082862636924264E5    -6.416566448865302E-3  -7.765411819713934E-2   9.935202091824865E-1  -7.898541252337669E-2   9.941544118208731E-1  -7.871866720883411E-2  -6.394100090606689E-3  -7.744230791962774E-2  
 5.186991902695479E5    -6.854507532734587E-3  -7.937769780491090E-2   9.933496841832229E-1  -8.054407721726670E-2   9.939284231426468E-1  -8.045875677988536E-2  -6.920429627112671E-3  -7.908275752780265E-2  
 5.293254396288213E5    -6.995683762310803E-3  -8.097449485690469E-2   9.929871032227262E-1  -8.210874957101920E-2   9.934959639797778E-1  -8.214507727287704E-2  -6.884630141635288E-3  -8.076341196139218E-2  
 5.401693819738632E5    -7.312067950252954E-3  -8.269748956426297E-2   9.930147256584155E-1  -8.381349139147684E-2   9.931506364679337E-1  -8.367383591886871E-2  -7.362273681255058E-3  -8.244628975638313E-2  
 5.512354770377789E5    -7.501689700527846E-3  -8.431371891337632E-2   9.926766837744783E-1  -8.534201697829746E-2   9.928815971636427E-1  -8.565657461058167E-2  -7.646955705433753E-3  -8.395746928003757E-2  
 5.625282759172944E5    -7.798913150711287E-3  -8.593320326661122E-2   9.922372797857512E-1  -8.733097745126674E-2   9.928323085203306E-1  -8.700564370290455E-2  -7.791731382790488E-3  -8.596217894431851E-2  
 5.740524229444626E5    -8.039345076794708E-3  -8.763593245550749E-2   9.919308810911286E-1  -8.886081950440175E-2   9.923318277786187E-1  -8.903074160268742E-2  -8.228276852167685E-3  -8.751606135063234E-2  
 5.858126575967147E5    -8.298535027486153E-3  -8.945675834460563E-2   9.914691665214146E-1  -9.084075538302003E-2   9.920719765773662E-1  -9.063880526450789E-2  -8.465495583237590E-3  -8.917326556074613E-2  
 5.978138164460403E5    -8.724293640805831E-3  -9.126450667351993E-2   9.913468581430147E-1  -9.261753263246440E-2   9.918721449196494E-1  -9.265843284251563E-2  -8.821281389961263E-3  -9.110810787756293E-2  
 6.100608351481004E5    -8.897853594395383E-3  -9.307393067873729E-2   9.908714581774176E-1  -9.441885195201756E-2   9.913749039948930E-1  -9.424168353097127E-2  -9.110493554156132E-3  -9.290897884041771E-2  
 6.225587504720892E5    -9.360156266047630E-3  -9.494179328446700E-2   9.907648550419814E-1  -9.639095600317532E-2   9.908574029974012E-1  -9.634766938958259E-2  -9.526941756397430E-3  -9.492767447885130E-2  
 6.353127023721805E5    -9.647898514978319E-3  -9.688781839796096E-2   9.899879072373867E-1  -9.830405552282667E-2   9.906167353073341E-1  -9.834075288365299E-2  -1.003039589851304E-2  -9.671007304067653E-2  
 6.483279361014109E5    -1.016899466895187E-2  -9.886607708253591E-2   9.895603341031426E-1  -1.002667101004395E-1   9.901503036136695E-1  -9.999901700429950E-2  -1.025586514707420E-2  -9.881731231751390E-2  
 6.616098043688679E5    -1.044567055148375E-2  -1.008604786340550E-1   9.893211930533510E-1  -1.021661044389839E-1   9.898249215841792E-1  -1.023080089011573E-1  -1.083384263604904E-2  -1.007943043450105E-1  
 6.751637695410716E5    -1.086275400615214E-2  -1.029174430110762E-1   9.889157870194428E-1  -1.043432804752681E-1   9.892745814650903E-1  -1.042693161466977E-1  -1.118417423634085E-2  -1.026066958753101E-1  
 6.889954058884548E5    -1.139338061984426E-2  -1.050656079292308E-1   9.883458735861203E-1  -1.062624047800890E-1   9.889489909272271E-1  -1.064140516549297E-1  -1.163106341726552E-2  -1.047572572601843E-1  
 7.031104018778642E5    -1.190952681795357E-2  -1.071215248038943E-1   9.878940829755456E-1  -1.085677737570150E-1   9.884806714703415E-1  -1.085516459061585E-1  -1.222220024599036E-2  -1.068665108965202E-1  
 7.175145625120278E5    -1.233073354530664E-2  -1.092831135993813E-1   9.875610652370245E-1  -1.107338819153612E-1   9.879901913827345E-1  -1.106499294862934E-1  -1.258958012765814E-2  -1.090956925652946E-1  
 7.322138117169489E5    -1.288662131151280E-2  -1.114119032386734E-1   9.871525208519685E-1  -1.127645397659932E-1   9.874963549538847E-1  -1.128329026395781E-1  -1.298786429134822E-2  -1.112019727174895E-1  
 7.472141947782085E5    -1.330400014709120E-2  -1.136214668869885E-1   9.863094794577421E-1  -1.150941275299076E-1   9.870530306038952E-1  -1.151545549658845E-1  -1.367923092102482E-2  -1.134543257159802E-1  
 7.625218808271801E5    -1.391752248372304E-2  -1.159294789878780E-1   9.860984797391311E-1  -1.173126922446262E-1   9.864597125656649E-1  -1.175591107832731E-1  -1.430804624337682E-2  -1.157669539187338E-1  
 7.781431653781761E5    -1.440208993780887E-2  -1.182032975915473E-1   9.853843017940538E-1  -1.195819335617653E-1   9.857986929847877E-1  -1.198080557533037E-1  -1.472708934647204E-2  -1.182118821907724E-1  
 7.940844729175728E5    -1.499446609804753E-2  -1.205956372065324E-1   9.846733483464842E-1  -1.221804415321367E-1   9.853282622743445E-1  -1.220988197092624E-1  -1.515601742697646E-2  -1.203955643022726E-1  
 8.103523595459757E5    -1.557250314679595E-2  -1.231198511130857E-1   9.844619822521606E-1  -1.246003952589239E-1   9.846892138487561E-1  -1.243728526790160E-1  -1.579894856808106E-2  -1.228071391701043E-1  
 8.269535156745140E5    -1.621088114016813E-2  -1.255951718288277E-1   9.835042448950195E-1  -1.270632814168603E-1   9.842531713964084E-1  -1.270701216368834E-1  -1.641412351404287E-2  -1.251861862318947E-1  
 8.438947687763721E5    -1.682559397796900E-2  -1.279248804245290E-1   9.829601906940318E-1  -1.295227275043316E-1   9.833555808498380E-1  -1.296263645389506E-1  -1.732376179703555E-2  -1.277712204112433E-1  
 8.611830861946895E5    -1.756980641645538E-2  -1.306449345730646E-1   9.822334712971339E-1  -1.319884742914275E-1   9.827506172978765E-1  -1.320875486175703E-1  -1.794378002607793E-2  -1.301813703901747E-1  
 8.788255780079850E5    -1.820974282173584E-2  -1.330409965356272E-1   9.815703725397560E-1  -1.345805256285274E-1   9.818378063586560E-1  -1.347536214482519E-1  -1.864174695319610E-2  -1.328994273810426E-1  
 8.968294999542822E5    -1.910713466953392E-2  -1.357959574035415E-1   9.807968535778137E-1  -1.372332400199547E-1   9.812351295835695E-1  -1.374893075893305E-1  -1.932238753181194E-2  -1.354576551942721E-1  
 9.152022564151404E5    -1.972237790940206E-2  -1.384660390742429E-1   9.800473997532626E-1  -1.399815778191144E-1   9.804968852212987E-1  -1.401666064310751E-1  -2.006857956504310E-2  -1.380683619076673E-1  
 9.339514034608167E5    -2.043582718649956E-2  -1.411453426826488E-1   9.793433421033855E-1  -1.428944127227242E-1   9.796322659084653E-1  -1.429934374279476E-1  -2.090615810890080E-2  -1.408960250078270E-1  
 9.530846519578132E5    -2.136435995989119E-2  -1.438429771708315E-1   9.783893072892248E-1  -1.455627329979725E-1   9.789164103427664E-1  -1.457087526663511E-1  -2.169315363178137E-2  -1.436709007541706E-1  
 9.726098707400849E5    -2.229493330468303E-2  -1.466808883232973E-1   9.775979190340312E-1  -1.484146507820054E-1   9.781064192471123E-1  -1.484667131461021E-1  -2.246830625745790E-2  -1.465017070813496E-1  
 9.925350898452161E5    -2.313131400696585E-2  -1.495691796448030E-1   9.766225578226687E-1  -1.511772532711329E-1   9.769663449508756E-1  -1.514508839789694E-1  -2.360694019289786E-2  -1.494327475917556E-1  
 1.012868503816893E6    -2.405897905956259E-2  -1.524567862197204E-1   9.761816908076902E-1  -1.541651837515722E-1   9.754751053967440E-1  -1.546481641753063E-1  -2.417813996679009E-2  -1.519952336575421E-1  
 1.033618475075031E6    -2.526254046585121E-2  -1.555473227682528E-1   9.748144307880159E-1  -1.571028416049643E-1   9.750568002328156E-1  -1.576424527244157E-1  -2.520900711054631E-2  -1.549108733140274E-1  
 1.054793537354946E6    -2.602601115620069E-2  -1.586093127876805E-1   9.736140236650215E-1  -1.603327436453223E-1   9.735955507018861E-1  -1.604940836539318E-1  -2.655897364570446E-2  -1.582268432125939E-1  
 1.076402399216980E6    -2.679993229187953E-2  -1.615154134139605E-1   9.724992371486720E-1  -1.633265610569173E-1   9.733185419595215E-1  -1.633062442154467E-1  -2.692857460293290E-2  -1.611707879454623E-1  
 1.098453947628028E6    -2.839403545808832E-2  -1.647116694929200E-1   9.711908638198494E-1  -1.664194538713478E-1   9.718374875359781E-1  -1.666023573772526E-1  -2.865453276624601E-2  -1.643941934876299E-1  
 1.120957251616430E6    -2.937438313454703E-2  -1.681068228661511E-1   9.701934365448104E-1  -1.697350814718967E-1   9.711373467985374E-1  -1.703199262908458E-1  -2.968989217866920E-2  -1.678968412970458E-1  
 1.143921566001752E6    -3.027683100097545E-2  -1.713265134388975E-1   9.689729752683165E-1  -1.728188386180526E-1   9.699345460179677E-1  -1.734693044695232E-1  -3.078737208692053E-2  -1.711117882500282E-1  
 1.167356335200965E6    -3.164877829300026E-2  -1.745142534987028E-1   9.678490601023240E-1  -1.766695840265716E-1   9.683328916215438E-1  -1.766338368282312E-1  -3.237825000201234E-2  -1.743109738493181E-1  
 1.191271197112600E6    -3.280289289196269E-2  -1.779310830440893E-1   9.668324033310090E-1  -1.799677100063186E-1   9.670329051699084E-1  -1.797848866970349E-1  -3.338474108757751E-2  -1.771674586715147E-1  
 1.215675987080482E6    -3.450541328448697E-2  -1.811544276796655E-1   9.655214545863957E-1  -1.833005946581985E-1   9.656837951481281E-1  -1.831392304221194E-1  -3.491296241437566E-2  -1.808999440994987E-1  
 1.240580741938659E6    -3.619184663944779E-2  -1.847902572487935E-1   9.641476162465943E-1  -1.865199951891809E-1   9.643128314480416E-1  -1.869757776546223E-1  -3.597481775500388E-2  -1.844525247763922E-1  
 1.265995704139202E6    -3.706542949413266E-2  -1.881283061013526E-1   9.629910522272200E-1  -1.901089643569953E-1   9.626923539015848E-1  -1.903179302545833E-1  -3.746414026087355E-2  -1.881776045310961E-1  
 1.291931325964563E6    -3.875324775387684E-2  -1.917610226651318E-1   9.615060836479676E-1  -1.939842604021240E-1   9.612399856647760E-1  -1.941872420632834E-1  -3.896424454301735E-2  -1.912901487920928E-1  
 1.318398273826236E6    -4.031446758553773E-2  -1.956458841208592E-1   9.597356061958756E-1  -1.978538461223953E-1   9.598369004881888E-1  -1.977811498860921E-1  -4.051444667402775E-2  -1.951984191465872E-1  
 1.345407432651476E6    -4.154774682416346E-2  -1.986172361113023E-1   9.577368809503438E-1  -2.017051409177624E-1   9.584923077962270E-1  -2.013006546353122E-1  -4.242985766876791E-2  -1.986954586964359E-1  
 1.372969910359885E6    -4.361899037730382E-2  -2.030016735517299E-1   9.563275084992684E-1  -2.047413481558149E-1   9.569289562834783E-1  -2.052489794895121E-1  -4.377464399371116E-2  -2.020551903308576E-1  
 1.401097042431717E6    -4.497598393552230E-2  -2.063086652891108E-1   9.544598286325311E-1  -2.085869145446767E-1   9.551306646954985E-1  -2.088641102913658E-1  -4.526376961027782E-2  -2.059666841854623E-1  
 1.429800396569754E6    -4.674451945778156E-2  -2.102748306814025E-1   9.530141409451221E-1  -2.130473035745800E-1   9.534975368464709E-1  -2.125570656859602E-1  -4.709194967100916E-2  -2.102756125725304E-1  
 1.459091777456705E6    -4.879373055014636E-2  -2.137669503011953E-1   9.509356205691332E-1  -2.166262693434636E-1   9.515896039091368E-1  -2.169709580161962E-1  -4.922225874401357E-2  -2.142479504991333E-1  
 1.488983231610052E6    -5.074226851678292E-2  -2.181666197664328E-1   9.493384034895653E-1  -2.205952139256117E-1   9.491097057952498E-1  -2.208257789761658E-1  -5.091869884001660E-2  -2.181989495566415E-1  
 1.519487052336364E6    -5.236454569128256E-2  -2.224717709080735E-1   9.471658790431522E-1  -2.249638700328400E-1   9.474418091721328E-1  -2.249643388908066E-1  -5.292200473550322E-2  -2.219340871666894E-1  
 1.550615784787099E6    -5.472658231635900E-2  -2.264186025304591E-1   9.451975476643125E-1  -2.294500387137193E-1   9.458620151095305E-1  -2.288167541508358E-1  -5.521268701831686E-2  -2.260558883604670E-1  
 1.582382231117988E6    -5.690004254404136E-2  -2.304293557958953E-1   9.427566470117230E-1  -2.332888916305421E-1   9.430506230020940E-1  -2.333493483076786E-1  -5.731271119796652E-2  -2.299716286639029E-1  
 1.614799455754111E6    -5.862424433758414E-2  -2.347297038766406E-1   9.407160583103412E-1  -2.373680200809843E-1   9.414387355627776E-1  -2.374957200179615E-1  -5.968571212429255E-2  -2.345980607323758E-1  
 1.647880790762838E6    -6.134045120290181E-2  -2.389356202596808E-1   9.386278368776988E-1  -2.415305898379252E-1   9.387911958395719E-1  -2.418585017484140E-1  -6.197567495126276E-2  -2.383384183849449E-1  
 1.681639841336839E6    -6.377710298243527E-2  -2.434255095275206E-1   9.360820879683071E-1  -2.457240203075153E-1   9.362482375813723E-1  -2.458514897821102E-1  -6.427371805275733E-2  -2.427345924676247E-1  
 1.716090491389422E6    -6.624809437389080E-2  -2.474666204851122E-1   9.337831153332807E-1  -2.502197149012830E-1   9.336654304110776E-1  -2.499915905422219E-1  -6.671825545385851E-2  -2.472852221375611E-1  
 1.751246909264502E6    -6.872681215701787E-2  -2.515710306556294E-1   9.310322085401497E-1  -2.544682376029025E-1   9.309815463971708E-1  -2.545938105339027E-1  -6.947563354972693E-2  -2.514967162902387E-1  
 1.787123553563544E6    -7.172931474884937E-2  -2.558727899364333E-1   9.283499017493293E-1  -2.591707041470237E-1   9.287058453353229E-1  -2.595070170449479E-1  -7.181163115973858E-2  -2.562204104342515E-1  
 1.823735179091875E6    -7.409211403703243E-2  -2.606552016679073E-1   9.254430223162571E-1  -2.636320856359229E-1   9.254217465340788E-1  -2.640598644862887E-1  -7.424784731243869E-2  -2.601022750507621E-1  
 1.861096842926821E6    -7.677941128689311E-2  -2.652957410511675E-1   9.230272394934309E-1  -2.681623373497906E-1   9.234464066467223E-1  -2.686503083870093E-1  -7.758831047876025E-2  -2.647169811812844E-1  
 1.899223910610154E6    -7.977715496133936E-2  -2.696941291230883E-1   9.199728487042229E-1  -2.729087992230768E-1   9.200958112667275E-1  -2.731951062145115E-1  -8.057109559293141E-2  -2.690592626499735E-1  
 1.938132062467400E6    -8.325876034287544E-2  -2.747197425849442E-1   9.168997602476259E-1  -2.775245000435075E-1   9.168702557353866E-1  -2.779104941496891E-1  -8.316954858959688E-2  -2.740417405697129E-1  
 1.977837300056607E6    -8.602165739019774E-2  -2.789430987525441E-1   9.134951411880391E-1  -2.824478917461047E-1   9.141328989907237E-1  -2.822772989368415E-1  -8.634308308166257E-2  -2.785291288529113E-1  
