#  HZ   S   RI   R     50 
! Rohde & Schwarz ZVA/B 
! 
! 
! 
 3.000000000000000E5    -1.756679441052385E-3  -4.642213788353312E-2   9.972553743825070E-1  -4.706646419797777E-2   9.980408610588288E-1  -4.707298030785317E-2  -2.109413885333161E-3  -4.564860418808485E-2  
 3.061459028037530E5    -2.179637470917829E-3  -4.746232296060039E-2   9.978090821507291E-1  -4.799609305021462E-2   9.981116414440013E-1  -4.812921857174495E-2  -1.989507265980063E-3  -4.675648235448569E-2  
 3.124177126784167E5    -2.056613220326553E-3  -4.832079971320899E-2   9.975455292098266E-1  -4.908294656961246E-2   9.980359392217101E-1  -4.901935633938255E-2  -2.307290068864151E-3  -4.796172525928923E-2  
 3.188180089993913E5    -2.430790400694225E-3  -4.920574723413640E-2   9.975557067160703E-1  -5.016623919480319E-2   9.981187140808941E-1  -5.008385813368142E-2  -2.106408484850616E-3  -4.855078975221387E-2  
 3.253494239840457E5    -2.391518325555406E-3  -5.034326543045962E-2   9.975009488429659E-1  -5.114106857725559E-2   9.978143706265252E-1  -5.108327240752772E-2  -2.532365645594691E-3  -4.973374408851580E-2  
 3.320146437742557E5    -2.470434715325071E-3  -5.149153205972769E-2   9.975137572682606E-1  -5.203923972878172E-2   9.975216327856779E-1  -5.187281434977890E-2  -2.866476073740235E-3  -5.089093745597596E-2  
 3.388164095411199E5    -2.598626229083683E-3  -5.235041543919436E-2   9.969261977585173E-1  -5.325859245670715E-2   9.977715779838892E-1  -5.317061518937883E-2  -2.752125001233114E-3  -5.191964975738793E-2  
 3.457575186123076E5    -2.870191647725982E-3  -5.329292792762815E-2   9.968808436052774E-1  -5.458506543503025E-2   9.972861855125841E-1  -5.449143220127664E-2  -2.959777905953645E-3  -5.285904650727087E-2  
 3.528408256225012E5    -3.084651784589661E-3  -5.463305032894672E-2   9.966159131150000E-1  -5.538849813007370E-2   9.971794297988629E-1  -5.510839314205407E-2  -3.180062310833102E-3  -5.410671080472451E-2  
 3.600692436874074E5    -3.304554262611003E-3  -5.574735227289243E-2   9.968022641158754E-1  -5.646986667515244E-2   9.971322233909151E-1  -5.638976806801459E-2  -3.359837062278468E-3  -5.510652687235261E-2  
 3.674457456018197E5    -3.335898145124341E-3  -5.681488335074086E-2   9.965177608943756E-1  -5.764226269292079E-2   9.970844274392063E-1  -5.766278078429000E-2  -3.500880174323153E-3  -5.623862502684738E-2  
 3.749733650622242E5    -3.601210617030981E-3  -5.805182297436190E-2   9.963226758120523E-1  -5.880396698034193E-2   9.965983926827043E-1  -5.888689492739791E-2  -3.621067043112341E-3  -5.743163509241666E-2  
 3.826551979144529E5    -3.716540679601174E-3  -5.897782246427524E-2   9.961506327526407E-1  -5.999360374461144E-2   9.967888970948799E-1  -5.996362852795807E-2  -3.767296957391576E-3  -5.859046425855955E-2  
 3.904944034268967E5    -4.028028482006022E-3  -6.043390837172298E-2   9.960958242483338E-1  -6.112082108829973E-2   9.965511475795097E-1  -6.106296147529697E-2  -3.835414072136755E-3  -6.001207347970541E-2  
 3.984942055898008E5    -4.187016181583758E-3  -6.170794233470225E-2   9.960989327167832E-1  -6.246935078047756E-2   9.963769246203482E-1  -6.234403685713866E-2  -4.092682695540487E-3  -6.115628245287773E-2  
 4.066578944411798E5    -4.394059141002616E-3  -6.279194273902636E-2   9.958096959384477E-1  -6.390038417238775E-2   9.962875935078281E-1  -6.369056371846520E-2  -4.254227532623743E-3  -6.249995602823537E-2  
 4.149888274198943E5    -4.369300743510730E-3  -6.397475075581305E-2   9.957102527871261E-1  -6.516962150458597E-2   9.962028213279424E-1  -6.506713039536791E-2  -4.563571524227068E-3  -6.374497960357559E-2  
 4.234904307464480E5    -4.636456269703678E-3  -6.534054060424738E-2   9.954205156748722E-1  -6.627348290937099E-2   9.959723399744194E-1  -6.627487976025505E-2  -4.624803591593272E-3  -6.508024567357051E-2  
 4.321662008320720E5    -4.999926244299672E-3  -6.682381749766050E-2   9.952580149816945E-1  -6.772284429802786E-2   9.955587902692632E-1  -6.770518426727133E-2  -4.844881651540927E-3  -6.637308455370368E-2  
 4.410197057166757E5    -5.056827492834222E-3  -6.797349800459916E-2   9.950365602268295E-1  -6.910302500036419E-2   9.955183173119444E-1  -6.901938173572263E-2  -4.873196287318800E-3  -6.780026062583082E-2  
 4.500545865362572E5    -5.187829528910405E-3  -6.940817207482905E-2   9.949399941968258E-1  -7.051980416165174E-2   9.953900465054963E-1  -7.045572747595927E-2  -5.151294361642870E-3  -6.904894920136602E-2  
 4.592745590203743E5    -5.352098501813194E-3  -7.097573275895928E-2   9.946121765596712E-1  -7.178843428989017E-2   9.953682795602277E-1  -7.187818589621590E-2  -5.649505588317024E-3  -7.048085902830917E-2  
 4.686834150202934E5    -5.439099205909922E-3  -7.217832895361705E-2   9.942698432008237E-1  -7.318388367391224E-2   9.947908300249974E-1  -7.353794758699658E-2  -5.715333035950766E-3  -7.197060071205601E-2  
 4.782850240684460E5    -5.819681193472759E-3  -7.377474041693009E-2   9.941901237823216E-1  -7.488662572740272E-2   9.947146000966234E-1  -7.469476875459161E-2  -6.082252912273377E-3  -7.351273497688646E-2  
 4.880833349698305E5    -6.056406333137574E-3  -7.518193289677062E-2   9.940104001597230E-1  -7.621401272523797E-2   9.943377860197511E-1  -7.624859335782494E-2  -5.941616972075943E-3  -7.493255653389207E-2  
 4.980823774260179E5    -6.247022262861057E-3  -7.663803399446152E-2   9.938840473409079E-1  -7.779372355775033E-2   9.942683663564133E-1  -7.786502223137537E-2  -6.430616194949392E-3  -7.650840570163731E-2  
 5.082862636924264E5    -6.507397839642003E-3  -7.824379347535265E-2   9.934547931862056E-1  -7.915147413696730E-2   9.940127800192505E-1  -7.948736153584955E-2  -6.559988770882574E-3  -7.803563230671112E-2  
 5.186991902695479E5    -6.910585563870877E-3  -7.989449513542130E-2   9.934282055540930E-1  -8.097607236635990E-2   9.937079293569040E-1  -8.115198270719934E-2  -6.996322450130901E-3  -7.967109719461221E-2  
 5.293254396288213E5    -7.105542744996076E-3  -8.153881573222144E-2   9.930155650680037E-1  -8.272228954082642E-2   9.934121227186762E-1  -8.257697165756422E-2  -6.970197051387342E-3  -8.133139417363944E-2  
 5.401693819738632E5    -7.441505199602956E-3  -8.329439738283473E-2   9.927857090804280E-1  -8.429744654908564E-2   9.930936099949960E-1  -8.434005264111087E-2  -7.499150138751136E-3  -8.301789925002145E-2  
 5.512354770377789E5    -7.628660550803454E-3  -8.489205687004099E-2   9.923654394111977E-1  -8.605582160241806E-2   9.929242468258402E-1  -8.603529695359789E-2  -7.767709422077303E-3  -8.453051031605752E-2  
 5.625282759172944E5    -7.914119300573718E-3  -8.647610937736236E-2   9.920947072034995E-1  -8.778973313629837E-2   9.926850308815086E-1  -8.773303862561588E-2  -7.903482664815850E-3  -8.665102119231137E-2  
 5.740524229444626E5    -8.218783022689639E-3  -8.823856362367279E-2   9.919081763738261E-1  -8.948526029991985E-2   9.922991793907462E-1  -8.946119994050995E-2  -8.359855483854586E-3  -8.804356621676708E-2  
 5.858126575967147E5    -8.500997108362548E-3  -9.005252825714040E-2   9.916344944701008E-1  -9.141195199599700E-2   9.918424211241204E-1  -9.137049151240498E-2  -8.516880841522608E-3  -8.981885642961343E-2  
 5.978138164460403E5    -8.855057046331237E-3  -9.191012676701048E-2   9.910393924528234E-1  -9.329263282347240E-2   9.916291571048004E-1  -9.325590276285081E-2  -8.902809865298454E-3  -9.178573014451047E-2  
 6.100608351481004E5    -9.078364094442277E-3  -9.377311641726380E-2   9.906948936135582E-1  -9.516342200093991E-2   9.912129448028940E-1  -9.498584870993992E-2  -9.294609730296354E-3  -9.361411119287551E-2  
 6.225587504720892E5    -9.486974993357399E-3  -9.561423042386019E-2   9.905018783539891E-1  -9.710428356075219E-2   9.907363849599958E-1  -9.694323501121140E-2  -9.702554759682253E-3  -9.562535458433857E-2  
 6.353127023721805E5    -9.899218327313532E-3  -9.753190639632065E-2   9.900194086005206E-1  -9.899587493811093E-2   9.905090469303475E-1  -9.900660904063080E-2  -1.027366498183254E-2  -9.740307353482333E-2  
 6.483279361014109E5    -1.034909885572824E-2  -9.956408036394106E-2   9.897749301972517E-1  -1.008440475909027E-1   9.900522842319219E-1  -1.009203104848456E-1  -1.049955781655977E-2  -9.955269825220647E-2  
 6.616098043688679E5    -1.064872145498790E-2  -1.015764837271501E-1   9.892326753362406E-1  -1.029954841884888E-1   9.896880671570791E-1  -1.029819916031450E-1  -1.098475881162998E-2  -1.014689274542904E-1  
 6.751637695410716E5    -1.118349357216261E-2  -1.036680188188200E-1   9.888272920855498E-1  -1.049535101952783E-1   9.892087960674413E-1  -1.050515022891596E-1  -1.136876973800701E-2  -1.033709233294173E-1  
 6.889954058884548E5    -1.153986621290277E-2  -1.058155702624053E-1   9.883442617770475E-1  -1.070353620695742E-1   9.886938705363170E-1  -1.070800649027039E-1  -1.186938804479488E-2  -1.054904392362999E-1  
 7.031104018778642E5    -1.205902004960750E-2  -1.078223463448666E-1   9.877624775607267E-1  -1.092023324186111E-1   9.886029204478886E-1  -1.091499512646782E-1  -1.243824636108705E-2  -1.076182179359082E-1  
 7.175145625120278E5    -1.258914535357249E-2  -1.100276921219293E-1   9.872916477127766E-1  -1.114469690087021E-1   9.878178895345964E-1  -1.114497556015432E-1  -1.280979371880666E-2  -1.098699094752947E-1  
 7.322138117169489E5    -1.304539683350208E-2  -1.122107945309100E-1   9.868520750358198E-1  -1.135220876069859E-1   9.873491198627735E-1  -1.136642431045081E-1  -1.315807832185209E-2  -1.119765230660417E-1  
 7.472141947782085E5    -1.356586069181792E-2  -1.143786968932201E-1   9.864779399021029E-1  -1.157578908514432E-1   9.868647024782664E-1  -1.159052340890035E-1  -1.382451419440430E-2  -1.141448728050233E-1  
 7.625218808271801E5    -1.414346706972798E-2  -1.166926532689868E-1   9.859781234492263E-1  -1.181982687002213E-1   9.861773314733001E-1  -1.183452809016087E-1  -1.450768890031013E-2  -1.165779732401433E-1  
 7.781431653781761E5    -1.463728867787787E-2  -1.190781873804779E-1   9.851650014391866E-1  -1.203577628175390E-1   9.856552529719559E-1  -1.205852224376468E-1  -1.486418549419719E-2  -1.189839832276494E-1  
 7.940844729175728E5    -1.518601377851401E-2  -1.215075496169333E-1   9.846756650628897E-1  -1.229007884683375E-1   9.852337867719333E-1  -1.229993527551291E-1  -1.536914384419112E-2  -1.212060848929660E-1  
 8.103523595459757E5    -1.578103942737706E-2  -1.239653696970532E-1   9.840043110620106E-1  -1.253131438128243E-1   9.845025222388349E-1  -1.253292427345914E-1  -1.613982462945465E-2  -1.236664115219551E-1  
 8.269535156745140E5    -1.652736293393195E-2  -1.264034567920712E-1   9.832642684508002E-1  -1.276517292828268E-1   9.838928962181455E-1  -1.278391175147673E-1  -1.667784705555941E-2  -1.260790210917354E-1  
 8.438947687763721E5    -1.712337042764717E-2  -1.288226156495602E-1   9.828038557562356E-1  -1.302897532231205E-1   9.832007070201367E-1  -1.303836686293852E-1  -1.751824560647198E-2  -1.286937294614882E-1  
 8.611830861946895E5    -1.792100085016935E-2  -1.315057720886628E-1   9.818089481112975E-1  -1.328532276418099E-1   9.825242322193093E-1  -1.330945226805080E-1  -1.825410724944651E-2  -1.310642665987010E-1  
 8.788255780079850E5    -1.847155505642794E-2  -1.339567467345475E-1   9.813204639201348E-1  -1.355089208262627E-1   9.818399574761710E-1  -1.356526995842507E-1  -1.885685541843136E-2  -1.338670595982991E-1  
 8.968294999542822E5    -1.944588422061521E-2  -1.366169886634997E-1   9.804863112451709E-1  -1.381439331336873E-1   9.809878579885158E-1  -1.383372004209810E-1  -1.956504685625117E-2  -1.363794160386995E-1  
 9.152022564151404E5    -2.003596464884766E-2  -1.393690773747367E-1   9.798080794555898E-1  -1.408504612925061E-1   9.801009005315395E-1  -1.410263558859957E-1  -2.033532263001998E-2  -1.389843928433874E-1  
 9.339514034608167E5    -2.080175074077542E-2  -1.420962243104276E-1   9.790041375165864E-1  -1.437880295384647E-1   9.793443301467928E-1  -1.438002924304144E-1  -2.120445946439445E-2  -1.419010980161645E-1  
 9.530846519578132E5    -2.164965499683120E-2  -1.448391247467209E-1   9.781620580836148E-1  -1.463866748116612E-1   9.784109389845093E-1  -1.466601066173068E-1  -2.198742684585382E-2  -1.446138383241244E-1  
 9.726098707400849E5    -2.266703916632080E-2  -1.477054930262627E-1   9.773108983848325E-1  -1.492867407531950E-1   9.776125530253004E-1  -1.494521384181804E-1  -2.278111500973589E-2  -1.474447408656992E-1  
 9.925350898452161E5    -2.347130452705046E-2  -1.505250517744388E-1   9.763061329390915E-1  -1.524088717728558E-1   9.767313923339955E-1  -1.524141880728639E-1  -2.393319308926645E-2  -1.504221857635356E-1  
 1.012868503816893E6    -2.429481734473862E-2  -1.536083437980564E-1   9.751307154070723E-1  -1.550151199467545E-1   9.758313699684934E-1  -1.558358838018585E-1  -2.462139931327081E-2  -1.533215103264798E-1  
 1.033618475075031E6    -2.563430252838711E-2  -1.564180266726953E-1   9.743006160154837E-1  -1.584339485805771E-1   9.748633679140633E-1  -1.586339489325855E-1  -2.547680939797332E-2  -1.560470751131376E-1  
 1.054793537354946E6    -2.648009531645117E-2  -1.597163027684721E-1   9.733712497005899E-1  -1.617467571154759E-1   9.732722278867197E-1  -1.614738187269308E-1  -2.670050677586462E-2  -1.592804958160120E-1  
 1.076402399216980E6    -2.736947587889740E-2  -1.625774451894310E-1   9.723547491276516E-1  -1.642473127279648E-1   9.726298265257228E-1  -1.649804701352814E-1  -2.752993340104815E-2  -1.620151036464594E-1  
 1.098453947628028E6    -2.854391000944849E-2  -1.658839111012925E-1   9.711822768976731E-1  -1.677694935626476E-1   9.712060924726994E-1  -1.677189381711402E-1  -2.900990433036958E-2  -1.652898626032233E-1  
 1.120957251616430E6    -3.000121244903978E-2  -1.689941319248524E-1   9.700168175799251E-1  -1.709013291837149E-1   9.708142335857974E-1  -1.713131847587822E-1  -3.020944115535840E-2  -1.692309581812398E-1  
 1.143921566001752E6    -3.058630882171653E-2  -1.724110055601018E-1   9.690609602377831E-1  -1.745640107604461E-1   9.695900677584527E-1  -1.747042917940396E-1  -3.118745569250506E-2  -1.722751588256056E-1  
 1.167356335200965E6    -3.216778603835497E-2  -1.756647006912750E-1   9.678946291354237E-1  -1.773031928382119E-1   9.680614478277758E-1  -1.779117549040938E-1  -3.291173374627328E-2  -1.755187849919561E-1  
 1.191271197112600E6    -3.350321828491348E-2  -1.790763836522251E-1   9.663846590643823E-1  -1.813547116134648E-1   9.670527821322530E-1  -1.809263691242770E-1  -3.385149644140841E-2  -1.782585151778899E-1  
 1.215675987080482E6    -3.502230067378507E-2  -1.822921440478890E-1   9.648799283703577E-1  -1.839109736263018E-1   9.651773898617290E-1  -1.844131257279617E-1  -3.541101786712817E-2  -1.822076118161921E-1  
 1.240580741938659E6    -3.646465282992784E-2  -1.859632204303739E-1   9.634168355802195E-1  -1.883562972033423E-1   9.644344668352221E-1  -1.881902025126035E-1  -3.647565562301559E-2  -1.858510446244751E-1  
 1.265995704139202E6    -3.763605306283498E-2  -1.893602982380198E-1   9.626497782647712E-1  -1.914707019147314E-1   9.623284251351429E-1  -1.918160236451058E-1  -3.795963591975597E-2  -1.893791126219520E-1  
 1.291931325964563E6    -3.922819668647483E-2  -1.928759088735887E-1   9.609023904516079E-1  -1.946882093062689E-1   9.611817858690076E-1  -1.953123484134467E-1  -3.950989597197405E-2  -1.924647877009674E-1  
 1.318398273826236E6    -4.074150982212561E-2  -1.967544684307152E-1   9.592484561385679E-1  -1.988951332643787E-1   9.594498003767354E-1  -1.986641686078307E-1  -4.090183149405412E-2  -1.963430395677463E-1  
 1.345407432651476E6    -4.234093031752082E-2  -2.001012094270271E-1   9.576992081983539E-1  -2.029258343641368E-1   9.578447571335643E-1  -2.028366617390331E-1  -4.288180856158438E-2  -1.998725369348084E-1  
 1.372969910359885E6    -4.422874039227030E-2  -2.041209213287876E-1   9.559503620564014E-1  -2.063213163515515E-1   9.561456914944032E-1  -2.066311170251876E-1  -4.441053923717108E-2  -2.034686679263587E-1  
 1.401097042431717E6    -4.562574815221153E-2  -2.075145855593382E-1   9.535776553024906E-1  -2.100254890065136E-1   9.544414483707941E-1  -2.105220011748345E-1  -4.597651196123773E-2  -2.075394509721312E-1  
 1.429800396569754E6    -4.738407362818330E-2  -2.113560587331108E-1   9.523157589713176E-1  -2.141227515257609E-1   9.526921453852925E-1  -2.140133839443857E-1  -4.753298148625191E-2  -2.116833499611895E-1  
 1.459091777456705E6    -4.934988521001400E-2  -2.152410900877629E-1   9.505750966632192E-1  -2.175872431178272E-1   9.511250840438603E-1  -2.182618463397861E-1  -4.981616194291598E-2  -2.155390149966666E-1  
 1.488983231610052E6    -5.151134330046183E-2  -2.196028625817223E-1   9.487977831181554E-1  -2.223107942829187E-1   9.490451635239152E-1  -2.224059947194431E-1  -5.171253204298828E-2  -2.196552910067856E-1  
 1.519487052336364E6    -5.315711789311705E-2  -2.236469401077013E-1   9.461849651345320E-1  -2.262950255402936E-1   9.465264464818167E-1  -2.265613984720446E-1  -5.360742562346618E-2  -2.232656157302188E-1  
 1.550615784787099E6    -5.540606400197350E-2  -2.278359880184709E-1   9.445381217144031E-1  -2.304078905624805E-1   9.451733914361900E-1  -2.303844240317977E-1  -5.590090140140358E-2  -2.274958557998937E-1  
 1.582382231117988E6    -5.772532177405942E-2  -2.318718751878915E-1   9.424461525176147E-1  -2.348917850288949E-1   9.422186515512132E-1  -2.345289553271445E-1  -5.811486283877625E-2  -2.315729754461507E-1  
 1.614799455754111E6    -5.963886585735876E-2  -2.360845526492816E-1   9.397538050974911E-1  -2.387005387887806E-1   9.403919004744696E-1  -2.391499512219319E-1  -6.049584828334120E-2  -2.360295842698224E-1  
 1.647880790762838E6    -6.205618853321882E-2  -2.404071479541394E-1   9.374825044866846E-1  -2.429104173939230E-1   9.382764731929634E-1  -2.433583747429284E-1  -6.293512312073450E-2  -2.399669896774221E-1  
 1.681639841336839E6    -6.460036636351514E-2  -2.450035407693137E-1   9.353395875783086E-1  -2.472891416058111E-1   9.354545187818623E-1  -2.474589537951754E-1  -6.522113057162322E-2  -2.443731350068933E-1  
 1.716090491389422E6    -6.695374128454397E-2  -2.491490883742184E-1   9.333406449914037E-1  -2.512168582845291E-1   9.329123889129806E-1  -2.522263696121772E-1  -6.775103009151863E-2  -2.486432779684674E-1  
 1.751246909264502E6    -6.976664506770711E-2  -2.533836986221810E-1   9.297336441637831E-1  -2.564187505706349E-1   9.303470838076756E-1  -2.563386264597078E-1  -7.035012214924691E-2  -2.530626765446524E-1  
 1.787123553563544E6    -7.256375412612380E-2  -2.574446994388039E-1   9.270599526520673E-1  -2.605739677329155E-1   9.275867279418559E-1  -2.613701460539342E-1  -7.310858911245305E-2  -2.577256648188451E-1  
 1.823735179091875E6    -7.505318352859115E-2  -2.621855463622260E-1   9.245589690242656E-1  -2.651937558295596E-1   9.248849667793571E-1  -2.651028779538081E-1  -7.530603473597804E-2  -2.617704998645610E-1  
 1.861096842926821E6    -7.789848273194400E-2  -2.664900945791797E-1   9.216479485810947E-1  -2.696440819558225E-1   9.220901595728743E-1  -2.700294318661634E-1  -7.866871180964122E-2  -2.661974239776808E-1  
 1.899223910610154E6    -8.092209766638046E-2  -2.713239467938662E-1   9.189511931040723E-1  -2.744198147670696E-1   9.191795906010093E-1  -2.747065068877222E-1  -8.147069108081202E-2  -2.707984984225062E-1  
 1.938132062467400E6    -8.413891643867733E-2  -2.762777581473207E-1   9.160266992415840E-1  -2.787049288153104E-1   9.159616202654004E-1  -2.793842666391066E-1  -8.438873853757398E-2  -2.755749620776907E-1  
 1.977837300056607E6    -8.724317739485789E-2  -2.807198042244120E-1   9.123222605271266E-1  -2.836794920270965E-1   9.127884767647366E-1  -2.842766411584451E-1  -8.751404849196891E-2  -2.798837181813767E-1  
