#  HZ   S   RI   R     50 
! Rohde & Schwarz ZVA/B 
! 
! 
! 
 3.000000000000000E5    -9.471656803433554E-1  -2.192676032855924E-1   5.377981917204639E-2  -2.215502219623939E-1   5.431079364500111E-2  -2.222831617941738E-1  -9.450788641126348E-1  -2.190756909276427E-1  
 3.061459028037530E5    -9.486771080949066E-1  -2.149863795666145E-1   5.190009131150097E-2  -2.175574911181168E-1   5.237166816957739E-2  -2.181844059736086E-1  -9.468674603473938E-1  -2.148574387391669E-1  
 3.124177126784167E5    -9.508333763680702E-1  -2.113764784803117E-1   5.012389614444740E-2  -2.135934243678700E-1   5.047050577727407E-2  -2.143372888562035E-1  -9.490653939472163E-1  -2.109556881243060E-1  
 3.188180089993913E5    -9.524521631467530E-1  -2.075640132105286E-1   4.826364179193031E-2  -2.097068200516620E-1   4.843557603058163E-2  -2.104229954205197E-1  -9.507145988440193E-1  -2.072196790435656E-1  
 3.253494239840457E5    -9.538312843555415E-1  -2.036924211755192E-1   4.651318675935644E-2  -2.056475500716382E-1   4.682402598751504E-2  -2.065541848097063E-1  -9.523363665027567E-1  -2.034495199779347E-1  
 3.320146437742557E5    -9.555248002892967E-1  -1.999063288438588E-1   4.478049315016391E-2  -2.019563076520348E-1   4.510115378490174E-2  -2.026639194234132E-1  -9.539254501082303E-1  -1.998090732465896E-1  
 3.388164095411199E5    -9.574126132241985E-1  -1.963785283717648E-1   4.306806719170687E-2  -1.982925718001476E-1   4.335275603816410E-2  -1.991436513969021E-1  -9.556519846938708E-1  -1.960749343449691E-1  
 3.457575186123076E5    -9.589124307132394E-1  -1.922626885153051E-1   4.148444920389616E-2  -1.946864541289995E-1   4.179572636328747E-2  -1.952729128432897E-1  -9.570556747871736E-1  -1.926332167375436E-1  
 3.528408256225012E5    -9.602504512000918E-1  -1.893367037140308E-1   4.025329011699155E-2  -1.910067759728323E-1   4.033284869442191E-2  -1.916854499636465E-1  -9.584154220447319E-1  -1.888684745583270E-1  
 3.600692436874074E5    -9.619049243443654E-1  -1.854878673727459E-1   3.866877732452466E-2  -1.875409271926306E-1   3.876628018464366E-2  -1.881191996579491E-1  -9.599571777787804E-1  -1.854905628138784E-1  
 3.674457456018197E5    -9.632374329046542E-1  -1.823996261960504E-1   3.733644190478953E-2  -1.839480242436948E-1   3.738854032060917E-2  -1.846615530336577E-1  -9.613382598097167E-1  -1.820449169645242E-1  
 3.749733650622242E5    -9.644100302095676E-1  -1.787137675970207E-1   3.598555012614765E-2  -1.804758201184753E-1   3.581911221993363E-2  -1.810057953386534E-1  -9.625807117046061E-1  -1.784889981102988E-1  
 3.826551979144529E5    -9.656980278658289E-1  -1.752839689392638E-1   3.468556545083292E-2  -1.770514570577075E-1   3.467295634423542E-2  -1.776928579301579E-1  -9.638767516974311E-1  -1.754317825734584E-1  
 3.904944034268967E5    -9.669107158123674E-1  -1.720172693761814E-1   3.344231605845567E-2  -1.737638180241194E-1   3.340335532887157E-2  -1.743393281325214E-1  -9.653469304146102E-1  -1.722876207697133E-1  
 3.984942055898008E5    -9.680031749070377E-1  -1.688694095878224E-1   3.228778225962792E-2  -1.704609177326650E-1   3.217542208509904E-2  -1.709811711640301E-1  -9.663732074216651E-1  -1.690738481781551E-1  
 4.066578944411798E5    -9.692991699258955E-1  -1.655826802268193E-1   3.112787385595559E-2  -1.673415221908794E-1   3.108342266115388E-2  -1.677734712646399E-1  -9.676598172309527E-1  -1.659176624429341E-1  
 4.149888274198943E5    -9.702617271793336E-1  -1.625805569691910E-1   2.999314961383619E-2  -1.640644565848679E-1   2.988147127304494E-2  -1.645387793986899E-1  -9.685970207994861E-1  -1.624943933265553E-1  
 4.234904307464480E5    -9.712783243713812E-1  -1.594280626858077E-1   2.893568252548390E-2  -1.610852441805920E-1   2.887865230825530E-2  -1.613971621127909E-1  -9.698323983759581E-1  -1.597531777080277E-1  
 4.321662008320720E5    -9.722007447194061E-1  -1.564761622544278E-1   2.798306603734310E-2  -1.579278618516141E-1   2.786144022296603E-2  -1.583307209196229E-1  -9.707510351848659E-1  -1.566598251051297E-1  
 4.410197057166757E5    -9.732372224086612E-1  -1.535303755844445E-1   2.688448757023964E-2  -1.549412352732641E-1   2.687608032770943E-2  -1.552896027014063E-1  -9.718811673865548E-1  -1.537022950577596E-1  
 4.500545865362572E5    -9.745142780388340E-1  -1.505881383293319E-1   2.600240205186052E-2  -1.519167551026802E-1   2.588789045284003E-2  -1.523770370192111E-1  -9.728191569163571E-1  -1.507658032110575E-1  
 4.592745590203743E5    -9.751592005076756E-1  -1.480161831444005E-1   2.511474712199354E-2  -1.490144276968974E-1   2.496455528046061E-2  -1.495143242748336E-1  -9.736276649192878E-1  -1.478014698432595E-1  
 4.686834150202934E5    -9.759415802663898E-1  -1.448415681985019E-1   2.412759448683450E-2  -1.461509848544391E-1   2.403812543300486E-2  -1.465274517405972E-1  -9.746376931284015E-1  -1.448953780909376E-1  
 4.782850240684460E5    -9.770827830484637E-1  -1.422061743991119E-1   2.336241185290418E-2  -1.434376048837116E-1   2.322786418390795E-2  -1.438072316197316E-1  -9.755516318245354E-1  -1.422538557920136E-1  
 4.880833349698305E5    -9.778936348719928E-1  -1.391876447508483E-1   2.250623842696620E-2  -1.407343236961841E-1   2.239835159216433E-2  -1.409879364006496E-1  -9.763894611575277E-1  -1.395394905171505E-1  
 4.980823774260179E5    -9.784944816350391E-1  -1.368880048439701E-1   2.174681889340133E-2  -1.379495323940306E-1   2.157171888808612E-2  -1.382577088408130E-1  -9.772111568067723E-1  -1.368937877529629E-1  
 5.082862636924264E5    -9.793674259832343E-1  -1.341502510578390E-1   2.100508763197590E-2  -1.353402276224057E-1   2.086000459412594E-2  -1.355534616227460E-1  -9.780689146199258E-1  -1.343395196742967E-1  
 5.186991902695479E5    -9.802540654160576E-1  -1.316492776587996E-1   2.030746593596522E-2  -1.328426299105863E-1   2.016603829729551E-2  -1.330300562194998E-1  -9.788746941350162E-1  -1.315486749817907E-1  
 5.293254396288213E5    -9.807446384817932E-1  -1.288126126813682E-1   1.951537190901415E-2  -1.302096200907393E-1   1.943513847222410E-2  -1.303811141839994E-1  -9.794861442848253E-1  -1.289793085146593E-1  
 5.401693819738632E5    -9.814531638029109E-1  -1.264145544863588E-1   1.895659621340261E-2  -1.277255719157078E-1   1.878505520911018E-2  -1.278613339078496E-1  -9.802396374642448E-1  -1.266640096663862E-1  
 5.512354770377789E5    -9.820852629670903E-1  -1.241706848471041E-1   1.829731080527675E-2  -1.252076352325682E-1   1.810307170570944E-2  -1.254003683910314E-1  -9.810798171625410E-1  -1.240584231196831E-1  
 5.625282759172944E5    -9.827200577526774E-1  -1.218531777575339E-1   1.761871273522912E-2  -1.227935697685408E-1   1.756060088462545E-2  -1.229861484645289E-1  -9.815778352633211E-1  -1.218386286943935E-1  
 5.740524229444626E5    -9.834638345072619E-1  -1.191258145967076E-1   1.691592532716896E-2  -1.205287032565133E-1   1.685246475486008E-2  -1.205886614531757E-1  -9.821542155905902E-1  -1.192597654193893E-1  
 5.858126575967147E5    -9.840951363291874E-1  -1.165967634662662E-1   1.635294037812245E-2  -1.181846343237174E-1   1.628873799440512E-2  -1.183373094155430E-1  -9.827783665292824E-1  -1.169191523088242E-1  
 5.978138164460403E5    -9.844716942529266E-1  -1.147121020885516E-1   1.584591173914627E-2  -1.158581525450089E-1   1.568423482649903E-2  -1.159918124587676E-1  -9.834391731899606E-1  -1.147082471283190E-1  
 6.100608351481004E5    -9.852426881548942E-1  -1.123691432514429E-1   1.527874784263130E-2  -1.136088096888799E-1   1.514550538715323E-2  -1.136782670051770E-1  -9.839898042162207E-1  -1.123096292047982E-1  
 6.225587504720892E5    -9.855857619388303E-1  -1.102423565272374E-1   1.475299797426329E-2  -1.114305653512927E-1   1.466471136401938E-2  -1.115415613817854E-1  -9.843250551251793E-1  -1.101715585976406E-1  
 6.353127023721805E5    -9.862260095803956E-1  -1.081524788159720E-1   1.424084981999065E-2  -1.092640103002365E-1   1.415173709774169E-2  -1.093663522148288E-1  -9.849735996377467E-1  -1.079575703236875E-1  
 6.483279361014109E5    -9.865606507018789E-1  -1.061596558876378E-1   1.387165430252924E-2  -1.071672798476242E-1   1.378421837625654E-2  -1.072046268601140E-1  -9.854368425598413E-1  -1.059689823655536E-1  
 6.616098043688679E5    -9.870392785058330E-1  -1.039734678082964E-1   1.329948481564935E-2  -1.050079953818360E-1   1.327235367320922E-2  -1.051552670158695E-1  -9.859330256305159E-1  -1.037993066825755E-1  
 6.751637695410716E5    -9.875861126811831E-1  -1.018841376008227E-1   1.289072793601389E-2  -1.029689163313348E-1   1.280307102431187E-2  -1.030436216942901E-1  -9.863117860162440E-1  -1.017732169886003E-1  
 6.889954058884548E5    -9.882045272481964E-1  -9.974069603739302E-2   1.245432100495892E-2  -1.009832390027865E-1   1.227732867077831E-2  -1.010523834864023E-1  -9.867370844471453E-1  -9.972742815318325E-2  
 7.031104018778642E5    -9.886807556469526E-1  -9.777677675897045E-2   1.196131726926146E-2  -9.903419636802027E-2   1.191418467771127E-2  -9.916185385522849E-2  -9.873296754982783E-1  -9.787612875041005E-2  
 7.175145625120278E5    -9.887488099892450E-1  -9.577618135660446E-2   1.161570672747739E-2  -9.709107179763533E-2   1.146459572998641E-2  -9.717303045794658E-2  -9.876992565998264E-1  -9.575409220482782E-2  
 7.322138117169489E5    -9.892719554202333E-1  -9.396383328485534E-2   1.122681895832729E-2  -9.523610159482870E-2   1.116109788809321E-2  -9.527836665476624E-2  -9.880631117607207E-1  -9.414437396197523E-2  
 7.472141947782085E5    -9.896588127682584E-1  -9.225458396351685E-2   1.082563645064541E-2  -9.335077005969954E-2   1.077121595589468E-2  -9.344713256629858E-2  -9.884966510043789E-1  -9.188390034791173E-2  
 7.625218808271801E5    -9.901685497435565E-1  -9.031966609825827E-2   1.042523702731919E-2  -9.159161693131562E-2   1.045577576430822E-2  -9.167775500581350E-2  -9.888875698870154E-1  -9.011490756859773E-2  
 7.781431653781761E5    -9.904924785748676E-1  -8.837069193572320E-2   1.006687909775552E-2  -8.974861568881307E-2   1.012277218755915E-2  -8.983298675295139E-2  -9.892038785012672E-1  -8.830629490511921E-2  
 7.940844729175728E5    -9.907778311688178E-1  -8.656347162690485E-2   9.711800445441123E-3  -8.799091564511309E-2   9.752069635122384E-3  -8.805219683234211E-2  -9.895738933689736E-1  -8.668466741489635E-2  
 8.103523595459757E5    -9.913312771347640E-1  -8.492012234028276E-2   9.428517481798321E-3  -8.634092261400375E-2   9.405197138036907E-3  -8.624340212747288E-2  -9.897625117593991E-1  -8.496040852540056E-2  
 8.269535156745140E5    -9.914667000992783E-1  -8.310383693424356E-2   9.138326768923115E-3  -8.456894179571356E-2   9.096485714091324E-3  -8.461420893192884E-2  -9.902571968529637E-1  -8.303543518043853E-2  
 8.438947687763721E5    -9.917987170092074E-1  -8.141513580157829E-2   8.779309549271129E-3  -8.293494185895647E-2   8.776893941887810E-3  -8.297484512157663E-2  -9.904282015147650E-1  -8.152085868566551E-2  
 8.611830861946895E5    -9.921001240074308E-1  -7.991671193496240E-2   8.569626691941067E-3  -8.131402720223799E-2   8.524068690044252E-3  -8.136098854954148E-2  -9.907889829357601E-1  -7.982159518935239E-2  
 8.788255780079850E5    -9.923150862802417E-1  -7.813646597393642E-2   8.259494224388217E-3  -7.972719783789535E-2   8.226752302348574E-3  -7.971296853640218E-2  -9.910224987851271E-1  -7.802028615834970E-2  
 8.968294999542822E5    -9.927876770182815E-1  -7.648496815335544E-2   7.979457123814242E-3  -7.810389202290317E-2   7.936534806633195E-3  -7.815641194240805E-2  -9.912322086851163E-1  -7.654079287381070E-2  
 9.152022564151404E5    -9.930551019773627E-1  -7.503756170999008E-2   7.735350300184158E-3  -7.663536894695215E-2   7.625174030175251E-3  -7.663663336268149E-2  -9.915243955237961E-1  -7.496435730688555E-2  
 9.339514034608167E5    -9.930884542955575E-1  -7.343537341944308E-2   7.461629211842792E-3  -7.508647665288865E-2   7.436661915878271E-3  -7.514532744113979E-2  -9.918454288747545E-1  -7.354107784194060E-2  
 9.530846519578132E5    -9.931521322663780E-1  -7.192682093686102E-2   7.238048034958323E-3  -7.357099826374522E-2   7.153181224030190E-3  -7.366650321951884E-2  -9.921269535681031E-1  -7.195793320905572E-2  
 9.726098707400849E5    -9.937969525015911E-1  -7.030066717623862E-2   6.972647553291571E-3  -7.217587973961134E-2   6.928571157479708E-3  -7.220700041222569E-2  -9.923844791088111E-1  -7.040719059389468E-2  
 9.925350898452161E5    -9.939268031605486E-1  -6.919407084515412E-2   6.788413077647493E-3  -7.072996804968283E-2   6.724875451905733E-3  -7.075265390172844E-2  -9.926979831101787E-1  -6.897691079589934E-2  
 1.012868503816893E6    -9.939786848564718E-1  -6.748932751333805E-2   6.427868863362982E-3  -6.942926721751556E-2   6.411942673800457E-3  -6.946285534239914E-2  -9.928054128866167E-1  -6.763756852016926E-2  
 1.033618475075031E6    -9.940410336838205E-1  -6.597475587969025E-2   6.197049755144270E-3  -6.800528952950978E-2   6.352167941232298E-3  -6.795351057806609E-2  -9.932950694607696E-1  -6.621872898802787E-2  
 1.054793537354946E6    -9.946998412754077E-1  -6.500041850511147E-2   6.100800375651252E-3  -6.662088203396548E-2   6.142595739736691E-3  -6.654465198618395E-2  -9.931092998003650E-1  -6.504299008269471E-2  
 1.076402399216980E6    -9.944693356957763E-1  -6.285940055509764E-2   5.983610164995749E-3  -6.531790226618098E-2   5.838892175813283E-3  -6.537268652212559E-2  -9.934133792243994E-1  -6.352150521593207E-2  
 1.098453947628028E6    -9.952554681562029E-1  -6.206093743094590E-2   5.706578381464609E-3  -6.397770499382448E-2   5.665339374989560E-3  -6.412055205270122E-2  -9.939924674982302E-1  -6.227270358860863E-2  
 1.120957251616430E6    -9.955179545146533E-1  -6.106026423929294E-2   5.594015681646338E-3  -6.286510937949082E-2   5.512605937206597E-3  -6.285016153835918E-2  -9.939249097614332E-1  -6.070400145058860E-2  
 1.143921566001752E6    -9.950357922319795E-1  -5.959943538649300E-2   5.357401126826321E-3  -6.138650557512847E-2   5.340417558194723E-3  -6.163624354569320E-2  -9.944047138803913E-1  -5.910758544721868E-2  
 1.167356335200965E6    -9.950046569096931E-1  -5.853692522474294E-2   5.292260799788351E-3  -6.020206320686843E-2   5.212624739147139E-3  -6.034198993495006E-2  -9.944262848313146E-1  -5.820046928652764E-2  
 1.191271197112600E6    -9.956761072047682E-1  -5.696526695906942E-2   5.020876622733979E-3  -5.919213209706679E-2   5.021207972373694E-3  -5.921752469074530E-2  -9.943806089662053E-1  -5.714667405829996E-2  
 1.215675987080482E6    -9.955874440459686E-1  -5.610237532535079E-2   4.892711834755458E-3  -5.799931360847829E-2   4.855399018652759E-3  -5.790792486615767E-2  -9.946464975941866E-1  -5.598494156234876E-2  
 1.240580741938659E6    -9.961793934274126E-1  -5.423515462459623E-2   4.713085745173320E-3  -5.688356857260884E-2   4.623047960091497E-3  -5.680080918747223E-2  -9.949721163632233E-1  -5.466760456823934E-2  
 1.265995704139202E6    -9.959562551775457E-1  -5.350913348227048E-2   4.556491190729295E-3  -5.561453161815161E-2   4.673173427002394E-3  -5.540768566785204E-2  -9.946842831982891E-1  -5.357904199466905E-2  
 1.291931325964563E6    -9.964478968289839E-1  -5.231559068212267E-2   4.476143487000350E-3  -5.454104397027212E-2   4.556658968520345E-3  -5.470396600388224E-2  -9.949868698529283E-1  -5.267366539070362E-2  
 1.318398273826236E6    -9.963425565359100E-1  -5.125989838504627E-2   4.355049311181177E-3  -5.342245874794326E-2   4.190777158463294E-3  -5.333656266221461E-2  -9.950914280910286E-1  -5.145515079142740E-2  
 1.345407432651476E6    -9.966563897028317E-1  -5.017525103404244E-2   4.112229651744626E-3  -5.253302962008609E-2   4.190523395340904E-3  -5.257616520037149E-2  -9.948747877250658E-1  -4.944160092800162E-2  
 1.372969910359885E6    -9.960650503746638E-1  -4.894989445090403E-2   4.011060173496638E-3  -5.142027645095372E-2   4.041163129734449E-3  -5.145063119939080E-2  -9.953135053468569E-1  -4.930167033266618E-2  
 1.401097042431717E6    -9.963860726631308E-1  -4.792653561002715E-2   3.876552859169375E-3  -5.035442743486134E-2   3.828433421185355E-3  -5.026715669169734E-2  -9.954653523451463E-1  -4.790527133789391E-2  
 1.429800396569754E6    -9.967819668776223E-1  -4.730860772432222E-2   3.780184258391045E-3  -4.940650166740323E-2   3.941652231574009E-3  -4.933555380582480E-2  -9.959290472047861E-1  -4.710618109900038E-2  
 1.459091777456705E6    -9.968699172427630E-1  -4.599385250592527E-2   3.811285934364844E-3  -4.840853772280999E-2   3.709708434563869E-3  -4.842396174130338E-2  -9.956453505498795E-1  -4.601868072882055E-2  
 1.488983231610052E6    -9.969385923251977E-1  -4.511269008056136E-2   3.559463191439622E-3  -4.741826928832330E-2   3.555384889402697E-3  -4.750459322938959E-2  -9.957500881026250E-1  -4.475470936662691E-2  
 1.519487052336364E6    -9.967698589840938E-1  -4.374819378994630E-2   3.311116134917717E-3  -4.629520647345195E-2   3.468634730616052E-3  -4.639147811818348E-2  -9.958952391975834E-1  -4.344046892546485E-2  
 1.550615784787099E6    -9.973582439629772E-1  -4.323963387514362E-2   3.410374984777837E-3  -4.541056404222386E-2   3.271083909651897E-3  -4.556130619795624E-2  -9.962502129524112E-1  -4.252865919992156E-2  
 1.582382231117988E6    -9.974738067370599E-1  -4.179828788905912E-2   3.328269747385061E-3  -4.447883976425943E-2   3.130831991498077E-3  -4.458595695958902E-2  -9.964317627599704E-1  -4.143870432469012E-2  
 1.614799455754111E6    -9.971309352783122E-1  -4.104741281086976E-2   3.228797941064844E-3  -4.370646981869190E-2   3.226453717760261E-3  -4.354614755156126E-2  -9.959164757250822E-1  -4.062451610020111E-2  
 1.647880790762838E6    -9.977989813063531E-1  -4.009445289008576E-2   3.187259528083223E-3  -4.279118638178549E-2   3.057691945391029E-3  -4.293255266007827E-2  -9.962506861130179E-1  -4.004255634192432E-2  
 1.681639841336839E6    -9.975994430308067E-1  -3.949260388506144E-2   2.905085817027506E-3  -4.207805229072319E-2   3.014750176799825E-3  -4.204412735712497E-2  -9.965448633049974E-1  -3.941187476946516E-2  
 1.716090491389422E6    -9.978599996390617E-1  -3.845567879906674E-2   2.973675023199207E-3  -4.120905712089738E-2   2.857025700790820E-3  -4.113503907322869E-2  -9.966513788180640E-1  -3.796479859049151E-2  
 1.751246909264502E6    -9.977329576614242E-1  -3.757475061069942E-2   2.876843813849436E-3  -4.037990682008313E-2   2.757575449951219E-3  -4.029104553627153E-2  -9.964398573401639E-1  -3.699747820525095E-2  
 1.787123553563544E6    -9.975845869793147E-1  -3.625700517007722E-2   2.774554299285072E-3  -3.942524627156962E-2   2.851931839355065E-3  -3.956443992466766E-2  -9.969647900918914E-1  -3.638785841396673E-2  
 1.823735179091875E6    -9.978492633266438E-1  -3.568684224135465E-2   2.494727130290790E-3  -3.871608103100370E-2   2.646949400294915E-3  -3.859419402738758E-2  -9.963077589673010E-1  -3.525195406837910E-2  
 1.861096842926821E6    -9.981510967121812E-1  -3.467026688971505E-2   2.652795921058130E-3  -3.795097097800133E-2   2.562084256590274E-3  -3.788271078585704E-2  -9.968105059652610E-1  -3.416251043234735E-2  
 1.899223910610154E6    -9.980822320119183E-1  -3.385472715895356E-2   2.491239764383371E-3  -3.719338048745824E-2   2.333872265170266E-3  -3.706328000224592E-2  -9.969676345528542E-1  -3.389097249236889E-2  
 1.938132062467400E6    -9.977552917250164E-1  -3.323659271937989E-2   2.484231932420307E-3  -3.637781395035795E-2   2.370171696684540E-3  -3.638574593214051E-2  -9.970666243433746E-1  -3.287897991619425E-2  
 1.977837300056607E6    -9.981047224088475E-1  -3.243908750566714E-2   2.419384111811632E-3  -3.576175259564524E-2   2.299413159871895E-3  -3.567798153364354E-2  -9.968248957792798E-1  -3.188634556188862E-2  
