#  HZ   S   RI   R     50 
! Rohde & Schwarz ZVA/B 
! 
! 
! 
 3.000000000000000E5    -1.738077766807063E-1  -3.729951663081270E-1   8.294240070860485E-1  -3.725653923314676E-1   8.300644859210620E-1  -3.729564282762706E-1  -1.735020306002459E-1  -3.710664154592411E-1  
 3.061459028037530E5    -1.797050217258731E-1  -3.781202421702024E-1   8.236811190792062E-1  -3.773706208949471E-1   8.240972646621452E-1  -3.776754046063183E-1  -1.791396536736298E-1  -3.759684177557131E-1  
 3.124177126784167E5    -1.855239545192436E-1  -3.827376161355764E-1   8.177800934424924E-1  -3.823727087419991E-1   8.182897893694807E-1  -3.826365321864827E-1  -1.852947594619762E-1  -3.808156846219054E-1  
 3.188180089993913E5    -1.916635438588457E-1  -3.872664590231715E-1   8.115962262571108E-1  -3.871577018629220E-1   8.122837686117601E-1  -3.874586955729522E-1  -1.907747096575000E-1  -3.855035703122742E-1  
 3.253494239840457E5    -1.977424308273784E-1  -3.921242574695616E-1   8.052767646347817E-1  -3.919733594245669E-1   8.060258202794266E-1  -3.921317154626231E-1  -1.971933323466928E-1  -3.901305328841800E-1  
 3.320146437742557E5    -2.041133007626000E-1  -3.966036468360290E-1   7.989234936583753E-1  -3.967992286480483E-1   7.995158345402081E-1  -3.968621574054746E-1  -2.036331637775100E-1  -3.946840874216386E-1  
 3.388164095411199E5    -2.104554992156713E-1  -4.012333535770591E-1   7.922290455055786E-1  -4.011959099595316E-1   7.931969708880627E-1  -4.015899489086540E-1  -2.098943931958574E-1  -3.993240458086659E-1  
 3.457575186123076E5    -2.171663694151552E-1  -4.055409931187784E-1   7.855628238079051E-1  -4.061527141928978E-1   7.864906881793873E-1  -4.064788445900670E-1  -2.165377237739822E-1  -4.036632362406278E-1  
 3.528408256225012E5    -2.239663504053458E-1  -4.099885307122848E-1   7.786809631042393E-1  -4.105272417698069E-1   7.795683698013697E-1  -4.106491071249567E-1  -2.232310723268994E-1  -4.081826198794164E-1  
 3.600692436874074E5    -2.309782122174309E-1  -4.146924330704754E-1   7.720150720832029E-1  -4.151326563378092E-1   7.727666056784825E-1  -4.155013766046293E-1  -2.300217443375468E-1  -4.126159968997512E-1  
 3.674457456018197E5    -2.380627356982002E-1  -4.187940677968002E-1   7.647083258402465E-1  -4.194854162084182E-1   7.655139831739573E-1  -4.198876858147869E-1  -2.370589258142487E-1  -4.168993734106362E-1  
 3.749733650622242E5    -2.453591853475443E-1  -4.230574548457392E-1   7.572774011389022E-1  -4.238690423441092E-1   7.579882761971235E-1  -4.244864175224619E-1  -2.441424390035532E-1  -4.212592194495511E-1  
 3.826551979144529E5    -2.525045019548670E-1  -4.271190274530715E-1   7.500451755119082E-1  -4.280591883235886E-1   7.508177355931831E-1  -4.287447561057994E-1  -2.514822996870523E-1  -4.255313374253208E-1  
 3.904944034268967E5    -2.601488999069687E-1  -4.312503833069730E-1   7.424325275693963E-1  -4.322080840500122E-1   7.431465114601175E-1  -4.328682612995844E-1  -2.588318221852434E-1  -4.298401443864823E-1  
 3.984942055898008E5    -2.678180643349377E-1  -4.352673989247827E-1   7.347535343354955E-1  -4.363017548805033E-1   7.353717179856392E-1  -4.368315920541194E-1  -2.664376216977222E-1  -4.337935394573237E-1  
 4.066578944411798E5    -2.755744113560154E-1  -4.390082656483182E-1   7.270313684619487E-1  -4.404326428220026E-1   7.274409784576517E-1  -4.409918890172949E-1  -2.743150622035229E-1  -4.378318831130307E-1  
 4.149888274198943E5    -2.834133060962648E-1  -4.429376930717343E-1   7.190408628918407E-1  -4.443846880324260E-1   7.194473864207485E-1  -4.450981563886011E-1  -2.822289992896964E-1  -4.417529369465806E-1  
 4.234904307464480E5    -2.912107166117050E-1  -4.465008083260349E-1   7.106230893299429E-1  -4.480776485895777E-1   7.112777572854416E-1  -4.487947105005701E-1  -2.902738139302801E-1  -4.456031356627506E-1  
 4.321662008320720E5    -2.996773744328143E-1  -4.501021697336292E-1   7.023665310398038E-1  -4.516792686983708E-1   7.028604915387068E-1  -4.525380090243164E-1  -2.984037102189510E-1  -4.490913210761942E-1  
 4.410197057166757E5    -3.077195504040780E-1  -4.535560262180772E-1   6.939845889129166E-1  -4.554246503153719E-1   6.944467193108568E-1  -4.559313879968199E-1  -3.067757209361748E-1  -4.527309016475843E-1  
 4.500545865362572E5    -3.161579899802052E-1  -4.572384631027396E-1   6.855749067241570E-1  -4.588584458759759E-1   6.860161887168190E-1  -4.594209291546051E-1  -3.150700349081730E-1  -4.560660248356503E-1  
 4.592745590203743E5    -3.248493239438741E-1  -4.604264994016017E-1   6.768573557884039E-1  -4.621090595361509E-1   6.774981662883168E-1  -4.626493559553811E-1  -3.237536184272274E-1  -4.592405638326627E-1  
 4.686834150202934E5    -3.333774635703943E-1  -4.634979055864110E-1   6.681647047542384E-1  -4.651886908678842E-1   6.684102856439526E-1  -4.658459972719269E-1  -3.323051360819722E-1  -4.624483566788314E-1  
 4.782850240684460E5    -3.420741971462772E-1  -4.664593157494420E-1   6.591256882289505E-1  -4.680182132909133E-1   6.596331262552166E-1  -4.685846337056230E-1  -3.410950588147896E-1  -4.653613223457326E-1  
 4.880833349698305E5    -3.510946879984420E-1  -4.690977694089815E-1   6.501121125898411E-1  -4.711008958273506E-1   6.504584507463935E-1  -4.714865394910454E-1  -3.498350663304616E-1  -4.684445110359593E-1  
 4.980823774260179E5    -3.600476656830836E-1  -4.719964479866745E-1   6.412608063420081E-1  -4.737747669827220E-1   6.415427267441073E-1  -4.742470249475501E-1  -3.589881594045064E-1  -4.710232048559312E-1  
 5.082862636924264E5    -3.691514363379588E-1  -4.745590131814763E-1   6.320320372272468E-1  -4.762432497802575E-1   6.321737752038595E-1  -4.768749949734606E-1  -3.682359658987333E-1  -4.736844211933584E-1  
 5.186991902695479E5    -3.783878623460648E-1  -4.766802163048994E-1   6.227343816006596E-1  -4.784356830674837E-1   6.230630399360981E-1  -4.792033195636797E-1  -3.774486603578220E-1  -4.759293734737511E-1  
 5.293254396288213E5    -3.877454985400916E-1  -4.789978754058585E-1   6.133847255223105E-1  -4.807638184710859E-1   6.134730854009552E-1  -4.814236937099206E-1  -3.867209351713163E-1  -4.784313394778239E-1  
 5.401693819738632E5    -3.972104549937585E-1  -4.808822659943856E-1   6.038971057477733E-1  -4.828468113056429E-1   6.040170570896440E-1  -4.832565943426590E-1  -3.961206095503233E-1  -4.803259720406805E-1  
 5.512354770377789E5    -4.065202159013933E-1  -4.828266181251150E-1   5.943903222443149E-1  -4.845766882859270E-1   5.944993684033314E-1  -4.851361869736427E-1  -4.055313156624710E-1  -4.822285931225515E-1  
 5.625282759172944E5    -4.159878545464503E-1  -4.844896152980887E-1   5.847672532461998E-1  -4.863070927923909E-1   5.848264651532539E-1  -4.867915198655295E-1  -4.150724488926421E-1  -4.840044182724727E-1  
 5.740524229444626E5    -4.255132077193833E-1  -4.860467642902212E-1   5.751182595015586E-1  -4.878647301728120E-1   5.752386214150287E-1  -4.883188508933202E-1  -4.246957786045671E-1  -4.855062958937125E-1  
 5.858126575967147E5    -4.354309885970928E-1  -4.874117638089379E-1   5.653515110222513E-1  -4.893730238053196E-1   5.654460009992366E-1  -4.897330370414594E-1  -4.342993585709072E-1  -4.868345215343554E-1  
 5.978138164460403E5    -4.450780373662981E-1  -4.886362644852347E-1   5.557314452558441E-1  -4.904382638503116E-1   5.557899873559499E-1  -4.907239370168115E-1  -4.440582117425870E-1  -4.880303072581099E-1  
 6.100608351481004E5    -4.546797120599745E-1  -4.896141213491990E-1   5.458673220183504E-1  -4.911746667138583E-1   5.459147986368975E-1  -4.917401231885961E-1  -4.539698312226882E-1  -4.890277925143896E-1  
 6.225587504720892E5    -4.645469544868509E-1  -4.902919328474996E-1   5.360264480435207E-1  -4.920002264697135E-1   5.358244123265894E-1  -4.923278840217834E-1  -4.638431272158076E-1  -4.896431241792708E-1  
 6.353127023721805E5    -4.744317850985697E-1  -4.907985380851213E-1   5.260938332444202E-1  -4.926521141163098E-1   5.261631791905487E-1  -4.928985407291131E-1  -4.735310053894245E-1  -4.901442982430525E-1  
 6.483279361014109E5    -4.839945619648704E-1  -4.912752015570376E-1   5.162254770400181E-1  -4.926687825268180E-1   5.162781728500420E-1  -4.931877966747150E-1  -4.834815008997746E-1  -4.906521120602652E-1  
 6.616098043688679E5    -4.938989848647017E-1  -4.914785173805311E-1   5.063531665347686E-1  -4.928655365652954E-1   5.064848612424178E-1  -4.933916928178536E-1  -4.933522298038234E-1  -4.908478978726703E-1  
 6.751637695410716E5    -5.039346343886687E-1  -4.911901581888241E-1   4.963353387316069E-1  -4.930479970587633E-1   4.964103050719316E-1  -4.933785483615997E-1  -5.030559552810012E-1  -4.907066972497011E-1  
 6.889954058884548E5    -5.137250356992170E-1  -4.911840510414125E-1   4.865734622969138E-1  -4.927049444679588E-1   4.865955974465861E-1  -4.930899354398561E-1  -5.129756945226691E-1  -4.905227913127141E-1  
 7.031104018778642E5    -5.236700355963659E-1  -4.907281589527171E-1   4.766033565073439E-1  -4.922922986411277E-1   4.767920330607150E-1  -4.927680723361951E-1  -5.228730340555922E-1  -4.900878149205701E-1  
 7.175145625120278E5    -5.333858351807822E-1  -4.901089011221650E-1   4.668624426036274E-1  -4.917338254118157E-1   4.668856256921554E-1  -4.921142561692396E-1  -5.328030698736990E-1  -4.896449859720650E-1  
 7.322138117169489E5    -5.431103849581770E-1  -4.894235721673106E-1   4.571364301470658E-1  -4.907967727885561E-1   4.570148164204406E-1  -4.913000594557428E-1  -5.424775717041007E-1  -4.889477649066055E-1  
 7.472141947782085E5    -5.529273566323394E-1  -4.883308383793763E-1   4.472439801724322E-1  -4.898235161339437E-1   4.473066145767041E-1  -4.903095448136538E-1  -5.523230091967473E-1  -4.878514130651026E-1  
 7.625218808271801E5    -5.628262142102145E-1  -4.872727157685275E-1   4.375575774370111E-1  -4.889036939929764E-1   4.376041320434097E-1  -4.890059489102833E-1  -5.621671315290032E-1  -4.866412945196786E-1  
 7.781431653781761E5    -5.723179461350457E-1  -4.858579611533051E-1   4.277959882175483E-1  -4.872151681575478E-1   4.278561059255797E-1  -4.876706146117545E-1  -5.718712174954552E-1  -4.853117234093944E-1  
 7.940844729175728E5    -5.819606707703975E-1  -4.844253281336469E-1   4.182222452332760E-1  -4.857090283836700E-1   4.181806231094104E-1  -4.861954935975839E-1  -5.814742716224297E-1  -4.837998117360653E-1  
 8.103523595459757E5    -5.916586614020505E-1  -4.827968757322049E-1   4.086434714019532E-1  -4.840496115056793E-1   4.086282525082266E-1  -4.842779269775043E-1  -5.909400394163875E-1  -4.819418528678547E-1  
 8.269535156745140E5    -6.011664903077311E-1  -4.808298917088271E-1   3.990421947017992E-1  -4.821245045839269E-1   3.990305930515206E-1  -4.825073442994872E-1  -6.003974487319383E-1  -4.801220933623270E-1  
 8.438947687763721E5    -6.106628839432217E-1  -4.785635767524933E-1   3.897335360364130E-1  -4.801026258523761E-1   3.897882230439809E-1  -4.803547749116031E-1  -6.099608324436061E-1  -4.780167774409067E-1  
 8.611830861946895E5    -6.200452320621849E-1  -4.763316118009813E-1   3.803049567624824E-1  -4.777978629872556E-1   3.803260977470286E-1  -4.781179466265697E-1  -6.192622673134486E-1  -4.756722622358973E-1  
 8.788255780079850E5    -6.293338387424746E-1  -4.739711708152665E-1   3.710530867021541E-1  -4.755381612750839E-1   3.711306602897231E-1  -4.755562615713779E-1  -6.284656721279667E-1  -4.733203322085440E-1  
 8.968294999542822E5    -6.384605997043802E-1  -4.711222140603028E-1   3.618226571855602E-1  -4.727652835466499E-1   3.617916346178203E-1  -4.730356842048782E-1  -6.375336043076647E-1  -4.706079756429236E-1  
 9.152022564151404E5    -6.473234695915878E-1  -4.685674329933144E-1   3.527877133708994E-1  -4.700245228347495E-1   3.526996372727074E-1  -4.703446254196351E-1  -6.467662106717728E-1  -4.679528458728653E-1  
 9.339514034608167E5    -6.562514020271099E-1  -4.656605909940260E-1   3.438546808900627E-1  -4.670475560543000E-1   3.438611668552712E-1  -4.672873538166432E-1  -6.556808077513135E-1  -4.648828308415809E-1  
 9.530846519578132E5    -6.652810851608461E-1  -4.624654611589145E-1   3.349579571666857E-1  -4.641351812591058E-1   3.349532104764258E-1  -4.643581342060069E-1  -6.645427024791193E-1  -4.619620102112917E-1  
 9.726098707400849E5    -6.739375719839276E-1  -4.594185325790431E-1   3.263441632921101E-1  -4.609277755545385E-1   3.262944322135878E-1  -4.611717476533474E-1  -6.732617058100885E-1  -4.588212065170465E-1  
 9.925350898452161E5    -6.824422475939315E-1  -4.562007392685889E-1   3.177621611486986E-1  -4.575738835440505E-1   3.176761935056778E-1  -4.577965949040774E-1  -6.819684534616496E-1  -4.553749994501617E-1  
 1.012868503816893E6    -6.908958302254888E-1  -4.525460113230355E-1   3.095089232236296E-1  -4.539294696196206E-1   3.091453840707383E-1  -4.544065134433643E-1  -6.902058533693922E-1  -4.519268649177036E-1  
 1.033618475075031E6    -6.993938141365776E-1  -4.483956837848467E-1   3.005458238079087E-1  -4.504866218052159E-1   3.007008737749618E-1  -4.508884154858767E-1  -6.984182976747116E-1  -4.482244955911581E-1  
 1.054793537354946E6    -7.075102742206076E-1  -4.449048668280715E-1   2.925712727371179E-1  -4.468848952929518E-1   2.924531397108604E-1  -4.468654522599317E-1  -7.066773317872234E-1  -4.444594675095518E-1  
 1.076402399216980E6    -7.156926405142794E-1  -4.413292992704256E-1   2.844834455567440E-1  -4.430475113043511E-1   2.845548222428940E-1  -4.433141747425983E-1  -7.148627023037982E-1  -4.409047551640059E-1  
 1.098453947628028E6    -7.239982658141022E-1  -4.373755923511210E-1   2.762949805821959E-1  -4.390758240465903E-1   2.766532704560347E-1  -4.395230222447085E-1  -7.230537950623355E-1  -4.364135348702908E-1  
 1.120957251616430E6    -7.317409895099847E-1  -4.334746455800165E-1   2.688418620086590E-1  -4.350968538814802E-1   2.689460866195851E-1  -4.352597657909181E-1  -7.309192414745980E-1  -4.325675522242134E-1  
 1.143921566001752E6    -7.390218147283297E-1  -4.291947606553391E-1   2.609576983512995E-1  -4.307132832327624E-1   2.609195310234567E-1  -4.312957360633105E-1  -7.388338251939653E-1  -4.282607733307163E-1  
 1.167356335200965E6    -7.461357812749958E-1  -4.249874227431558E-1   2.536506303134343E-1  -4.264089957628679E-1   2.538135414434549E-1  -4.268915436622509E-1  -7.459914130078584E-1  -4.241006429154561E-1  
 1.191271197112600E6    -7.541389690616387E-1  -4.207506618990813E-1   2.463188504165558E-1  -4.225298080641909E-1   2.462554861662342E-1  -4.229074920542527E-1  -7.534516723935599E-1  -4.198761648550390E-1  
 1.215675987080482E6    -7.610048966548764E-1  -4.164347060677973E-1   2.392887764489924E-1  -4.181355650754916E-1   2.389929894082620E-1  -4.181696190371284E-1  -7.605060347207282E-1  -4.154688730616340E-1  
 1.240580741938659E6    -7.683962109375703E-1  -4.117342763312507E-1   2.320160122342709E-1  -4.135994744734569E-1   2.322188705129472E-1  -4.136230108115779E-1  -7.675911348258511E-1  -4.112276692930594E-1  
 1.265995704139202E6    -7.749549368021755E-1  -4.073237113495225E-1   2.250554229653595E-1  -4.090186911272140E-1   2.254466247385875E-1  -4.091769171240994E-1  -7.745665375519405E-1  -4.068198934187473E-1  
 1.291931325964563E6    -7.822399931689454E-1  -4.024503300949687E-1   2.183811176871343E-1  -4.045764004190882E-1   2.182959534328804E-1  -4.044508856447172E-1  -7.810347160408823E-1  -4.019868320394139E-1  
 1.318398273826236E6    -7.888833150276827E-1  -3.975908258131470E-1   2.116468829752492E-1  -3.999266359696279E-1   2.119760061167225E-1  -3.998649571468261E-1  -7.882108947329527E-1  -3.974241611026311E-1  
 1.345407432651476E6    -7.951802573256765E-1  -3.931003732911230E-1   2.052580868080528E-1  -3.953386741911575E-1   2.052418808709483E-1  -3.952012668140567E-1  -7.943872038643496E-1  -3.920744194956717E-1  
 1.372969910359885E6    -8.020301554488689E-1  -3.882228509254733E-1   1.989152601599686E-1  -3.906696894984938E-1   1.987250405004970E-1  -3.907080846322160E-1  -8.007258037103113E-1  -3.878861256307329E-1  
 1.401097042431717E6    -8.071970825577545E-1  -3.835997225459413E-1   1.927580047063186E-1  -3.854831654345864E-1   1.927548980401300E-1  -3.858448580975475E-1  -8.067475297629719E-1  -3.829064760832848E-1  
 1.429800396569754E6    -8.133500458076115E-1  -3.783428509485857E-1   1.865774008519328E-1  -3.808824228504593E-1   1.867576952178525E-1  -3.809614327286726E-1  -8.129768192723599E-1  -3.780800864229162E-1  
 1.459091777456705E6    -8.193328352422330E-1  -3.733899803974038E-1   1.808477315692426E-1  -3.759432513665712E-1   1.809778784356783E-1  -3.760397194095499E-1  -8.188787969533911E-1  -3.730672226989817E-1  
 1.488983231610052E6    -8.251279584000871E-1  -3.688505670525175E-1   1.750575667248930E-1  -3.710869180607763E-1   1.751550114979062E-1  -3.710566727752560E-1  -8.246225014360702E-1  -3.684171858665992E-1  
 1.519487052336364E6    -8.307271521375830E-1  -3.636449499797455E-1   1.694989723891382E-1  -3.662685051829423E-1   1.696526457125762E-1  -3.662379024428290E-1  -8.299442646338557E-1  -3.629486608222062E-1  
 1.550615784787099E6    -8.365321325280635E-1  -3.589616916450281E-1   1.640899216728457E-1  -3.615407830883389E-1   1.641913080457800E-1  -3.617153945531525E-1  -8.356892556889007E-1  -3.581564076007085E-1  
 1.582382231117988E6    -8.414919025794077E-1  -3.535889673899478E-1   1.587470475023583E-1  -3.564275798475261E-1   1.590953072757088E-1  -3.565106135220424E-1  -8.408352181126440E-1  -3.534618759681564E-1  
 1.614799455754111E6    -8.468513617610225E-1  -3.486792976092343E-1   1.533762255334602E-1  -3.515038795756887E-1   1.539668396235573E-1  -3.514835263218309E-1  -8.462192119644343E-1  -3.484748749224947E-1  
 1.647880790762838E6    -8.516707767142514E-1  -3.438206440684897E-1   1.486617192463915E-1  -3.466274366466862E-1   1.488030303059927E-1  -3.468034120544294E-1  -8.511960697318204E-1  -3.432424773844480E-1  
 1.681639841336839E6    -8.563928771733891E-1  -3.391504691085572E-1   1.440601186962700E-1  -3.414502443520340E-1   1.440153565010504E-1  -3.415879992851196E-1  -8.558203470930765E-1  -3.387910247528900E-1  
 1.716090491389422E6    -8.614348044639638E-1  -3.341440808123367E-1   1.392883093622882E-1  -3.369569790630521E-1   1.392878747976582E-1  -3.367217920963204E-1  -8.599400224751108E-1  -3.337248514118518E-1  
 1.751246909264502E6    -8.657149194989836E-1  -3.295457944040173E-1   1.346431841181893E-1  -3.317472269511670E-1   1.345202366979658E-1  -3.320282015791323E-1  -8.651098199996621E-1  -3.283888929758309E-1  
 1.787123553563544E6    -8.702092238255321E-1  -3.242256984794333E-1   1.301504986054284E-1  -3.269076988305159E-1   1.302481468685953E-1  -3.270885039451013E-1  -8.697070824534758E-1  -3.238020695451126E-1  
 1.823735179091875E6    -8.746262103124383E-1  -3.191183996567329E-1   1.256978471169516E-1  -3.221192589294741E-1   1.255720499754741E-1  -3.219694553798657E-1  -8.735363333551507E-1  -3.186889343079089E-1  
 1.861096842926821E6    -8.786603388296831E-1  -3.144696196947553E-1   1.213674098021760E-1  -3.171284641448774E-1   1.215749043975560E-1  -3.174479346077660E-1  -8.781896162272064E-1  -3.132295799003513E-1  
 1.899223910610154E6    -8.832400644244423E-1  -3.094771337034135E-1   1.174357156296879E-1  -3.124937503883583E-1   1.174019335935358E-1  -3.124103139587428E-1  -8.819565358207455E-1  -3.086152993788372E-1  
 1.938132062467400E6    -8.871420208490538E-1  -3.041660869157725E-1   1.134907555433667E-1  -3.074262507623309E-1   1.134368628438922E-1  -3.075164637976676E-1  -8.859396187503126E-1  -3.039032823038518E-1  
 1.977837300056607E6    -8.909729071996994E-1  -2.996583991659154E-1   1.096741961444600E-1  -3.028278466262627E-1   1.097477770398227E-1  -3.028901485280316E-1  -8.899548506953535E-1  -2.991903195601871E-1  
