#  HZ   S   RI   R     50 
! Rohde & Schwarz ZVA/B 
! 
! 
! 
 3.000000000000000E5    -1.919421399057112E-3  -4.705138953215397E-2   9.975276554501042E-1  -4.804218038992383E-2   9.980012845254498E-1  -4.807935591106605E-2  -2.034521586221993E-3  -4.637936676534114E-2  
 3.061459028037530E5    -2.137353712408671E-3  -4.818307200206380E-2   9.977262096974462E-1  -4.907620857397884E-2   9.976842906288937E-1  -4.913586448954573E-2  -2.032782194987417E-3  -4.742788749221674E-2  
 3.124177126784167E5    -2.129912505214690E-3  -4.900585718586038E-2   9.974762146016913E-1  -4.982443456586118E-2   9.978407455395288E-1  -4.997790040721740E-2  -2.305677405515660E-3  -4.876384596145405E-2  
 3.188180089993913E5    -2.511485538920075E-3  -5.006672783199650E-2   9.975700307302731E-1  -5.068884907495356E-2   9.977132979524600E-1  -5.107857990372605E-2  -2.192295853932341E-3  -4.933776913756817E-2  
 3.253494239840457E5    -2.364860382538505E-3  -5.113061976640294E-2   9.972936524911413E-1  -5.201854405131808E-2   9.975054366493216E-1  -5.195613499162154E-2  -2.547308366426962E-3  -5.050254061518707E-2  
 3.320146437742557E5    -2.519164083165215E-3  -5.224100454066054E-2   9.971742299038375E-1  -5.288518883469203E-2   9.973050987438097E-1  -5.277679876814329E-2  -2.874623457150092E-3  -5.174109512710022E-2  
 3.388164095411199E5    -2.746058414343150E-3  -5.320922243961559E-2   9.969928069215550E-1  -5.381974609016583E-2   9.973743624748969E-1  -5.409994780299275E-2  -2.809103468214860E-3  -5.275916214625673E-2  
 3.457575186123076E5    -2.904922002891120E-3  -5.419452603768300E-2   9.968292036579205E-1  -5.522652903522973E-2   9.971060961384638E-1  -5.543973401749140E-2  -3.054326679187687E-3  -5.369874607085981E-2  
 3.528408256225012E5    -3.097067398892312E-3  -5.557279431262539E-2   9.965974586271709E-1  -5.609627340741514E-2   9.971652179761740E-1  -5.640527709595333E-2  -3.199991005260171E-3  -5.502577090000439E-2  
 3.600692436874074E5    -3.336994128198146E-3  -5.667888679877344E-2   9.967239032252878E-1  -5.737361211743224E-2   9.968021333468735E-1  -5.744246697248345E-2  -3.404598016887308E-3  -5.599650693843446E-2  
 3.674457456018197E5    -3.422273151974492E-3  -5.776271678402294E-2   9.964691254528222E-1  -5.874552840444331E-2   9.966423553288013E-1  -5.827773237888374E-2  -3.665016455374762E-3  -5.715324003333815E-2  
 3.749733650622242E5    -3.649888663533525E-3  -5.896815735235264E-2   9.961632302560944E-1  -5.973339061282543E-2   9.964399017427401E-1  -5.980309440647888E-2  -3.634490556136539E-3  -5.824066109708492E-2  
 3.826551979144529E5    -3.776131141454040E-3  -5.993809443144089E-2   9.959668858645383E-1  -6.089929910588651E-2   9.963450043704607E-1  -6.110796971693339E-2  -3.899284417790088E-3  -5.957724340099728E-2  
 3.904944034268967E5    -4.066821378495545E-3  -6.136456851673278E-2   9.958276100412837E-1  -6.220434840117020E-2   9.962311380822129E-1  -6.222533191457624E-2  -3.872849154242681E-3  -6.095034907423351E-2  
 3.984942055898008E5    -4.295222077162695E-3  -6.264612437403326E-2   9.957713092731696E-1  -6.340587538826938E-2   9.960563629905910E-1  -6.327061609591680E-2  -4.227971090001250E-3  -6.211682130833787E-2  
 4.066578944411798E5    -4.450931402723680E-3  -6.377501708944418E-2   9.958040258747587E-1  -6.456344930318900E-2   9.959236519637057E-1  -6.462527033027841E-2  -4.367186180280570E-3  -6.355625892836213E-2  
 4.149888274198943E5    -4.471586898335623E-3  -6.498854455558001E-2   9.952103115825303E-1  -6.597013658698976E-2   9.959125594640701E-1  -6.612724099979560E-2  -4.634290804226026E-3  -6.483297236564610E-2  
 4.234904307464480E5    -4.720045872108906E-3  -6.632643444567390E-2   9.952747233820016E-1  -6.745345854362633E-2   9.957843594295525E-1  -6.746083297876268E-2  -4.679545148918224E-3  -6.622060670992136E-2  
 4.321662008320720E5    -5.082410686552533E-3  -6.794823385399598E-2   9.951410428367300E-1  -6.853006786945225E-2   9.954126700812561E-1  -6.895974051204912E-2  -4.925967927720609E-3  -6.743594314679541E-2  
 4.410197057166757E5    -5.195670404938170E-3  -6.906257873863299E-2   9.949218072725298E-1  -7.034203299220861E-2   9.951967243584320E-1  -7.002836810133095E-2  -4.971980414089197E-3  -6.887094767270352E-2  
 4.500545865362572E5    -5.240672981129506E-3  -7.054340715434260E-2   9.945438608915191E-1  -7.174891840666785E-2   9.950788034288645E-1  -7.151934516522071E-2  -5.273955337162703E-3  -7.020627047085848E-2  
 4.592745590203743E5    -5.414513532072638E-3  -7.209391671573674E-2   9.943723837942415E-1  -7.310760391460627E-2   9.950609944807730E-1  -7.299725099349044E-2  -5.745081406889680E-3  -7.161956148939878E-2  
 4.686834150202934E5    -5.560466132854543E-3  -7.332598181740975E-2   9.942715562081956E-1  -7.437331132373848E-2   9.946927496381069E-1  -7.476135561236715E-2  -5.771358306977704E-3  -7.307124066686488E-2  
 4.782850240684460E5    -5.931881172664967E-3  -7.498889666939479E-2   9.939787209304722E-1  -7.594430729525467E-2   9.944462048865150E-1  -7.612924685078897E-2  -6.205467246609410E-3  -7.461636734813359E-2  
 4.880833349698305E5    -6.252797455680236E-3  -7.643293142794971E-2   9.940278247814551E-1  -7.747206251860755E-2   9.940953231592005E-1  -7.743274786579928E-2  -6.140272250650844E-3  -7.614838659667618E-2  
 4.980823774260179E5    -6.325583790612750E-3  -7.783419798165384E-2   9.934833359067867E-1  -7.907522530077006E-2   9.940126692848478E-1  -7.900853371268599E-2  -6.513998200281798E-3  -7.775770542961927E-2  
 5.082862636924264E5    -6.660402437064777E-3  -7.949962292351236E-2   9.932628256903652E-1  -8.063786954435845E-2   9.938923670902131E-1  -8.049543639037021E-2  -6.779909591399192E-3  -7.927434845386321E-2  
 5.186991902695479E5    -7.081865652157991E-3  -8.117182377987181E-2   9.932972362806797E-1  -8.242515529896699E-2   9.933936900991192E-1  -8.239824355890360E-2  -7.157013044783823E-3  -8.089143893974003E-2  
 5.293254396288213E5    -7.322028407854122E-3  -8.286702188791500E-2   9.928563758192567E-1  -8.421770429193941E-2   9.931363218173388E-1  -8.401812655408679E-2  -7.150656532104715E-3  -8.258248247069985E-2  
 5.401693819738632E5    -7.641497273366161E-3  -8.456422685219263E-2   9.923311592722448E-1  -8.551115108424923E-2   9.928632754793700E-1  -8.559673995749609E-2  -7.678199888910837E-3  -8.438886515170839E-2  
 5.512354770377789E5    -7.869016986689490E-3  -8.624408679792371E-2   9.923600283357406E-1  -8.740736890754891E-2   9.924246458977122E-1  -8.738056325938209E-2  -7.989316690550686E-3  -8.596952802781231E-2  
 5.625282759172944E5    -8.093937925768634E-3  -8.793589369329270E-2   9.916934337553404E-1  -8.905417673162154E-2   9.923337764494912E-1  -8.908815336007274E-2  -8.103329108649393E-3  -8.795619603241453E-2  
 5.740524229444626E5    -8.338289448262277E-3  -8.964314328823464E-2   9.915373554036706E-1  -9.081119574053466E-2   9.917997210471592E-1  -9.106198456117751E-2  -8.496164687626441E-3  -8.950724859182010E-2  
 5.858126575967147E5    -8.711771548474277E-3  -9.150756921704778E-2   9.910759811721666E-1  -9.290085873433540E-2   9.915936161067305E-1  -9.296558962203899E-2  -8.758757770029536E-3  -9.124410310949757E-2  
 5.978138164460403E5    -9.031857632813875E-3  -9.331604597303599E-2   9.907684056606765E-1  -9.468471547067595E-2   9.913020323736875E-1  -9.467453246996770E-2  -9.212226785684853E-3  -9.323410687210268E-2  
 6.100608351481004E5    -9.364058381990595E-3  -9.524365056747999E-2   9.903939388018080E-1  -9.654873413136261E-2   9.907184578840182E-1  -9.655627973999163E-2  -9.495417311426082E-3  -9.506387859316282E-2  
 6.225587504720892E5    -9.694376655660936E-3  -9.716586412672687E-2   9.899640808554624E-1  -9.841458961478146E-2   9.903409631199890E-1  -9.854807533499271E-2  -9.958589552452733E-3  -9.709473774204051E-2  
 6.353127023721805E5    -1.008077087176807E-2  -9.911206818002882E-2   9.895603862275072E-1  -1.004262541620596E-1   9.898883012963218E-1  -1.006045125678695E-1  -1.049185098617915E-2  -9.895544090057953E-2  
 6.483279361014109E5    -1.058447127289934E-2  -1.010787380383237E-1   9.891403317418860E-1  -1.024151941318310E-1   9.897233872360066E-1  -1.024000780792454E-1  -1.069984656764822E-2  -1.011202011126553E-1  
 6.616098043688679E5    -1.094551338602083E-2  -1.031479975223778E-1   9.886469557721669E-1  -1.043807226625919E-1   9.893558663732489E-1  -1.045373745984609E-1  -1.129175009500855E-2  -1.031099596934843E-1  
 6.751637695410716E5    -1.132688117846054E-2  -1.052615518905185E-1   9.882717987901355E-1  -1.066122273598426E-1   9.887724882657495E-1  -1.066918599970452E-1  -1.166897525297744E-2  -1.049935281069288E-1  
 6.889954058884548E5    -1.191782503745184E-2  -1.074774723554444E-1   9.879406727118165E-1  -1.086460866398352E-1   9.881782052737125E-1  -1.087653092500977E-1  -1.215023196051327E-2  -1.071010563122495E-1  
 7.031104018778642E5    -1.241626481173110E-2  -1.095164572486489E-1   9.874406755778883E-1  -1.107676649346347E-1   9.878099331055965E-1  -1.108552643382904E-1  -1.272173402601004E-2  -1.092781471650386E-1  
 7.175145625120278E5    -1.295343769348240E-2  -1.117097816106117E-1   9.867963848020549E-1  -1.131017083349494E-1   9.873260864654855E-1  -1.130257632772243E-1  -1.315633448325380E-2  -1.116488026087300E-1  
 7.322138117169489E5    -1.347086055657363E-2  -1.139572751500998E-1   9.864013265355663E-1  -1.150888962770560E-1   9.868541806012201E-1  -1.153762653609956E-1  -1.357189577557307E-2  -1.137278178887409E-1  
 7.472141947782085E5    -1.387922331122070E-2  -1.161989911079870E-1   9.857435285979858E-1  -1.176462532927391E-1   9.863089855816092E-1  -1.176393833185301E-1  -1.420764656572464E-2  -1.159662799169025E-1  
 7.625218808271801E5    -1.456296312399237E-2  -1.185172670180260E-1   9.853230949642629E-1  -1.198022790621290E-1   9.856391071537848E-1  -1.199953042703556E-1  -1.486446740223064E-2  -1.183806957580009E-1  
 7.781431653781761E5    -1.506212824202083E-2  -1.208667153912177E-1   9.847605872253527E-1  -1.222078859690969E-1   9.852447364156277E-1  -1.222728224743909E-1  -1.526709595091523E-2  -1.208808247762306E-1  
 7.940844729175728E5    -1.557487143250259E-2  -1.233011115036965E-1   9.842186498386604E-1  -1.245644531975871E-1   9.844993101324747E-1  -1.248762053377588E-1  -1.581028145375912E-2  -1.230866698225952E-1  
 8.103523595459757E5    -1.625464716849259E-2  -1.259114074992423E-1   9.836000899585807E-1  -1.271661745585455E-1   9.838214004502280E-1  -1.273081832414444E-1  -1.653600044223668E-2  -1.255977243054054E-1  
 8.269535156745140E5    -1.693140096128483E-2  -1.283870057300628E-1   9.828401035445333E-1  -1.296471833748481E-1   9.831953130102915E-1  -1.298100648000677E-1  -1.712730811744164E-2  -1.279883982331294E-1  
 8.438947687763721E5    -1.752718612086130E-2  -1.307775975085118E-1   9.821981707106408E-1  -1.322995587547801E-1   9.824346702044993E-1  -1.324632600010543E-1  -1.806687188794259E-2  -1.306712238650463E-1  
 8.611830861946895E5    -1.844011599953963E-2  -1.335939748449906E-1   9.813806026090296E-1  -1.350554666323065E-1   9.816448246533913E-1  -1.349575429731523E-1  -1.873487076222886E-2  -1.331008290330408E-1  
 8.788255780079850E5    -1.904465006031644E-2  -1.359761846438387E-1   9.807259873162614E-1  -1.375678150079997E-1   9.809121481450687E-1  -1.376476550266460E-1  -1.947758059943042E-2  -1.358416078307456E-1  
 8.968294999542822E5    -1.997248834713930E-2  -1.387362632645509E-1   9.796628542320007E-1  -1.401843506245822E-1   9.802655629567417E-1  -1.403946610779203E-1  -2.013731722314559E-2  -1.384969420379494E-1  
 9.152022564151404E5    -2.057739599948522E-2  -1.414620410245495E-1   9.790494658800855E-1  -1.430975448280628E-1   9.793797855622843E-1  -1.431845179139236E-1  -2.090280659521057E-2  -1.410952384649083E-1  
 9.339514034608167E5    -2.134000648042490E-2  -1.442882504774943E-1   9.782742612806834E-1  -1.458044258644594E-1   9.786090924549097E-1  -1.460450858884867E-1  -2.181346663125640E-2  -1.440698099450588E-1  
 9.530846519578132E5    -2.229906433601693E-2  -1.470651341236828E-1   9.774764238137024E-1  -1.486304003710024E-1   9.776498764506669E-1  -1.487964679615187E-1  -2.261877989410261E-2  -1.468542621813160E-1  
 9.726098707400849E5    -2.333739651788006E-2  -1.499666200252626E-1   9.766502915301709E-1  -1.516133903722634E-1   9.768669629319301E-1  -1.515714598760969E-1  -2.345324723191154E-2  -1.497353394061908E-1  
 9.925350898452161E5    -2.415106243770113E-2  -1.527947795989194E-1   9.755431579388012E-1  -1.545035452900639E-1   9.758386953882408E-1  -1.546180189752298E-1  -2.464867573895146E-2  -1.527350204276642E-1  
 1.012868503816893E6    -2.499452868385170E-2  -1.559382909372137E-1   9.743646162072230E-1  -1.571869260002192E-1   9.745247032916700E-1  -1.580556706131978E-1  -2.540787348148033E-2  -1.555058683018739E-1  
 1.033618475075031E6    -2.637677155883924E-2  -1.588820026232276E-1   9.733865015756774E-1  -1.610748245184758E-1   9.734915821362831E-1  -1.610807464982200E-1  -2.632592723859550E-2  -1.584213728786809E-1  
 1.054793537354946E6    -2.724962247590303E-2  -1.619998926025900E-1   9.728858204252753E-1  -1.637909058508260E-1   9.725559194786926E-1  -1.637669897270557E-1  -2.751285130393507E-2  -1.616400623897513E-1  
 1.076402399216980E6    -2.806739546733776E-2  -1.651410398338731E-1   9.715228049388910E-1  -1.666232955093243E-1   9.717365069992497E-1  -1.672432345577149E-1  -2.829200123008824E-2  -1.646650631516173E-1  
 1.098453947628028E6    -2.949278405426151E-2  -1.682793567797236E-1   9.702185461234208E-1  -1.699683914965099E-1   9.706809576185398E-1  -1.701689242458844E-1  -2.977477013237751E-2  -1.680075699872786E-1  
 1.120957251616430E6    -3.073736544340485E-2  -1.716079878402559E-1   9.687395509287780E-1  -1.731149671023510E-1   9.695019672009450E-1  -1.738934608404353E-1  -3.104061386591810E-2  -1.715862501660423E-1  
 1.143921566001752E6    -3.143568171002342E-2  -1.750144050656257E-1   9.677540218954847E-1  -1.768966972085661E-1   9.684009448227686E-1  -1.771911343117703E-1  -3.201571960995681E-2  -1.748397769063778E-1  
 1.167356335200965E6    -3.300258493173667E-2  -1.781477852110130E-1   9.664964468052768E-1  -1.802276125564797E-1   9.672160175058837E-1  -1.806472214099488E-1  -3.380644399979694E-2  -1.780467833760318E-1  
 1.191271197112600E6    -3.447774697069019E-2  -1.817165370941264E-1   9.652122971236030E-1  -1.837959742203214E-1   9.657618871991957E-1  -1.830360381643351E-1  -3.473340119979197E-2  -1.810345496832473E-1  
 1.215675987080482E6    -3.622520547406778E-2  -1.850539816554005E-1   9.643767954623352E-1  -1.870867895336654E-1   9.640115772555006E-1  -1.873147286607315E-1  -3.653500840558592E-2  -1.847548270757614E-1  
 1.240580741938659E6    -3.740294241968182E-2  -1.886479373162440E-1   9.628018611299217E-1  -1.907984980485961E-1   9.628033719473431E-1  -1.907554228028592E-1  -3.747672708206223E-2  -1.884684149322498E-1  
 1.265995704139202E6    -3.878811603106746E-2  -1.919666736003648E-1   9.608237495048733E-1  -1.937098530077796E-1   9.610994417867690E-1  -1.943064088707589E-1  -3.909017939984899E-2  -1.922097544048546E-1  
 1.291931325964563E6    -4.030202500658373E-2  -1.956419009043482E-1   9.594450217636057E-1  -1.974890266015981E-1   9.595372772546713E-1  -1.982436890923919E-1  -4.082173401784499E-2  -1.954276410441160E-1  
 1.318398273826236E6    -4.202053812042815E-2  -1.995696875906038E-1   9.579802672215213E-1  -2.020263943259666E-1   9.583090686157901E-1  -2.015785371259464E-1  -4.236796917016963E-2  -1.994488836378696E-1  
 1.345407432651476E6    -4.335082197183998E-2  -2.031604627073519E-1   9.563792585541130E-1  -2.051964645840310E-1   9.563194765981579E-1  -2.054102062316508E-1  -4.411492254077355E-2  -2.027906031253484E-1  
 1.372969910359885E6    -4.544039870481602E-2  -2.071017958764804E-1   9.545350269848916E-1  -2.092388554696923E-1   9.547663677713018E-1  -2.092807859279854E-1  -4.582827319427241E-2  -2.062998250449964E-1  
 1.401097042431717E6    -4.695595160902079E-2  -2.105746893991199E-1   9.522447682760082E-1  -2.129585045450745E-1   9.532072610781904E-1  -2.132405909445456E-1  -4.739544559548136E-2  -2.102814950744195E-1  
 1.429800396569754E6    -4.864019194797631E-2  -2.145588637583015E-1   9.510312667779770E-1  -2.173119724532383E-1   9.511015905774520E-1  -2.170963651200684E-1  -4.903303129307011E-2  -2.145392829357604E-1  
 1.459091777456705E6    -5.085615555727811E-2  -2.182606947660128E-1   9.489352132432328E-1  -2.208430953588080E-1   9.493360408525886E-1  -2.213189369842268E-1  -5.115471509636098E-2  -2.185913249064360E-1  
 1.488983231610052E6    -5.278422576630128E-2  -2.228120978264953E-1   9.468879238365829E-1  -2.252566480571319E-1   9.468119228531621E-1  -2.254487015348899E-1  -5.318041820764227E-2  -2.227239984163398E-1  
 1.519487052336364E6    -5.475500227856779E-2  -2.270710868686509E-1   9.445209027422502E-1  -2.294486145407444E-1   9.449208223497989E-1  -2.296059575461914E-1  -5.549519303139321E-2  -2.265092539301830E-1  
 1.550615784787099E6    -5.706367593598459E-2  -2.309759514546248E-1   9.421269882852257E-1  -2.337793422633579E-1   9.433017381886226E-1  -2.335115273766577E-1  -5.755353786463241E-2  -2.307145282118979E-1  
 1.582382231117988E6    -5.931775742109036E-2  -2.350449103862191E-1   9.398412930784966E-1  -2.379524011109691E-1   9.408176531762719E-1  -2.376891787231584E-1  -5.982979864086237E-2  -2.347569775757200E-1  
 1.614799455754111E6    -6.128257459655476E-2  -2.394062109643440E-1   9.380679709369892E-1  -2.420737135406035E-1   9.384183441969949E-1  -2.421066920515483E-1  -6.217144127177820E-2  -2.394383516258419E-1  
 1.647880790762838E6    -6.400342802789474E-2  -2.437598750162726E-1   9.359978354124021E-1  -2.466603216392738E-1   9.361579255835764E-1  -2.465563850358164E-1  -6.456220656438497E-2  -2.431576481730194E-1  
 1.681639841336839E6    -6.651900816744373E-2  -2.482580036792690E-1   9.333931559303420E-1  -2.508520424760862E-1   9.336272241426006E-1  -2.507540062629540E-1  -6.704932448484274E-2  -2.477366542216652E-1  
 1.716090491389422E6    -6.916036990943943E-2  -2.524681319681447E-1   9.308299040991538E-1  -2.552728103928751E-1   9.304095539339399E-1  -2.549867243432779E-1  -6.951220897987955E-2  -2.519714029205580E-1  
 1.751246909264502E6    -7.160120256336774E-2  -2.567424543673423E-1   9.279151519904981E-1  -2.597588396178683E-1   9.282473084713862E-1  -2.596586883411977E-1  -7.228893998146165E-2  -2.563114183990208E-1  
 1.787123553563544E6    -7.460103833018801E-2  -2.607679203279387E-1   9.249072331224617E-1  -2.640469867995362E-1   9.256440937295432E-1  -2.641826175562833E-1  -7.508082134418113E-2  -2.613303668887689E-1  
 1.823735179091875E6    -7.712246429072892E-2  -2.656254974314937E-1   9.223727002466908E-1  -2.684666504446842E-1   9.229719970502479E-1  -2.687527226730637E-1  -7.746542764276933E-2  -2.653958296250161E-1  
 1.861096842926821E6    -8.003056149234655E-2  -2.701656539984985E-1   9.192739366557259E-1  -2.732407095919567E-1   9.194856951477964E-1  -2.735690411361755E-1  -8.093739187503554E-2  -2.696357518716595E-1  
 1.899223910610154E6    -8.316544318205905E-2  -2.748519239788350E-1   9.164097129698733E-1  -2.785932149915662E-1   9.165773248389338E-1  -2.778306972139603E-1  -8.382856126711370E-2  -2.744382631724003E-1  
 1.938132062467400E6    -8.660508507180072E-2  -2.798094264381973E-1   9.129126423113541E-1  -2.826509388644622E-1   9.131586923838312E-1  -2.828746111479480E-1  -8.667632459751185E-2  -2.794212820027844E-1  
 1.977837300056607E6    -8.953313643312133E-2  -2.844392478592873E-1   9.097809824791066E-1  -2.872920471774448E-1   9.104462066392077E-1  -2.877148456508644E-1  -9.012819880106288E-2  -2.837934507542367E-1  
