#  HZ   S   RI   R     50 
! Rohde & Schwarz ZVA/B 
! 
! 
! 
 3.000000000000000E5     5.844007620024078E-4  -3.865462112356165E-3   9.999134179661429E-1  -4.937669950839752E-3   1.000283380836697  -5.440653806914665E-3   3.213035600048845E-4  -3.353733089479887E-3  
 3.061459028037530E5     3.430337377258690E-4  -4.032456789645496E-3   1.000024773226416  -5.015167595919154E-3   1.000032153639545  -5.403200288965896E-3   5.638604413442807E-4  -3.619358068175438E-3  
 3.124177126784167E5     5.376522583636850E-4  -4.084372037288953E-3   9.998974828513169E-1  -5.043197142954551E-3   1.000025011526384  -5.311097762262283E-3   3.036543668120030E-4  -3.878963733247695E-3  
 3.188180089993913E5     2.872133811183953E-4  -4.201243906203283E-3   9.997627913099416E-1  -5.151042973188262E-3   9.999292335384422E-1  -5.444107884978967E-3   5.040023697313910E-4  -3.565844580624955E-3  
 3.253494239840457E5     5.139262473450565E-4  -4.312824656000694E-3   9.999337280327119E-1  -5.614723060739951E-3   9.998866128583779E-1  -5.537447578607027E-3   2.830384985984869E-4  -3.874239085901364E-3  
 3.320146437742557E5     5.443949904110461E-4  -4.490873514804113E-3   9.998059060673860E-1  -5.593273949746311E-3   1.000007915039965  -5.662360989119985E-3   8.966540527090728E-5  -4.165357576098420E-3  
 3.388164095411199E5     4.353909769003812E-4  -4.490320056356393E-3   9.995101280900423E-1  -5.702257521034207E-3   1.000172236940550  -6.019222795060553E-3   3.251842620191620E-4  -4.345628899985504E-3  
 3.457575186123076E5     3.189118312221422E-4  -4.434692507625670E-3   9.996385675509099E-1  -5.939694692642248E-3   9.996373131964988E-1  -5.832325044156702E-3   9.243551215360497E-5  -4.219003536137157E-3  
 3.528408256225012E5     2.334744197304430E-4  -4.777842988597449E-3   9.996739403544628E-1  -6.052311683987557E-3   1.000009049519833  -5.823437118712065E-3   3.611165990668353E-5  -4.550753457990055E-3  
 3.600692436874074E5     2.712842404725602E-4  -4.991082001352541E-3   9.998173928569814E-1  -6.194557661456992E-3   9.999893329703520E-1  -6.038138322735929E-3   6.715020125322657E-5  -4.507745378497686E-3  
 3.674457456018197E5     2.288290602326884E-4  -5.090266472382063E-3   9.998104758593960E-1  -6.045906967662008E-3   9.999164780819438E-1  -6.209852398737710E-3  -4.568481761067574E-5  -4.750512235748708E-3  
 3.749733650622242E5     1.612042450797731E-4  -5.188532902388631E-3   9.998495704750374E-1  -6.349038535347082E-3   9.995159679702745E-1  -6.279805742787770E-3   2.223327509402415E-5  -4.788995287867311E-3  
 3.826551979144529E5     1.117286105164691E-4  -5.147788819795009E-3   9.997905574484262E-1  -6.483835806302473E-3   9.999205708971959E-1  -6.326628938684116E-3  -6.074284732976508E-5  -4.888882826111028E-3  
 3.904944034268967E5    -3.232100450495260E-5  -5.458440643962364E-3   9.997318912779427E-1  -6.518952269910373E-3   9.999164660617499E-1  -6.587510483665252E-3  -3.230654704670320E-5  -5.260556405846097E-3  
 3.984942055898008E5     4.885929487966006E-5  -5.658415492614146E-3   9.996355911516950E-1  -6.688523106646134E-3   9.997749270841668E-1  -6.552839158136097E-3  -2.170710842786893E-5  -5.299247740251591E-3  
 4.066578944411798E5    -5.665388321755250E-5  -5.675828153271390E-3   9.997419229522577E-1  -6.933756051883968E-3   9.998672731009655E-1  -6.567152305910519E-3  -4.027085879095505E-5  -5.569973733089895E-3  
 4.149888274198943E5     1.012241489061158E-4  -5.712952839946922E-3   9.996813932134433E-1  -7.059122973682068E-3   9.999717937868093E-1  -7.131852790044848E-3  -1.229533657553824E-4  -5.762557365934208E-3  
 4.234904307464480E5     1.127871840511604E-4  -5.882712918431917E-3   9.994597111936211E-1  -7.007010006814501E-3   9.999076254865502E-1  -7.220557934768128E-3  -5.993246928331486E-5  -5.779589894832055E-3  
 4.321662008320720E5    -9.920690379594610E-5  -6.267912223125544E-3   9.998273158547655E-1  -7.113010135488163E-3   1.000018630559624  -7.373294347618612E-3  -1.785688941858797E-4  -5.878456699817152E-3  
 4.410197057166757E5     1.935889242284292E-5  -6.196457394955987E-3   9.994743083977996E-1  -7.726905959247798E-3   9.997912644798355E-1  -7.337936369397297E-3   3.486128511753098E-5  -6.114069499308378E-3  
 4.500545865362572E5     1.291887045420008E-4  -6.279226154397117E-3   9.996365333801048E-1  -7.383796563947631E-3   9.999887806556106E-1  -7.580529787960655E-3  -1.079405170033140E-4  -6.188047220131858E-3  
 4.592745590203743E5    -1.714028418881145E-6  -6.609543542731340E-3   9.998705975867284E-1  -7.742334745038989E-3   1.000089482039664  -7.550739356406045E-3  -3.374395517725748E-4  -6.291127919269034E-3  
 4.686834150202934E5     1.158104598611447E-4  -6.481177333665014E-3   9.998654078640866E-1  -7.927601976628259E-3   9.999754314807297E-1  -7.803654610449767E-3  -1.993762626747861E-4  -6.528796704410160E-3  
 4.782850240684460E5     1.363766515911664E-4  -6.861377704794006E-3   9.996154350157598E-1  -8.119281083781018E-3   1.000095862342102  -8.005291074103509E-3  -3.753633291474452E-4  -6.749003289610239E-3  
 4.880833349698305E5    -2.435681922234619E-5  -6.876212187521098E-3   9.997674929028387E-1  -8.269420726698964E-3   1.000033708974947  -8.229269017164228E-3  -1.195412141021285E-5  -6.899944285061679E-3  
 4.980823774260179E5     9.238978313271143E-6  -7.015123851569051E-3   9.999788564910027E-1  -8.293379064639157E-3   1.000019226420870  -8.199320521197737E-3  -2.998694796922052E-4  -7.089963935878651E-3  
 5.082862636924264E5     2.340153980001109E-5  -7.220076038051444E-3   9.996303961894261E-1  -8.688413305487298E-3   1.000023809166691  -8.515079709552370E-3  -1.170178328499220E-4  -7.185238034997515E-3  
 5.186991902695479E5    -1.260392013454331E-4  -7.433716618533213E-3   9.998311831364120E-1  -8.587606153611370E-3   1.000025656259552  -8.651945115153444E-3  -3.561968030370206E-4  -7.399415512259613E-3  
 5.293254396288213E5    -1.075062585318382E-4  -7.678239586808016E-3   9.996761241903927E-1  -8.955687147420453E-3   9.999550869408493E-1  -9.069817401688541E-3  -9.518144068423999E-5  -7.520765620708831E-3  
 5.401693819738632E5    -1.605950135955538E-4  -7.887179802178594E-3   9.996251158012378E-1  -9.115424718105072E-3   9.999266060890362E-1  -9.220389419166095E-3  -3.390304136467294E-4  -7.829434826721160E-3  
 5.512354770377789E5     2.086773001375494E-5  -7.985009005375562E-3   9.997500427033096E-1  -9.331308772576827E-3   1.000000223541659  -9.347677964511747E-3  -2.722456593187885E-4  -7.888872442729410E-3  
 5.625282759172944E5    -8.066974944214659E-5  -8.103139083103908E-3   9.995982186032595E-1  -9.453371792083868E-3   1.000149650323472  -9.287361223526091E-3  -1.534968926327180E-4  -8.314103662538645E-3  
 5.740524229444626E5    -3.414546852221211E-6  -8.168414216134004E-3   9.997365731827147E-1  -9.654747381011197E-3   1.000108751160391  -9.580420801410037E-3  -2.862610915937642E-4  -8.256552973819619E-3  
 5.858126575967147E5     3.473575153828574E-5  -8.460086704934594E-3   9.996331011356864E-1  -1.002351433721557E-2   1.000072493579973  -9.843663871607820E-3  -2.201617858126790E-4  -8.379374096096959E-3  
 5.978138164460403E5     1.455033265849210E-5  -8.708707370558321E-3   9.996922949616376E-1  -1.002482110086259E-2   1.000095087117741  -1.007649998682004E-2  -2.998269237161512E-4  -8.692956070473963E-3  
 6.100608351481004E5     1.368087427396225E-4  -8.842686135418195E-3   9.996559431896029E-1  -1.029432398295270E-2   9.998749987797461E-1  -1.016474993754499E-2  -1.673001395724575E-4  -8.819882226375557E-3  
 6.225587504720892E5     2.581260497983486E-5  -9.098979755703630E-3   9.998910943880572E-1  -1.050748503524004E-2   9.999579990468452E-1  -1.037581253743719E-2  -1.933329259445197E-4  -9.167940924289440E-3  
 6.353127023721805E5     3.604337467305726E-5  -9.270861831298443E-3   9.995152215874122E-1  -1.061726785792191E-2   1.000113447705791  -1.075746393702357E-2  -4.355860802234209E-4  -9.259143167063574E-3  
 6.483279361014109E5    -7.091382535497580E-5  -9.523213015059834E-3   9.996861210620394E-1  -1.092393333190128E-2   1.000118689434913  -1.070513155224627E-2  -2.661998311160591E-4  -9.629277752057783E-3  
 6.616098043688679E5    -4.299110364975953E-5  -9.711842322201387E-3   9.994925648941581E-1  -1.120038886793049E-2   1.000003831071267  -1.113972049434993E-2  -4.012989908480622E-4  -9.809529514342063E-3  
 6.751637695410716E5     1.770521913812471E-5  -9.963166337413022E-3   9.997355846879816E-1  -1.134288940754224E-2   9.997768925287520E-1  -1.137389212811090E-2  -3.957152455198612E-4  -9.826479061988967E-3  
 6.889954058884548E5    -1.905027224261954E-5  -1.023292806332622E-2   9.995560354804074E-1  -1.144100773933314E-2   1.000049547907759  -1.142142362140927E-2  -4.606688410256564E-4  -1.013465948472371E-2  
 7.031104018778642E5    -5.636765889422423E-5  -1.036990121842550E-2   9.996053877761721E-1  -1.187434031970573E-2   1.000107593006248  -1.184068696036933E-2  -5.314392647482259E-4  -1.029446588878846E-2  
 7.175145625120278E5    -1.163686956130960E-4  -1.064271241173394E-2   9.996821764613104E-1  -1.197936877792985E-2   9.999668659486573E-1  -1.202118347376192E-2  -4.009954512263834E-4  -1.062313510329361E-2  
 7.322138117169489E5    -9.119800161141454E-5  -1.083635619241330E-2   9.995047397062137E-1  -1.224144256472193E-2   9.999588178690553E-1  -1.223427151727243E-2  -3.036085186142815E-4  -1.075630614330791E-2  
 7.472141947782085E5    -5.411084017216314E-5  -1.105451259322877E-2   9.997791750380433E-1  -1.251753152773749E-2   9.999351471790323E-1  -1.252879733716650E-2  -5.385832307798747E-4  -1.095371413360825E-2  
 7.625218808271801E5    -5.053124224125743E-5  -1.124612302132363E-2   9.995046414292694E-1  -1.277048507246314E-2   1.000045864839084  -1.273335991335702E-2  -5.257061927081081E-4  -1.135992081810075E-2  
 7.781431653781761E5     4.455139366703967E-6  -1.148943977240071E-2   9.994616865344590E-1  -1.296382834503278E-2   1.000017866580029  -1.301678207962259E-2  -4.031881392179976E-4  -1.165085279755039E-2  
 7.940844729175728E5     1.171237514841621E-5  -1.171392582549486E-2   9.995225000575381E-1  -1.329343660936272E-2   1.000100769163481  -1.331513110628062E-2  -2.706474647655450E-4  -1.172461907647054E-2  
 8.103523595459757E5    -1.628808718464509E-5  -1.207376663888963E-2   9.996833074936251E-1  -1.347467362649341E-2   9.999392559870571E-1  -1.335852575461618E-2  -4.402879461720740E-4  -1.202384871615149E-2  
 8.269535156745140E5    -7.884715569047101E-5  -1.235035864842479E-2   9.996266428038394E-1  -1.380761628049648E-2   9.999646873327456E-1  -1.379522227513563E-2  -3.708124913739802E-4  -1.211285875759950E-2  
 8.438947687763721E5     2.109545798189608E-5  -1.255380432110778E-2   9.997531580868418E-1  -1.402151815281630E-2   9.998237526038524E-1  -1.424486482437988E-2  -5.397147820490106E-4  -1.262821809583609E-2  
 8.611830861946895E5    -5.733200477634042E-5  -1.297682361461518E-2   9.995885126588426E-1  -1.448811939226337E-2   9.999491672693028E-1  -1.441633133230860E-2  -5.854614760583458E-4  -1.271355230519980E-2  
 8.788255780079850E5    -4.058152256204348E-6  -1.301596356489551E-2   9.995460119552111E-1  -1.473189299811465E-2   9.998489486641180E-1  -1.479184893507872E-2  -5.331195401561015E-4  -1.314656716954885E-2  
 8.968294999542822E5    -1.556371174831385E-4  -1.343949308857364E-2   9.994708813011166E-1  -1.474341960362974E-2   9.998551467490995E-1  -1.512506986508250E-2  -4.776899544194554E-4  -1.331921920249242E-2  
 9.152022564151404E5    -7.903861517516973E-5  -1.366653642724902E-2   9.994571060850912E-1  -1.521500666816698E-2   9.998610414388496E-1  -1.522720772955372E-2  -4.810224273475139E-4  -1.355139262196806E-2  
 9.339514034608167E5     5.240923385250520E-5  -1.393168077292553E-2   9.995567763209526E-1  -1.564644155068992E-2   9.997819671732606E-1  -1.560372367225945E-2  -5.057450401878836E-4  -1.395891910504569E-2  
 9.530846519578132E5    -9.310397485793708E-5  -1.417514339389111E-2   9.994217946701095E-1  -1.582076772246220E-2   9.998571191411401E-1  -1.600937910272852E-2  -4.840429610737960E-4  -1.415627474443947E-2  
 9.726098707400849E5    -1.834728856451503E-4  -1.448939465580957E-2   9.995883623321830E-1  -1.631030286255056E-2   9.998644337281709E-1  -1.624290871584506E-2  -4.134279574953225E-4  -1.449639991908052E-2  
 9.925350898452161E5    -1.500845971781299E-4  -1.474042609320018E-2   9.994912045963499E-1  -1.653501860786909E-2   9.998965313347269E-1  -1.665530426300901E-2  -6.272378376962073E-4  -1.488707727067193E-2  
 1.012868503816893E6     6.874814701974849E-5  -1.513603080902924E-2   9.993591757151104E-1  -1.629874206183291E-2   1.000022326248068  -1.725519536440840E-2  -6.559643405021841E-4  -1.489349661224725E-2  
 1.033618475075031E6    -2.102870555602115E-4  -1.543758551892445E-2   9.989734247287380E-1  -1.736542381004695E-2   1.000017090757787  -1.757732655112454E-2  -4.222596547887117E-4  -1.511096099120606E-2  
 1.054793537354946E6     9.473513553666537E-7  -1.593618459584309E-2   9.997857827101033E-1  -1.725542650951899E-2   9.997106563506165E-1  -1.780688296274541E-2  -4.296783276298702E-4  -1.561300460796935E-2  
 1.076402399216980E6     1.840660281518601E-4  -1.594098782161270E-2   9.996532160080439E-1  -1.794955511541049E-2   9.995665534985826E-1  -1.825816242543042E-2  -3.698449860436830E-4  -1.588106994662892E-2  
 1.098453947628028E6    -1.941790113421505E-4  -1.625892142409803E-2   9.994140654826484E-1  -1.850183997736993E-2   9.998521795862422E-1  -1.839908210402819E-2  -6.157596521155953E-4  -1.627918555548376E-2  
 1.120957251616430E6    -3.550141825232678E-4  -1.667270851865108E-2   9.995053771971909E-1  -1.842813193358027E-2   9.995920998848223E-1  -1.905641680839690E-2  -5.522851712972676E-4  -1.701714909483437E-2  
 1.143921566001752E6     1.795802410177976E-4  -1.707899366815635E-2   9.993987597562865E-1  -1.865035982974932E-2   1.000031110249319  -1.929084427088722E-2  -4.666094910035668E-4  -1.705621683513675E-2  
 1.167356335200965E6    -1.276278638863638E-4  -1.757503211383789E-2   9.998352762554624E-1  -1.940014765105108E-2   9.999416049086704E-1  -2.008671049358752E-2  -8.983732514929155E-4  -1.764638717706556E-2  
 1.191271197112600E6    -9.607759003856954E-5  -1.797869046716112E-2   9.994178145206156E-1  -2.024559352990101E-2   9.993289744679440E-1  -1.997148488366266E-2  -5.702149397138238E-4  -1.737083269665071E-2  
 1.215675987080482E6    -5.929176092678654E-4  -1.804356975248624E-2   9.997478125345121E-1  -1.984887896028180E-2   9.997145554784850E-1  -2.034254309742868E-2  -9.410153171235224E-4  -1.847988467414446E-2  
 1.240580741938659E6    -4.503978099687851E-4  -1.861008339229744E-2   9.994565093896340E-1  -2.074468683233190E-2   9.995872361411707E-1  -2.053542722657792E-2  -6.602292548760039E-4  -1.875088457972687E-2  
 1.265995704139202E6    -3.222096204996032E-4  -1.877899672384589E-2   9.990992720152844E-1  -2.121788895607780E-2   9.996409852489485E-1  -2.137243594645630E-2  -6.155997319806004E-4  -1.923705901396651E-2  
 1.291931325964563E6    -4.153879965035325E-4  -1.916198228982944E-2   9.994842312285392E-1  -2.159392670747101E-2   9.996299534865144E-1  -2.174038685668489E-2  -8.645691781765055E-4  -1.928352076231813E-2  
 1.318398273826236E6    -3.170301380061318E-4  -1.986637196364160E-2   9.990937084627060E-1  -2.230916418749212E-2   9.994215141780343E-1  -2.210493225156506E-2  -6.556438974385571E-4  -1.995523635638350E-2  
 1.345407432651476E6    -3.386370982039975E-4  -2.004457541618729E-2   9.995086166714000E-1  -2.245544388702857E-2   9.998000290936441E-1  -2.271111402063839E-2  -1.062996757653814E-3  -2.021497590388752E-2  
 1.372969910359885E6    -3.967209674220499E-4  -2.072969892116191E-2   9.990184768284988E-1  -2.274130130456578E-2   9.995908135321084E-1  -2.343800319829370E-2  -1.046392562829844E-3  -2.008859309804113E-2  
 1.401097042431717E6    -3.018539665079563E-4  -2.087057419485058E-2   9.993112984395211E-1  -2.310550104512846E-2   9.996254599800700E-1  -2.388976610491406E-2  -7.640184442594901E-4  -2.088132625882211E-2  
 1.429800396569754E6    -2.347106109068518E-4  -2.119195612265559E-2   9.991987917162790E-1  -2.452663614516391E-2   9.997825271475758E-1  -2.359812303823730E-2  -3.501712378709020E-4  -2.161117355975329E-2  
 1.459091777456705E6    -5.007946637923904E-4  -2.154598015610159E-2   9.989188223212884E-1  -2.448490685883319E-2   9.998688283521937E-1  -2.447681284715954E-2  -7.276115584568106E-4  -2.219085761414781E-2  
 1.488983231610052E6    -2.593136182475260E-4  -2.237245560092409E-2   9.995236635010585E-1  -2.490730947560834E-2   9.994698611517521E-1  -2.504965285900513E-2  -6.181642719989798E-4  -2.250283676364964E-2  
 1.519487052336364E6    -2.967079154478104E-4  -2.293651710427311E-2   9.991279874869462E-1  -2.565127606592867E-2   9.994123806788108E-1  -2.568297528544853E-2  -9.177435393614680E-4  -2.294380331620957E-2  
 1.550615784787099E6    -3.408414818588804E-4  -2.334559729344525E-2   9.989034923185175E-1  -2.591339480796573E-2   9.999132690996627E-1  -2.595573379163941E-2  -1.002206820064293E-3  -2.334251817320036E-2  
 1.582382231117988E6    -4.812303798013519E-4  -2.381176248184318E-2   9.992655516368443E-1  -2.685044154507885E-2   9.992371284493775E-1  -2.651843363335525E-2  -1.100166033705156E-3  -2.385899788856769E-2  
 1.614799455754111E6    -1.229084520228555E-4  -2.436674302958765E-2   9.993001702944404E-1  -2.703818523771834E-2   9.995970497744903E-1  -2.704442946778028E-2  -8.410193573699990E-4  -2.468338913390481E-2  
 1.647880790762838E6    -3.860242106278756E-4  -2.479442328161852E-2   9.993657759082466E-1  -2.753343739791937E-2   9.996529650573660E-1  -2.742560422099265E-2  -1.252836721891959E-3  -2.488463475198606E-2  
 1.681639841336839E6    -4.748087558860665E-4  -2.564537596488910E-2   9.991133335953319E-1  -2.778363932416503E-2   9.997520319243696E-1  -2.813072646651732E-2  -1.342364706260904E-3  -2.550161626598772E-2  
 1.716090491389422E6    -5.085816922550364E-4  -2.575724341043289E-2   9.992687922065384E-1  -2.838647046209639E-2   9.995209589110069E-1  -2.877648816013546E-2  -1.325498984582099E-3  -2.582762309091769E-2  
 1.751246909264502E6    -5.440052058180661E-4  -2.622375317073085E-2   9.989776027393159E-1  -2.918024771098263E-2   9.990455301053839E-1  -2.930128055510322E-2  -1.432448143405948E-3  -2.655977105117753E-2  
 1.787123553563544E6    -1.042047689666398E-3  -2.668872414417682E-2   9.988275052421970E-1  -3.017312838902145E-2   9.995754221159006E-1  -3.029646900736795E-2  -1.311486507740506E-3  -2.728090382141244E-2  
 1.823735179091875E6    -5.492598625663850E-4  -2.723591394643727E-2   9.992255775064364E-1  -3.064486400955968E-2   9.994407339902974E-1  -3.031258394420566E-2  -9.486792355873231E-4  -2.716667664596717E-2  
 1.861096842926821E6    -6.051297939903228E-4  -2.774844144826876E-2   9.987760684145185E-1  -3.144753935695095E-2   9.991975090541939E-1  -3.115841229951534E-2  -1.575388429724259E-3  -2.792489108715022E-2  
 1.899223910610154E6    -6.078735061216911E-4  -2.820846338871976E-2   9.988560356158109E-1  -3.180489961963420E-2   9.993415093601316E-1  -3.181155134673547E-2  -1.519943549502143E-3  -2.855153362039526E-2  
 1.938132062467400E6    -8.765960327938869E-4  -2.943916396438108E-2   9.988295486247258E-1  -3.258446612799310E-2   9.992333776433667E-1  -3.260545649448315E-2  -1.083349059240391E-3  -2.912387029316811E-2  
 1.977837300056607E6    -6.257495706159406E-4  -2.972511195756137E-2   9.987585646015992E-1  -3.318501036053837E-2   9.996760850328291E-1  -3.318857117308634E-2  -1.288336706257800E-3  -2.946321828754614E-2  
 2.018355952749225E6    -1.266603401254194E-3  -2.982400342810946E-2   9.994110397305805E-1  -3.373137923559291E-2   9.986800309835463E-1  -3.359368126045598E-2   9.580372359915247E-5  -3.037633907550513E-2  
