#  HZ   S   RI   R     50 
! Rohde & Schwarz ZVA/B 
! 
! 
! 
 3.000000000000000E5    -8.080552967981460E-1  -1.789842163515945E-1   1.946511457265899E-1  -1.822282106492223E-1   1.955554225542344E-1  -1.826898724165232E-1  -8.064737974450205E-1  -1.783627446977356E-1  
 3.061459028037530E5    -8.099068923397456E-1  -1.762261916546065E-1   1.930561293594016E-1  -1.793336484387196E-1   1.938273539823228E-1  -1.796415197739611E-1  -8.080453418295370E-1  -1.756494390487437E-1  
 3.124177126784167E5    -8.114404327275817E-1  -1.734823475057952E-1   1.914428772307687E-1  -1.762953853074974E-1   1.921488764509050E-1  -1.769055581012381E-1  -8.098825046138707E-1  -1.726382841303329E-1  
 3.188180089993913E5    -8.129006124191819E-1  -1.701391171439699E-1   1.897495207817796E-1  -1.736386759959888E-1   1.903666849987493E-1  -1.740970668416349E-1  -8.112445438553320E-1  -1.700686283766501E-1  
 3.253494239840457E5    -8.142916538170463E-1  -1.676893768691029E-1   1.880835458888557E-1  -1.708079339179988E-1   1.887401281028689E-1  -1.713073367305110E-1  -8.124839604195259E-1  -1.670511084345354E-1  
 3.320146437742557E5    -8.155073259354423E-1  -1.651393479807956E-1   1.867403295408312E-1  -1.679999815706911E-1   1.872055189597630E-1  -1.685299490995700E-1  -8.141766052663833E-1  -1.644341439764204E-1  
 3.388164095411199E5    -8.169341979741892E-1  -1.624959657210335E-1   1.849953291037932E-1  -1.652588921122990E-1   1.856718937814497E-1  -1.658824712006267E-1  -8.152217944228458E-1  -1.617804422903081E-1  
 3.457575186123076E5    -8.185392643463463E-1  -1.594471399635760E-1   1.836157464273175E-1  -1.626470004587231E-1   1.840385008305433E-1  -1.632140463736176E-1  -8.169339224077044E-1  -1.590723915752321E-1  
 3.528408256225012E5    -8.196827058858356E-1  -1.571140581325549E-1   1.822289332778728E-1  -1.599847539296356E-1   1.827967619405664E-1  -1.604740412000266E-1  -8.179319308675125E-1  -1.568200686611512E-1  
 3.600692436874074E5    -8.211322343509049E-1  -1.546137314424354E-1   1.809090342304084E-1  -1.574058473039089E-1   1.813884206431513E-1  -1.578962838385505E-1  -8.193043921731354E-1  -1.542213281301469E-1  
 3.674457456018197E5    -8.223664923454881E-1  -1.520465951541972E-1   1.795672919068835E-1  -1.547539864165491E-1   1.799685581120910E-1  -1.553519586945792E-1  -8.203233164443959E-1  -1.516480856402164E-1  
 3.749733650622242E5    -8.234802180275543E-1  -1.492881146005742E-1   1.781619589970399E-1  -1.523100483398242E-1   1.785376894281896E-1  -1.527764990494797E-1  -8.216953072403199E-1  -1.491080274274207E-1  
 3.826551979144529E5    -8.245793922351775E-1  -1.470500338142363E-1   1.769345471213270E-1  -1.497418350504739E-1   1.773516135954514E-1  -1.503671646475133E-1  -8.229930309538918E-1  -1.469283213112809E-1  
 3.904944034268967E5    -8.258207905711390E-1  -1.446503769879536E-1   1.757960230076099E-1  -1.472475175827499E-1   1.761124557941781E-1  -1.477615114323180E-1  -8.240384496132667E-1  -1.446098745486388E-1  
 3.984942055898008E5    -8.270494346625925E-1  -1.419479679602821E-1   1.746234706461732E-1  -1.449671308291581E-1   1.748726256827193E-1  -1.454240750321590E-1  -8.252300660113643E-1  -1.422671971973239E-1  
 4.066578944411798E5    -8.276538925538874E-1  -1.397786288847834E-1   1.734420080799029E-1  -1.424730603848123E-1   1.736759141575140E-1  -1.430118886755241E-1  -8.263501042544457E-1  -1.400576680835017E-1  
 4.149888274198943E5    -8.289101166162937E-1  -1.373596974661860E-1   1.722545602146011E-1  -1.402098221606853E-1   1.725651579602643E-1  -1.407150131322631E-1  -8.274695121088331E-1  -1.376594320516408E-1  
 4.234904307464480E5    -8.297458539319282E-1  -1.352233610529548E-1   1.712391968244428E-1  -1.377970336936275E-1   1.713907908596563E-1  -1.383489652517665E-1  -8.285354411196019E-1  -1.353063899136664E-1  
 4.321662008320720E5    -8.309073095570979E-1  -1.328008453863644E-1   1.702021562908674E-1  -1.356212351557016E-1   1.703269682869650E-1  -1.361159927406855E-1  -8.295422607081537E-1  -1.333305327846610E-1  
 4.410197057166757E5    -8.317307116401288E-1  -1.307929324907823E-1   1.690949374509804E-1  -1.333551556872888E-1   1.692515315705764E-1  -1.337188108499106E-1  -8.303800453082099E-1  -1.309831208761022E-1  
 4.500545865362572E5    -8.328308889024432E-1  -1.285992812934856E-1   1.680311409022433E-1  -1.312087902476644E-1   1.683568848022341E-1  -1.315278980004697E-1  -8.314592180383678E-1  -1.289842200122199E-1  
 4.592745590203743E5    -8.338713183706907E-1  -1.265245882674599E-1   1.671427171412870E-1  -1.290517932781863E-1   1.673271833876491E-1  -1.293835211091685E-1  -8.323612749261559E-1  -1.267424235018320E-1  
 4.686834150202934E5    -8.346435177180774E-1  -1.243464815534185E-1   1.662222867869314E-1  -1.268331091680468E-1   1.663775092092358E-1  -1.273024405603222E-1  -8.333195120154427E-1  -1.245398922084855E-1  
 4.782850240684460E5    -8.354973921394485E-1  -1.226976358997958E-1   1.653074495014248E-1  -1.247567691516735E-1   1.654245143459218E-1  -1.251807850661780E-1  -8.342151779873032E-1  -1.225869434988355E-1  
 4.880833349698305E5    -8.361484501129148E-1  -1.204834199222720E-1   1.643383324886775E-1  -1.225980509052509E-1   1.644773165213400E-1  -1.230776424575190E-1  -8.350622229436501E-1  -1.206922258746027E-1  
 4.980823774260179E5    -8.374119453154618E-1  -1.186865139308719E-1   1.636268438735846E-1  -1.207047219408598E-1   1.636771989182756E-1  -1.209867512192717E-1  -8.359030112694954E-1  -1.187884397720373E-1  
 5.082862636924264E5    -8.380433355321783E-1  -1.165185446113922E-1   1.626812342943666E-1  -1.187113699300409E-1   1.627082060899497E-1  -1.190749790411469E-1  -8.368594616180204E-1  -1.166536993463467E-1  
 5.186991902695479E5    -8.389671073745227E-1  -1.147498346396301E-1   1.619467731660982E-1  -1.166890152090987E-1   1.619648555693500E-1  -1.170769518516441E-1  -8.376680993034562E-1  -1.147756232634458E-1  
 5.293254396288213E5    -8.396528875645439E-1  -1.126827390035003E-1   1.611247541622409E-1  -1.148659455772159E-1   1.611187518548403E-1  -1.150642269491672E-1  -8.384601176669806E-1  -1.130994315133240E-1  
 5.401693819738632E5    -8.403470385030474E-1  -1.108707428686342E-1   1.603511352883077E-1  -1.129246926677490E-1   1.603785098827886E-1  -1.132539019107800E-1  -8.391497912243162E-1  -1.110444988165103E-1  
 5.512354770377789E5    -8.407070684989484E-1  -1.090019818208012E-1   1.594776214327236E-1  -1.110482897232924E-1   1.595615857912227E-1  -1.113897425658724E-1  -8.400359763745284E-1  -1.092115944369504E-1  
 5.625282759172944E5    -8.416238703499999E-1  -1.076835727718856E-1   1.588238648749702E-1  -1.092137666953834E-1   1.589291390064323E-1  -1.094994140566209E-1  -8.406965336458132E-1  -1.077019860763598E-1  
 5.740524229444626E5    -8.423157600163749E-1  -1.054065128738575E-1   1.579992553712148E-1  -1.074100890797315E-1   1.580736529467343E-1  -1.077328483488591E-1  -8.412279270354149E-1  -1.055661870167299E-1  
 5.858126575967147E5    -8.430755524459604E-1  -1.036034579737043E-1   1.573320718896135E-1  -1.057283805302819E-1   1.573945400982539E-1  -1.059857340438189E-1  -8.419366171376375E-1  -1.039088038574083E-1  
 5.978138164460403E5    -8.438354649700680E-1  -1.021203744332544E-1   1.566955851276698E-1  -1.038954437452186E-1   1.567732919214554E-1  -1.042397679778644E-1  -8.427793190155684E-1  -1.023576717586294E-1  
 6.100608351481004E5    -8.444564863490545E-1  -1.005281400953255E-1   1.560789042852278E-1  -1.022582250234414E-1   1.560173023887702E-1  -1.025080075132673E-1  -8.433971381247608E-1  -1.005244758578758E-1  
 6.225587504720892E5    -8.450073439048471E-1  -9.883502659656926E-2   1.553745235896581E-1  -1.006031601765769E-1   1.553095580075385E-1  -1.007568254081841E-1  -8.439715538077136E-1  -9.893256194114000E-2  
 6.353127023721805E5    -8.455887785979984E-1  -9.705215027975550E-2   1.547935094988593E-1  -9.893612937024413E-2   1.547917150420349E-1  -9.914997879085388E-2  -8.447373549255584E-1  -9.734078109295197E-2  
 6.483279361014109E5    -8.462009854167705E-1  -9.573187655540577E-2   1.540801740182095E-1  -9.729842142995625E-2   1.541998097103166E-1  -9.748048179184948E-2  -8.453045345597776E-1  -9.579861757192618E-2  
 6.616098043688679E5    -8.468716921044925E-1  -9.416004933262434E-2   1.535709878600662E-1  -9.574844943063016E-2   1.535373605700250E-1  -9.596562571280617E-2  -8.459426034854789E-1  -9.423309935616003E-2  
 6.751637695410716E5    -8.473214736257709E-1  -9.254083546111892E-2   1.529640227004597E-1  -9.416795547307692E-2   1.529463883368988E-1  -9.442142914409747E-2  -8.464734851121354E-1  -9.255331477108088E-2  
 6.889954058884548E5    -8.480996119648961E-1  -9.097451415344307E-2   1.523514876509167E-1  -9.267050829814018E-2   1.523333559709271E-1  -9.281693828412800E-2  -8.469287168025973E-1  -9.110173891671003E-2  
 7.031104018778642E5    -8.488959999893002E-1  -8.956704729326832E-2   1.518560537315057E-1  -9.119609334831395E-2   1.518677056639551E-1  -9.131400274204328E-2  -8.477189176053648E-1  -8.950881140873623E-2  
 7.175145625120278E5    -8.490785289362225E-1  -8.799917395063935E-2   1.512046212349537E-1  -8.972788109470695E-2   1.513181678940235E-1  -8.980677973722241E-2  -8.483184278855538E-1  -8.820807578528027E-2  
 7.322138117169489E5    -8.496268239961018E-1  -8.669335197903756E-2   1.507357266518941E-1  -8.827643588703076E-2   1.507179369483442E-1  -8.839024080662868E-2  -8.487844849551705E-1  -8.687016438885878E-2  
 7.472141947782085E5    -8.502505597460212E-1  -8.521976499066920E-2   1.501793086527152E-1  -8.685247677052924E-2   1.502194067036300E-1  -8.700808916211388E-2  -8.494410246774921E-1  -8.531070885324750E-2  
 7.625218808271801E5    -8.507752341111091E-1  -8.402762159463890E-2   1.497182255710455E-1  -8.540994891809985E-2   1.496580086614280E-1  -8.554859869613792E-2  -8.498482427952014E-1  -8.375146476083328E-2  
 7.781431653781761E5    -8.513325993331427E-1  -8.260759861793479E-2   1.491750000759387E-1  -8.404561294020765E-2   1.492093640894386E-1  -8.413481004813150E-2  -8.502886918671057E-1  -8.256085409567912E-2  
 7.940844729175728E5    -8.517175728683688E-1  -8.111365905272779E-2   1.487457871875644E-1  -8.269737702322763E-2   1.487234291586338E-1  -8.279489715325920E-2  -8.508342841754256E-1  -8.124600544160252E-2  
 8.103523595459757E5    -8.522677374323983E-1  -7.982561810247950E-2   1.482251264365543E-1  -8.138758618344184E-2   1.482424760868801E-1  -8.147561465812134E-2  -8.512849368867219E-1  -7.987071694152521E-2  
 8.269535156745140E5    -8.528567612981994E-1  -7.856468066314828E-2   1.477731450697552E-1  -8.009740370076111E-2   1.477416625960830E-1  -8.021191057142954E-2  -8.517730492839231E-1  -7.850098088070177E-2  
 8.438947687763721E5    -8.533106137481881E-1  -7.723299722107793E-2   1.473167125345300E-1  -7.883709973265227E-2   1.473333237168469E-1  -7.891599325735116E-2  -8.522496477179276E-1  -7.727208919128244E-2  
 8.611830861946895E5    -8.536459412384861E-1  -7.608073442827210E-2   1.468598240273407E-1  -7.755785023551946E-2   1.468376469432179E-1  -7.763447086254025E-2  -8.526232044815958E-1  -7.598260659843499E-2  
 8.788255780079850E5    -8.541926640200523E-1  -7.479669334436699E-2   1.464075524612734E-1  -7.635649449659822E-2   1.463859184417452E-1  -7.644300627479576E-2  -8.531311601806764E-1  -7.477532883112914E-2  
 8.968294999542822E5    -8.545687425274990E-1  -7.348863156496391E-2   1.459012121269562E-1  -7.512123589685307E-2   1.459093804466976E-1  -7.522261171989936E-2  -8.533822700811670E-1  -7.354619695236188E-2  
 9.152022564151404E5    -8.548417876816363E-1  -7.247522943352555E-2   1.455335367211608E-1  -7.389182126597091E-2   1.455266414171992E-1  -7.402826035801252E-2  -8.539857957876905E-1  -7.227370424372673E-2  
 9.339514034608167E5    -8.555009216680204E-1  -7.121098571029853E-2   1.450737545065908E-1  -7.277296207923499E-2   1.451043485020752E-1  -7.289083229172827E-2  -8.543738540490038E-1  -7.113165729572894E-2  
 9.530846519578132E5    -8.558441950494283E-1  -6.996556016022977E-2   1.446795640796166E-1  -7.174042379818298E-2   1.446914439984482E-1  -7.171055261310388E-2  -8.548216710061357E-1  -6.997755966065405E-2  
 9.726098707400849E5    -8.562216802583448E-1  -6.878323935539989E-2   1.442807248214569E-1  -7.055689821783032E-2   1.442845095935023E-1  -7.062379972455692E-2  -8.551822988589843E-1  -6.887823096433007E-2  
 9.925350898452161E5    -8.565569292313430E-1  -6.763087254543328E-2   1.438526100077807E-1  -6.952054500131917E-2   1.439285263770911E-1  -6.944563038890776E-2  -8.557010296669610E-1  -6.775039016088677E-2  
 1.012868503816893E6    -8.572316118546401E-1  -6.679580727432254E-2   1.434597343771152E-1  -6.839220410748806E-2   1.436706519384774E-1  -6.855380284064273E-2  -8.556861581275199E-1  -6.692810281129817E-2  
 1.033618475075031E6    -8.574213801616472E-1  -6.523905907541205E-2   1.432082954643335E-1  -6.743149064465523E-2   1.431199096426921E-1  -6.755820994001135E-2  -8.565280883188748E-1  -6.532134195952702E-2  
 1.054793537354946E6    -8.577507359684864E-1  -6.439352877405664E-2   1.427347045583931E-1  -6.642900556686826E-2   1.427580081972529E-1  -6.629300162467548E-2  -8.566918130173822E-1  -6.453346193127341E-2  
 1.076402399216980E6    -8.580255899760931E-1  -6.319187239626858E-2   1.422795345742833E-1  -6.532255647632676E-2   1.424415259154595E-1  -6.529561787807742E-2  -8.569991103843242E-1  -6.381887388057243E-2  
 1.098453947628028E6    -8.586841774965752E-1  -6.205562335567630E-2   1.420601809757884E-1  -6.434763628999571E-2   1.421225974245309E-1  -6.431306047639819E-2  -8.572893650410678E-1  -6.218220816782408E-2  
 1.120957251616430E6    -8.594034142585685E-1  -6.136350142393983E-2   1.416176907022636E-1  -6.322190613823434E-2   1.416802196791753E-1  -6.327289130814769E-2  -8.578179596331017E-1  -6.169253028486071E-2  
 1.143921566001752E6    -8.590606839451398E-1  -6.036599741370363E-2   1.412238350337983E-1  -6.227227101373691E-2   1.412060386691619E-1  -6.222746840020625E-2  -8.584022138428276E-1  -6.003422008161842E-2  
 1.167356335200965E6    -8.593730067478391E-1  -5.940182354260373E-2   1.412186993152988E-1  -6.122577830908324E-2   1.409918941192624E-1  -6.137700119945640E-2  -8.585987719949001E-1  -5.936248706850698E-2  
 1.191271197112600E6    -8.597115896105877E-1  -5.809500273056222E-2   1.406414845697951E-1  -6.045986405750602E-2   1.408475830550318E-1  -6.036893374249064E-2  -8.590967624376834E-1  -5.861515404281150E-2  
 1.215675987080482E6    -8.600937870755437E-1  -5.803031449485113E-2   1.405222049496396E-1  -5.949778601596914E-2   1.404650384692832E-1  -5.947085928795522E-2  -8.593381812569279E-1  -5.753115209361355E-2  
 1.240580741938659E6    -8.606830222289794E-1  -5.669313947399688E-2   1.399610822393229E-1  -5.859526544540291E-2   1.400330707493054E-1  -5.867339462251477E-2  -8.593860752102822E-1  -5.637488888694002E-2  
 1.265995704139202E6    -8.610600160457522E-1  -5.524976296781180E-2   1.395534410797949E-1  -5.789864368994293E-2   1.397066759068308E-1  -5.750961417237380E-2  -8.597653150539785E-1  -5.603000750726347E-2  
 1.291931325964563E6    -8.613237385110844E-1  -5.449754574556893E-2   1.393938273355113E-1  -5.700579071660635E-2   1.394554225159698E-1  -5.696786833515306E-2  -8.600293511350632E-1  -5.467283435087104E-2  
 1.318398273826236E6    -8.616596537111674E-1  -5.399016274575318E-2   1.391237821120936E-1  -5.605262045668913E-2   1.390589151072831E-1  -5.591089682925007E-2  -8.603280702589671E-1  -5.420259617042062E-2  
 1.345407432651476E6    -8.622310722696002E-1  -5.283751410700985E-2   1.387616372729386E-1  -5.538029596176582E-2   1.388425886514272E-1  -5.525479512655653E-2  -8.607119327570422E-1  -5.251639032815954E-2  
 1.372969910359885E6    -8.620084267148298E-1  -5.202652200443771E-2   1.384874066419746E-1  -5.445294367771061E-2   1.384009825497518E-1  -5.435435284015731E-2  -8.607290922885972E-1  -5.187793290549726E-2  
 1.401097042431717E6    -8.621689855920409E-1  -5.147253669514584E-2   1.380743121721883E-1  -5.365726315010805E-2   1.383025888383059E-1  -5.364354244378475E-2  -8.614448469369903E-1  -5.109917212549833E-2  
 1.429800396569754E6    -8.622481446609677E-1  -5.001865885682648E-2   1.378680831222311E-1  -5.292826623213387E-2   1.379533658523240E-1  -5.277718695574540E-2  -8.619312946636668E-1  -5.042643686831862E-2  
 1.459091777456705E6    -8.625713658637515E-1  -5.005831256879672E-2   1.376465786232727E-1  -5.201101192120597E-2   1.377149269078804E-1  -5.202645515469263E-2  -8.620729227201331E-1  -4.953793672793894E-2  
 1.488983231610052E6    -8.632676303576983E-1  -4.926560476579491E-2   1.373910300398073E-1  -5.113701502953786E-2   1.375091710804327E-1  -5.123712488587438E-2  -8.621004023821206E-1  -4.879251466450670E-2  
 1.519487052336364E6    -8.632577094734022E-1  -4.788092631338255E-2   1.370436790100208E-1  -5.055717399509797E-2   1.369641297591780E-1  -5.047535082762208E-2  -8.624673763698334E-1  -4.805033779802155E-2  
 1.550615784787099E6    -8.639918046519044E-1  -4.726946976632442E-2   1.367178708521653E-1  -4.976476484824718E-2   1.368652589080717E-1  -4.984277772384924E-2  -8.627761848864928E-1  -4.702702624641984E-2  
 1.582382231117988E6    -8.639902616278026E-1  -4.648308184141290E-2   1.363899677228576E-1  -4.909454232556255E-2   1.366412402313088E-1  -4.918765965237992E-2  -8.630056955379367E-1  -4.643406094925285E-2  
 1.614799455754111E6    -8.640231339518658E-1  -4.571359303402622E-2   1.362039104027673E-1  -4.844455675592336E-2   1.363076087774585E-1  -4.841750601397545E-2  -8.633056474820342E-1  -4.569796725727965E-2  
 1.647880790762838E6    -8.644622827741016E-1  -4.525338966979538E-2   1.359292524126489E-1  -4.761322661134516E-2   1.361214506765950E-1  -4.766619755353968E-2  -8.637154657587266E-1  -4.482606858951131E-2  
 1.681639841336839E6    -8.649361317006704E-1  -4.430501070065762E-2   1.357828975068909E-1  -4.716492886631177E-2   1.358417907199732E-1  -4.694492328042278E-2  -8.639199705262664E-1  -4.419759117470665E-2  
 1.716090491389422E6    -8.652994912335993E-1  -4.378063964937421E-2   1.354795263126532E-1  -4.636873832234648E-2   1.354765202873417E-1  -4.640257576609400E-2  -8.638956414091845E-1  -4.360712169601581E-2  
 1.751246909264502E6    -8.651988041753111E-1  -4.336461886317335E-2   1.352171216600535E-1  -4.574523146381565E-2   1.353554431353301E-1  -4.559726609486894E-2  -8.642380128655700E-1  -4.279354121732893E-2  
 1.787123553563544E6    -8.651902615122118E-1  -4.236169462657929E-2   1.349984002232559E-1  -4.516374855359088E-2   1.351156162162041E-1  -4.505846530286282E-2  -8.648792369437736E-1  -4.216821091008643E-2  
 1.823735179091875E6    -8.655873296201324E-1  -4.161662453993922E-2   1.347179514749805E-1  -4.461931136310750E-2   1.347677817992026E-1  -4.445789568081205E-2  -8.647698962783517E-1  -4.153917497866524E-2  
 1.861096842926821E6    -8.660828972373263E-1  -4.090436430038772E-2   1.345807155072107E-1  -4.389731194038274E-2   1.344875323571375E-1  -4.393308354387113E-2  -8.650081212256344E-1  -4.064825108399187E-2  
 1.899223910610154E6    -8.662753036229549E-1  -4.041288054298497E-2   1.343119980567450E-1  -4.327748123581794E-2   1.342866410306592E-1  -4.330743747979990E-2  -8.656590477200234E-1  -3.996610721333337E-2  
 1.938132062467400E6    -8.664057145320513E-1  -3.983156982056343E-2   1.341283007961777E-1  -4.273609245731908E-2   1.340745195983103E-1  -4.267165496573441E-2  -8.654332886225440E-1  -3.966234909825021E-2  
 1.977837300056607E6    -8.666313447193524E-1  -3.884321046308004E-2   1.337446503418465E-1  -4.203752497478358E-2   1.338831874507782E-1  -4.208473138053039E-2  -8.656693909789488E-1  -3.886664740707936E-2  
