#  HZ   S   RI   R     50 
! Rohde & Schwarz ZVA/B 
! 
! 
! 
 3.000000000000000E5    -8.484008632772208E-1  -1.746007566611444E-1   1.541078392270677E-1  -1.775908975534603E-1   1.548187702376502E-1  -1.781597354560311E-1  -8.465778320141383E-1  -1.742109820984448E-1  
 3.061459028037530E5    -8.496806494350728E-1  -1.716998828676039E-1   1.528176024419076E-1  -1.746353266111815E-1   1.533303450482576E-1  -1.750899098940063E-1  -8.479634194649752E-1  -1.712613915241433E-1  
 3.124177126784167E5    -8.508873178104581E-1  -1.686375668993890E-1   1.514526915619664E-1  -1.716704973550871E-1   1.520900983567210E-1  -1.722284390562437E-1  -8.492885388135306E-1  -1.683471085637039E-1  
 3.188180089993913E5    -8.517649549831026E-1  -1.657826496213023E-1   1.500853052034425E-1  -1.688251081294846E-1   1.506324095569490E-1  -1.691569109350979E-1  -8.502906682133194E-1  -1.655078530265701E-1  
 3.253494239840457E5    -8.528885141208142E-1  -1.631764677479084E-1   1.488560644995887E-1  -1.659472454831151E-1   1.493758355509089E-1  -1.664259163877073E-1  -8.513991516324877E-1  -1.626455097669823E-1  
 3.320146437742557E5    -8.542076062607442E-1  -1.603783085255154E-1   1.476438237038471E-1  -1.630785469744510E-1   1.482319540408560E-1  -1.635874427312093E-1  -8.526398954260607E-1  -1.600229948060699E-1  
 3.388164095411199E5    -8.554072902375716E-1  -1.578166790824109E-1   1.465078803876739E-1  -1.603682646373133E-1   1.469265133738127E-1  -1.609141875723919E-1  -8.533807342752620E-1  -1.573563655221132E-1  
 3.457575186123076E5    -8.564742650362485E-1  -1.547811239443039E-1   1.453420851749893E-1  -1.576668060636157E-1   1.457535088138308E-1  -1.584134432705132E-1  -8.547679248921349E-1  -1.544793971655568E-1  
 3.528408256225012E5    -8.571445741693621E-1  -1.523089124461075E-1   1.442495928656520E-1  -1.550128760885686E-1   1.447675656975584E-1  -1.555961365360169E-1  -8.554592242219361E-1  -1.523036764165001E-1  
 3.600692436874074E5    -8.583580117191940E-1  -1.499513823672198E-1   1.431779288865966E-1  -1.523519878198168E-1   1.435777356357593E-1  -1.530637250749947E-1  -8.565468630321860E-1  -1.493600768761982E-1  
 3.674457456018197E5    -8.593409505802816E-1  -1.472421537568552E-1   1.421219054643873E-1  -1.498410506933145E-1   1.425125464209986E-1  -1.504472822335220E-1  -8.575145840480376E-1  -1.470922514532228E-1  
 3.749733650622242E5    -8.606166315508390E-1  -1.445284346192683E-1   1.411820248217122E-1  -1.473830111518879E-1   1.413416653347732E-1  -1.478729537046539E-1  -8.584092534383230E-1  -1.446362441662312E-1  
 3.826551979144529E5    -8.609996572188330E-1  -1.425998854139492E-1   1.402764873390240E-1  -1.449082300623250E-1   1.404317516004312E-1  -1.455500135064116E-1  -8.595009484424949E-1  -1.424710675415586E-1  
 3.904944034268967E5    -8.620554663936971E-1  -1.398117808566969E-1   1.392635101713756E-1  -1.425544213071655E-1   1.394946273043267E-1  -1.430163105271034E-1  -8.603541559396949E-1  -1.402093401408939E-1  
 3.984942055898008E5    -8.627284771256072E-1  -1.377387204372992E-1   1.383859541730414E-1  -1.400793528354123E-1   1.386138749219459E-1  -1.407178542476469E-1  -8.612512571137371E-1  -1.379555480528177E-1  
 4.066578944411798E5    -8.635078313132683E-1  -1.352948344642907E-1   1.375434171116007E-1  -1.378378919782203E-1   1.377269969917754E-1  -1.383493841180490E-1  -8.623184605090158E-1  -1.357361285642753E-1  
 4.149888274198943E5    -8.643139568876589E-1  -1.330909362141472E-1   1.366259981645729E-1  -1.355416016220180E-1   1.367828028344345E-1  -1.360161645462490E-1  -8.629370417497516E-1  -1.333494691942500E-1  
 4.234904307464480E5    -8.650832569412389E-1  -1.308843760036441E-1   1.358035523687962E-1  -1.333874356064728E-1   1.359772680461889E-1  -1.337961327837428E-1  -8.639147887653559E-1  -1.311813511045015E-1  
 4.321662008320720E5    -8.659127127762158E-1  -1.287750894361336E-1   1.350836438500662E-1  -1.311249613933761E-1   1.351091306733533E-1  -1.316504379290600E-1  -8.646217909952045E-1  -1.290312668454164E-1  
 4.410197057166757E5    -8.663132627632374E-1  -1.268872378371950E-1   1.342840760913029E-1  -1.289826828434710E-1   1.342450460483079E-1  -1.294102694177006E-1  -8.652797591880772E-1  -1.269580307871066E-1  
 4.500545865362572E5    -8.676140383308635E-1  -1.248103868499646E-1   1.334794612291608E-1  -1.269598644623234E-1   1.335485434623786E-1  -1.273374223672578E-1  -8.659886118107015E-1  -1.249023946921839E-1  
 4.592745590203743E5    -8.681176931243353E-1  -1.228766841134448E-1   1.326788485753162E-1  -1.248622547437911E-1   1.327800550226034E-1  -1.253694659728756E-1  -8.667209873674158E-1  -1.227506848735113E-1  
 4.686834150202934E5    -8.686480867090993E-1  -1.206703953345544E-1   1.319564363927538E-1  -1.228096350140796E-1   1.319979283484429E-1  -1.232794667640508E-1  -8.675111729065238E-1  -1.208376806054050E-1  
 4.782850240684460E5    -8.693661612996509E-1  -1.187349317738600E-1   1.312503220218654E-1  -1.209175357709712E-1   1.313358882866219E-1  -1.212573992689962E-1  -8.679998791082457E-1  -1.189186802693744E-1  
 4.880833349698305E5    -8.699340962948657E-1  -1.169074654386411E-1   1.305663298719258E-1  -1.189787739546782E-1   1.305933559871926E-1  -1.193510205248319E-1  -8.687192611534604E-1  -1.170291784906744E-1  
 4.980823774260179E5    -8.708036823932452E-1  -1.149753822783415E-1   1.298623024907326E-1  -1.171308793893435E-1   1.299241331064905E-1  -1.174419117396403E-1  -8.695105287421358E-1  -1.152760276189368E-1  
 5.082862636924264E5    -8.713779266485701E-1  -1.131708841723315E-1   1.292537374262412E-1  -1.152927064433481E-1   1.292457163073113E-1  -1.155329640846489E-1  -8.701797595367977E-1  -1.133885089435101E-1  
 5.186991902695479E5    -8.719556954398234E-1  -1.116395197754359E-1   1.287241348473522E-1  -1.134569835633114E-1   1.286788557740191E-1  -1.137683212387309E-1  -8.708634692745993E-1  -1.117195791458614E-1  
 5.293254396288213E5    -8.726064837120058E-1  -1.097138524834912E-1   1.280028805615677E-1  -1.116918606530914E-1   1.280056548828565E-1  -1.119589552286455E-1  -8.714624866799592E-1  -1.100492700060347E-1  
 5.401693819738632E5    -8.729275151343809E-1  -1.081358525981908E-1   1.275099936590980E-1  -1.099063175816386E-1   1.274239946357481E-1  -1.101778244789054E-1  -8.720101824490998E-1  -1.082749879056903E-1  
 5.512354770377789E5    -8.736782999401147E-1  -1.064025935046360E-1   1.268174128391804E-1  -1.082207174316822E-1   1.267762615872995E-1  -1.084787670255895E-1  -8.726803555145041E-1  -1.067310612162537E-1  
 5.625282759172944E5    -8.741429884446160E-1  -1.047843064747494E-1   1.262481190781477E-1  -1.065808768472745E-1   1.262408918781396E-1  -1.068373056252892E-1  -8.732163129577151E-1  -1.050101290418725E-1  
 5.740524229444626E5    -8.748585595979369E-1  -1.031925092051810E-1   1.256400636450707E-1  -1.049545122796868E-1   1.256559573406118E-1  -1.052169339119660E-1  -8.737088064382604E-1  -1.034176792758851E-1  
 5.858126575967147E5    -8.754675369111170E-1  -1.014835768041622E-1   1.250619660855808E-1  -1.033891432892499E-1   1.251144647327598E-1  -1.036278448998899E-1  -8.744256704948684E-1  -1.018178251624672E-1  
 5.978138164460403E5    -8.759667787331011E-1  -1.001746669638094E-1   1.245221120866248E-1  -1.018570898567647E-1   1.244971688931045E-1  -1.019798574447385E-1  -8.749932321403897E-1  -1.003848983979871E-1  
 6.100608351481004E5    -8.763177420812670E-1  -9.863187555898229E-2   1.239508525845958E-1  -1.003021670240692E-1   1.238940038368559E-1  -1.005050538961465E-1  -8.754427839832186E-1  -9.870185681482342E-2  
 6.225587504720892E5    -8.770187649592439E-1  -9.721628838719459E-2   1.234743278998203E-1  -9.885594060861012E-2   1.233483588818589E-1  -9.899547348768806E-2  -8.758735594804803E-1  -9.726332678264733E-2  
 6.353127023721805E5    -8.775315750119335E-1  -9.582829602767903E-2   1.229703834252508E-1  -9.736954796650217E-2   1.228527438639375E-1  -9.752290952128466E-2  -8.764855241420121E-1  -9.570953826127063E-2  
 6.483279361014109E5    -8.781179662810248E-1  -9.440394877603642E-2   1.224103931263415E-1  -9.594153030752266E-2   1.223873548570760E-1  -9.603619078681307E-2  -8.769894401970630E-1  -9.446346072411145E-2  
 6.616098043688679E5    -8.784649277409117E-1  -9.308302021329934E-2   1.218531337581223E-1  -9.453014374662380E-2   1.218655205645065E-1  -9.471343898793871E-2  -8.775494186518078E-1  -9.297161097985007E-2  
 6.751637695410716E5    -8.789492517089321E-1  -9.167553761767021E-2   1.213792630316001E-1  -9.316978895343327E-2   1.214206098734416E-1  -9.335121317413529E-2  -8.780615464987418E-1  -9.166632689379495E-2  
 6.889954058884548E5    -8.796607915126984E-1  -9.023733424694416E-2   1.208998200511824E-1  -9.189708766761226E-2   1.208340245851031E-1  -9.199102184769471E-2  -8.785302440792779E-1  -9.041361089123402E-2  
 7.031104018778642E5    -8.802356399294575E-1  -8.904555804005858E-2   1.203757523631376E-1  -9.056059537707692E-2   1.203991290937064E-1  -9.072821135279793E-2  -8.790315526751225E-1  -8.903633428086888E-2  
 7.175145625120278E5    -8.803921218801808E-1  -8.762849858133737E-2   1.198776204950497E-1  -8.928286853059103E-2   1.199375566375627E-1  -8.937023118851983E-2  -8.796284940457535E-1  -8.791051131884982E-2  
 7.322138117169489E5    -8.808798886235582E-1  -8.653220925094819E-2   1.194632352194334E-1  -8.800308084478266E-2   1.194780681970765E-1  -8.814394607859112E-2  -8.801517104201669E-1  -8.661767136489415E-2  
 7.472141947782085E5    -8.814363069610324E-1  -8.541218917816858E-2   1.189710296562203E-1  -8.677278883663084E-2   1.189382440845516E-1  -8.693725880759182E-2  -8.805241649592671E-1  -8.537497182971318E-2  
 7.625218808271801E5    -8.819860205023868E-1  -8.419897331155403E-2   1.184398709207239E-1  -8.564953479613860E-2   1.184807796495950E-1  -8.574800363358895E-2  -8.810717972723284E-1  -8.398601161586435E-2  
 7.781431653781761E5    -8.824540633998832E-1  -8.306108507456221E-2   1.180450264268269E-1  -8.442103235265303E-2   1.180106653019904E-1  -8.452424331635508E-2  -8.815564470878403E-1  -8.295014906634481E-2  
 7.940844729175728E5    -8.827696106135767E-1  -8.190648884004621E-2   1.175540203467351E-1  -8.334688953840889E-2   1.175658205282929E-1  -8.339451954299068E-2  -8.820299796491800E-1  -8.189977185928346E-2  
 8.103523595459757E5    -8.834738118958555E-1  -8.087870649663045E-2   1.170774383185728E-1  -8.215700414591598E-2   1.170938949880027E-1  -8.223515360050397E-2  -8.823828825938984E-1  -8.073699094848172E-2  
 8.269535156745140E5    -8.836975484133062E-1  -7.967715781249135E-2   1.166446465790240E-1  -8.102692449855176E-2   1.166007845824748E-1  -8.123631623684667E-2  -8.828936369428835E-1  -7.951589615935957E-2  
 8.438947687763721E5    -8.844500251749662E-1  -7.849382543887577E-2   1.161799874324730E-1  -8.003209501425256E-2   1.161843304589094E-1  -8.011276182184540E-2  -8.833593112499976E-1  -7.846273841499049E-2  
 8.611830861946895E5    -8.845560679318022E-1  -7.737750732044096E-2   1.157269980037246E-1  -7.896710804403795E-2   1.157709185726232E-1  -7.905223764346978E-2  -8.837444375616600E-1  -7.751625917265481E-2  
 8.788255780079850E5    -8.852445580796582E-1  -7.638537085060798E-2   1.152808896246826E-1  -7.796464520814733E-2   1.152894978074731E-1  -7.802380233985787E-2  -8.841486717055858E-1  -7.637968293630906E-2  
 8.968294999542822E5    -8.857443778659453E-1  -7.541336656933240E-2   1.148577074963745E-1  -7.689899098517850E-2   1.148193926770104E-1  -7.699420144477841E-2  -8.845924216186583E-1  -7.542983124231713E-2  
 9.152022564151404E5    -8.861211492751175E-1  -7.450359935379497E-2   1.143905598738679E-1  -7.595074493185938E-2   1.143402119544659E-1  -7.606010779388270E-2  -8.851086672392249E-1  -7.430218726018045E-2  
 9.339514034608167E5    -8.865822047689503E-1  -7.346304391043619E-2   1.139728592141618E-1  -7.496540520607585E-2   1.139634179711363E-1  -7.507298608396397E-2  -8.854867852505112E-1  -7.339146894500938E-2  
 9.530846519578132E5    -8.869595332519533E-1  -7.240101761124342E-2   1.135100874610078E-1  -7.406533643102072E-2   1.135019681259753E-1  -7.412942823902807E-2  -8.859351361353316E-1  -7.243703753549002E-2  
 9.726098707400849E5    -8.874360690302096E-1  -7.139601567578918E-2   1.130907679004564E-1  -7.317957749920853E-2   1.130301035307181E-1  -7.316972304473350E-2  -8.864267739596420E-1  -7.153909637240763E-2  
 9.925350898452161E5    -8.878358069608847E-1  -7.077174131015601E-2   1.126530670136806E-1  -7.225413840244016E-2   1.126516646785356E-1  -7.230130469687220E-2  -8.868458040942309E-1  -7.057196523342894E-2  
 1.012868503816893E6    -8.882100717616855E-1  -6.937226212195406E-2   1.123237908374213E-1  -7.129840667905676E-2   1.120942392678277E-1  -7.141311427132834E-2  -8.873608793286456E-1  -6.963245312647091E-2  
 1.033618475075031E6    -8.890736908582333E-1  -6.825973507536683E-2   1.117921818446523E-1  -7.050845891799215E-2   1.116109740077294E-1  -7.050799307775210E-2  -8.877610404490246E-1  -6.819913029217159E-2  
 1.054793537354946E6    -8.889718185638837E-1  -6.802458093764521E-2   1.114292772022822E-1  -6.969225302271864E-2   1.113402720860613E-1  -6.946757783256181E-2  -8.876790094573688E-1  -6.820328902144529E-2  
 1.076402399216980E6    -8.895114496758938E-1  -6.710923249092210E-2   1.108348020158694E-1  -6.879390454418471E-2   1.108619154605475E-1  -6.891767574573854E-2  -8.886959675015564E-1  -6.724245630843048E-2  
 1.098453947628028E6    -8.904694417266189E-1  -6.644300907051411E-2   1.106359776663384E-1  -6.805501585200126E-2   1.104652512047589E-1  -6.806998677302489E-2  -8.889455136324609E-1  -6.631037507468590E-2  
 1.120957251616430E6    -8.907505753552996E-1  -6.513920630880771E-2   1.098637725245688E-1  -6.710254563290985E-2   1.099674698412819E-1  -6.707093094497342E-2  -8.892301878940085E-1  -6.538825409079545E-2  
 1.143921566001752E6    -8.909326423862077E-1  -6.462524391832357E-2   1.095292272011164E-1  -6.662292399052046E-2   1.096225883708448E-1  -6.654312299846084E-2  -8.902360090070817E-1  -6.418288110058915E-2  
 1.167356335200965E6    -8.913711898185733E-1  -6.364295365043840E-2   1.092888139194914E-1  -6.576843716977053E-2   1.092842018782189E-1  -6.568309388344856E-2  -8.904832221585491E-1  -6.340117818339189E-2  
 1.191271197112600E6    -8.915318497426361E-1  -6.259328317298958E-2   1.087969675938364E-1  -6.490293500683013E-2   1.087237701687416E-1  -6.499489832225992E-2  -8.910225881027306E-1  -6.315711123625695E-2  
 1.215675987080482E6    -8.922255243334452E-1  -6.234861726105376E-2   1.083482636860319E-1  -6.411475308203871E-2   1.084150004820589E-1  -6.417527652200938E-2  -8.912870580139407E-1  -6.239668665525824E-2  
 1.240580741938659E6    -8.928129128040580E-1  -6.110795671794144E-2   1.079891166662552E-1  -6.356304246889441E-2   1.078563836160501E-1  -6.346981153618003E-2  -8.916571253854004E-1  -6.140497150534488E-2  
 1.265995704139202E6    -8.931502978195358E-1  -6.066960558613364E-2   1.075752024651097E-1  -6.276704088924423E-2   1.075743082592726E-1  -6.273919663725794E-2  -8.923173986411428E-1  -6.065471201310869E-2  
 1.291931325964563E6    -8.935847636912020E-1  -5.976265040033685E-2   1.070758417887866E-1  -6.205855318909526E-2   1.070991158062697E-1  -6.209590394009962E-2  -8.924814617440576E-1  -6.021934023272814E-2  
 1.318398273826236E6    -8.942206403037509E-1  -5.967423562913126E-2   1.065846888906754E-1  -6.139798043030080E-2   1.067853873556476E-1  -6.130785367888365E-2  -8.926654432848296E-1  -5.935893639610575E-2  
 1.345407432651476E6    -8.939734855521719E-1  -5.859296782153248E-2   1.061940991561441E-1  -6.072507309483458E-2   1.062067157696435E-1  -6.083649340821202E-2  -8.934083763536014E-1  -5.809360694736458E-2  
 1.372969910359885E6    -8.950736536523960E-1  -5.750619264075234E-2   1.058258064231466E-1  -6.005154589229119E-2   1.057048438447358E-1  -6.017352042412420E-2  -8.939413642875072E-1  -5.788196432114947E-2  
 1.401097042431717E6    -8.951677143703097E-1  -5.724081174064363E-2   1.053275206277383E-1  -5.934783695802873E-2   1.054501255813599E-1  -5.955768190547752E-2  -8.941488562828523E-1  -5.725409652193903E-2  
 1.429800396569754E6    -8.956291478302356E-1  -5.662543070189526E-2   1.049698470098783E-1  -5.882136501678422E-2   1.050436508718628E-1  -5.872033677262639E-2  -8.946680268020733E-1  -5.660462160769919E-2  
 1.459091777456705E6    -8.960367746168428E-1  -5.593484421577041E-2   1.045104294244626E-1  -5.815920817820140E-2   1.046076656228159E-1  -5.807118575995134E-2  -8.950416342149418E-1  -5.602912596102651E-2  
 1.488983231610052E6    -8.966079955304174E-1  -5.525763329714363E-2   1.040829847135701E-1  -5.760697859107687E-2   1.041993335189940E-1  -5.762528801076871E-2  -8.956546472625417E-1  -5.521737632604220E-2  
 1.519487052336364E6    -8.968861985515544E-1  -5.395835609428971E-2   1.036532176078260E-1  -5.688336921844037E-2   1.037048095758143E-1  -5.703172825372048E-2  -8.958184526148103E-1  -5.420070897147701E-2  
 1.550615784787099E6    -8.971227812085978E-1  -5.389558353168591E-2   1.032570264963912E-1  -5.632330701807307E-2   1.033850304429370E-1  -5.633910285965090E-2  -8.967604756641580E-1  -5.372421957454242E-2  
 1.582382231117988E6    -8.976477846682393E-1  -5.299304931537306E-2   1.028015104581847E-1  -5.580670993387718E-2   1.029379314456810E-1  -5.578946063131099E-2  -8.967947275840095E-1  -5.322251667486326E-2  
 1.614799455754111E6    -8.984026927963935E-1  -5.247258729730096E-2   1.023133169378082E-1  -5.503740665829623E-2   1.024837758126661E-1  -5.515265508750886E-2  -8.973389650624573E-1  -5.241373947783481E-2  
 1.647880790762838E6    -8.984670338172168E-1  -5.167851773056514E-2   1.019587700542855E-1  -5.466639167104519E-2   1.022489891085712E-1  -5.447744382299552E-2  -8.975452128656826E-1  -5.192156264218698E-2  
 1.681639841336839E6    -8.992212814822215E-1  -5.191131341610840E-2   1.015771697643944E-1  -5.404214803539365E-2   1.015714420323901E-1  -5.398055298176006E-2  -8.982774909581597E-1  -5.147627101406201E-2  
 1.716090491389422E6    -8.995515392066446E-1  -5.103354049614088E-2   1.012109845519687E-1  -5.348190330943405E-2   1.011685934281476E-1  -5.372514167860461E-2  -8.984004157364949E-1  -5.072941062421175E-2  
 1.751246909264502E6    -8.995762331805135E-1  -5.028469977997151E-2   1.006363339799245E-1  -5.293788941064231E-2   1.007866851615103E-1  -5.305787290485695E-2  -8.988672105873178E-1  -5.000130824779828E-2  
 1.787123553563544E6    -8.998434538751898E-1  -4.997985768122578E-2   1.004068499435410E-1  -5.258808348227684E-2   1.004124046429150E-1  -5.238605781234609E-2  -8.995325363559301E-1  -4.971712264534838E-2  
 1.823735179091875E6    -8.999910545461811E-1  -4.901227743852129E-2   9.990080965601221E-2  -5.183139733666729E-2   9.987229195248096E-2  -5.205364726210666E-2  -8.993636269575859E-1  -4.901317715713389E-2  
 1.861096842926821E6    -9.011914495793415E-1  -4.866883822387937E-2   9.935841095326345E-2  -5.152637802504286E-2   9.946400558905932E-2  -5.156387219584671E-2  -8.997287173476187E-1  -4.793351949438038E-2  
 1.899223910610154E6    -9.014963776470689E-1  -4.773971557742306E-2   9.912919641994406E-2  -5.098507767495635E-2   9.908730030475145E-2  -5.112745431124016E-2  -9.007201219748233E-1  -4.769908016516059E-2  
 1.938132062467400E6    -9.015346017941506E-1  -4.760790343378391E-2   9.878373931806728E-2  -5.036256478611713E-2   9.850874995658754E-2  -5.033060708607124E-2  -9.004272062600779E-1  -4.717605557385302E-2  
 1.977837300056607E6    -9.021776305231387E-1  -4.698292701349088E-2   9.828505971050956E-2  -5.001845742864953E-2   9.830905132639260E-2  -4.997354573538373E-2  -9.012198651860833E-1  -4.652201641687716E-2  
