#  HZ   S   RI   R     50 
! Rohde & Schwarz ZVA/B 
! 
! 
! 
 3.000000000000000E5    -9.466003491742194E-1  -2.193300503386925E-1   5.402837028211947E-2  -2.222283585974232E-1   5.456317766816336E-2  -2.230790500109213E-1  -9.447588781157186E-1  -2.196075667193428E-1  
 3.061459028037530E5    -9.482288269933648E-1  -2.159891295800250E-1   5.226444740105759E-2  -2.182992856545585E-1   5.263452704876768E-2  -2.189076619563944E-1  -9.465997705328901E-1  -2.157367590189547E-1  
 3.124177126784167E5    -9.505501860603263E-1  -2.119593029725309E-1   5.040728829696958E-2  -2.142916618907644E-1   5.056705020014892E-2  -2.149395912374151E-1  -9.485336625371506E-1  -2.115105631434886E-1  
 3.188180089993913E5    -9.521722584449488E-1  -2.078831331651690E-1   4.851558841089883E-2  -2.104319020359807E-1   4.862854100066551E-2  -2.110744440661765E-1  -9.504523373485501E-1  -2.078767957853464E-1  
 3.253494239840457E5    -9.540448955929261E-1  -2.044978669504097E-1   4.676568106237375E-2  -2.065005676562308E-1   4.715688308156694E-2  -2.071879577729089E-1  -9.519996670894645E-1  -2.042957157916398E-1  
 3.320146437742557E5    -9.549263295805717E-1  -2.006188180234868E-1   4.517101200459078E-2  -2.025789360280666E-1   4.538605998433993E-2  -2.033234578203116E-1  -9.534328020883938E-1  -2.005829966132490E-1  
 3.388164095411199E5    -9.569280227280689E-1  -1.970373722982876E-1   4.345172433657066E-2  -1.989365465682124E-1   4.365228678628794E-2  -1.996081722692772E-1  -9.550594644748057E-1  -1.967625437962028E-1  
 3.457575186123076E5    -9.584196773863933E-1  -1.931789483068090E-1   4.180887561338514E-2  -1.952454422644874E-1   4.196480009882132E-2  -1.958525276302262E-1  -9.567862165145639E-1  -1.931410049021005E-1  
 3.528408256225012E5    -9.598952745758465E-1  -1.898882744646255E-1   4.045019527639965E-2  -1.916099908700272E-1   4.056474620797612E-2  -1.922875894099251E-1  -9.582212446489505E-1  -1.898340915683756E-1  
 3.600692436874074E5    -9.614828440164922E-1  -1.864238185498442E-1   3.892221862622444E-2  -1.879677766247448E-1   3.900261574000175E-2  -1.886688859531403E-1  -9.595919795494461E-1  -1.861084560684270E-1  
 3.674457456018197E5    -9.628860965436371E-1  -1.827149428236800E-1   3.753700068517716E-2  -1.845553856687252E-1   3.757719429065146E-2  -1.852555832715060E-1  -9.610426284917223E-1  -1.828446612974477E-1  
 3.749733650622242E5    -9.639550036616345E-1  -1.790862182947653E-1   3.614117270699060E-2  -1.810614574168636E-1   3.614861925354986E-2  -1.816506217457364E-1  -9.623808933961000E-1  -1.795221649093688E-1  
 3.826551979144529E5    -9.653511380025632E-1  -1.761952042076251E-1   3.496924515875823E-2  -1.776035289015605E-1   3.483417186582817E-2  -1.781586453913308E-1  -9.636736948738622E-1  -1.759659912150066E-1  
 3.904944034268967E5    -9.667953471213238E-1  -1.727733581901468E-1   3.370161805738444E-2  -1.744329549421892E-1   3.356430843289619E-2  -1.748701454943780E-1  -9.651514043399682E-1  -1.730440757107637E-1  
 3.984942055898008E5    -9.679117676721823E-1  -1.694281710956686E-1   3.246530754616574E-2  -1.710877250309786E-1   3.232250481248271E-2  -1.715616441751228E-1  -9.661251823622412E-1  -1.697848323246798E-1  
 4.066578944411798E5    -9.689467102751626E-1  -1.662243999949085E-1   3.125002829384235E-2  -1.678578548048015E-1   3.120037804387274E-2  -1.683603397431225E-1  -9.675758438853700E-1  -1.666412731677065E-1  
 4.149888274198943E5    -9.701524337159649E-1  -1.633460299620956E-1   3.019832562890215E-2  -1.646796138940269E-1   3.006832946946608E-2  -1.651288365737431E-1  -9.684870407241372E-1  -1.634219968375811E-1  
 4.234904307464480E5    -9.710735776955474E-1  -1.598386980356877E-1   2.912229428749534E-2  -1.615540680383814E-1   2.899232011747061E-2  -1.619599451083405E-1  -9.696831078082986E-1  -1.602733987088046E-1  
 4.321662008320720E5    -9.720689915233156E-1  -1.569076849028061E-1   2.807856858597268E-2  -1.584376627363471E-1   2.795076517796444E-2  -1.588655645480206E-1  -9.707117847513336E-1  -1.573980740010792E-1  
 4.410197057166757E5    -9.730293535552331E-1  -1.542677285901150E-1   2.708022226259514E-2  -1.555014075644577E-1   2.700460055155539E-2  -1.558413306512466E-1  -9.717801191549074E-1  -1.542754005175364E-1  
 4.500545865362572E5    -9.741028672431502E-1  -1.511312455737597E-1   2.608956501016223E-2  -1.525163568532324E-1   2.600794614262093E-2  -1.527964365870652E-1  -9.726139739344921E-1  -1.514501064420071E-1  
 4.592745590203743E5    -9.751369907499473E-1  -1.484107730561412E-1   2.522720560308265E-2  -1.495766745322048E-1   2.513014103572717E-2  -1.499675503045888E-1  -9.736438282897826E-1  -1.485241394227639E-1  
 4.686834150202934E5    -9.760990314210187E-1  -1.455312815843505E-1   2.438373456770602E-2  -1.467195602306660E-1   2.417699336085623E-2  -1.470606859874033E-1  -9.746531199869351E-1  -1.454909430799147E-1  
 4.782850240684460E5    -9.767514283738870E-1  -1.428240159721148E-1   2.348678073026186E-2  -1.439308312510804E-1   2.331262564817981E-2  -1.442743156664862E-1  -9.754598368085060E-1  -1.427467646606248E-1  
 4.880833349698305E5    -9.776636661228304E-1  -1.398448632998982E-1   2.274211642876850E-2  -1.411743146787010E-1   2.252575439429867E-2  -1.413287472462465E-1  -9.763101937753539E-1  -1.403021260886906E-1  
 4.980823774260179E5    -9.785941236578228E-1  -1.373261337715476E-1   2.185945656016927E-2  -1.384794119335450E-1   2.177039758727442E-2  -1.387753763989468E-1  -9.773854155605417E-1  -1.374428845591457E-1  
 5.082862636924264E5    -9.792491660663765E-1  -1.348036370722436E-1   2.116289643523264E-2  -1.358577422049840E-1   2.087942201373322E-2  -1.360436267378253E-1  -9.781917828013598E-1  -1.348391004548482E-1  
 5.186991902695479E5    -9.800716077138785E-1  -1.322312556926899E-1   2.038071596259205E-2  -1.332474449710685E-1   2.023975237859690E-2  -1.334003011890604E-1  -9.788287847877953E-1  -1.322648345476019E-1  
 5.293254396288213E5    -9.808164436141371E-1  -1.294241086382181E-1   1.967438487883185E-2  -1.306881431631602E-1   1.948116234959982E-2  -1.308066552577663E-1  -9.795290154684581E-1  -1.296342235107991E-1  
 5.401693819738632E5    -9.813186213520121E-1  -1.268827798889373E-1   1.899722113995660E-2  -1.281787722549505E-1   1.885713668713157E-2  -1.283660794396196E-1  -9.801371866911646E-1  -1.271124216794992E-1  
 5.512354770377789E5    -9.820116287828595E-1  -1.244509747974523E-1   1.837954561543665E-2  -1.256836537537418E-1   1.820364416299648E-2  -1.257919759224117E-1  -9.808807677119025E-1  -1.247839551735435E-1  
 5.625282759172944E5    -9.825778359585893E-1  -1.223057899364267E-1   1.771445255730193E-2  -1.233047518407845E-1   1.763505543618944E-2  -1.233912330304550E-1  -9.814005082128158E-1  -1.225249582428147E-1  
 5.740524229444626E5    -9.833061655667836E-1  -1.196918554267348E-1   1.705622651769220E-2  -1.208666928473326E-1   1.696912002232995E-2  -1.210156958646654E-1  -9.822268467276238E-1  -1.198382482795481E-1  
 5.858126575967147E5    -9.838007289725300E-1  -1.172948224830692E-1   1.647621178138264E-2  -1.185613567801322E-1   1.636501642656642E-2  -1.186821828164183E-1  -9.829300102231648E-1  -1.176626697415538E-1  
 5.978138164460403E5    -9.843676823771200E-1  -1.150297607761673E-1   1.591929395311612E-2  -1.161903317473980E-1   1.583144803936026E-2  -1.163610852786749E-1  -9.834877639058303E-1  -1.153164875690818E-1  
 6.100608351481004E5    -9.851079029893742E-1  -1.130120640302849E-1   1.541361768470691E-2  -1.140589655119192E-1   1.526575351094628E-2  -1.141011456896859E-1  -9.840371127511135E-1  -1.130162429309620E-1  
 6.225587504720892E5    -9.854897734925788E-1  -1.107309042337190E-1   1.491180390954745E-2  -1.117303416023554E-1   1.477711102830085E-2  -1.118156453998799E-1  -9.843910827738066E-1  -1.107107193551934E-1  
 6.353127023721805E5    -9.860467240958609E-1  -1.081593413191562E-1   1.431529953370585E-2  -1.095768307381003E-1   1.423032982667693E-2  -1.097148410040741E-1  -9.850453548218980E-1  -1.085124930977451E-1  
 6.483279361014109E5    -9.866476246035850E-1  -1.064746801048371E-1   1.385824775009659E-2  -1.074578086268241E-1   1.380923095891868E-2  -1.075872706383636E-1  -9.855992643567352E-1  -1.063767307429267E-1  
 6.616098043688679E5    -9.870758127197374E-1  -1.042261293896796E-1   1.337920160099746E-2  -1.054026151976577E-1   1.329466949056356E-2  -1.055157325593366E-1  -9.860201932362636E-1  -1.041833403351366E-1  
 6.751637695410716E5    -9.875522450186061E-1  -1.022603775864379E-1   1.293751635373556E-2  -1.034015875143017E-1   1.286120948761372E-2  -1.034460040866078E-1  -9.863342061457705E-1  -1.023224390433691E-1  
 6.889954058884548E5    -9.881166027398058E-1  -1.000825319888484E-1   1.249038576875652E-2  -1.013620200360075E-1   1.243432353091519E-2  -1.014194496027832E-1  -9.869136728887242E-1  -1.002673840087053E-1  
 7.031104018778642E5    -9.885283533465008E-1  -9.822107055782228E-2   1.201714996480856E-2  -9.936056114701346E-2   1.201475228310416E-2  -9.942852771206091E-2  -9.873219399204789E-1  -9.831110234335079E-2  
 7.175145625120278E5    -9.887658602530045E-1  -9.629004859483582E-2   1.162183679161669E-2  -9.746086392525617E-2   1.155446113977474E-2  -9.750543862428601E-2  -9.878278657753639E-1  -9.628548903424201E-2  
 7.322138117169489E5    -9.891388288823309E-1  -9.424334071098543E-2   1.125724424853710E-2  -9.553646052600566E-2   1.122626557098832E-2  -9.561046710095922E-2  -9.881564386538042E-1  -9.450767429493552E-2  
 7.472141947782085E5    -9.895741766609894E-1  -9.272897069634330E-2   1.092206383829990E-2  -9.367203374543766E-2   1.079254044523741E-2  -9.372734015601640E-2  -9.884656988742264E-1  -9.242628130376161E-2  
 7.625218808271801E5    -9.900401871916493E-1  -9.079449060270169E-2   1.054462057007233E-2  -9.189147273952639E-2   1.046555431669992E-2  -9.186976218082528E-2  -9.889443263297298E-1  -9.051630117182295E-2  
 7.781431653781761E5    -9.904118353284360E-1  -8.895764535093440E-2   1.015376913570007E-2  -9.004177798944853E-2   1.008293237990555E-2  -9.003485980557553E-2  -9.893864765514192E-1  -8.867477077482230E-2  
 7.940844729175728E5    -9.906579974346880E-1  -8.684955374356528E-2   9.786672516235946E-3  -8.826582929105718E-2   9.747401539805621E-3  -8.829315583170468E-2  -9.897312666375177E-1  -8.704656753108231E-2  
 8.103523595459757E5    -9.910343981728496E-1  -8.553227777462746E-2   9.509399560527997E-3  -8.659819385488961E-2   9.394757525501212E-3  -8.661958355082461E-2  -9.898431648153914E-1  -8.531275236944445E-2  
 8.269535156745140E5    -9.912987479060353E-1  -8.360012844848871E-2   9.139455379704602E-3  -8.490408927968225E-2   9.102784520141615E-3  -8.490272405351838E-2  -9.901244138543739E-1  -8.368635474199279E-2  
 8.438947687763721E5    -9.918853877732666E-1  -8.205678158183817E-2   8.900037085740593E-3  -8.320398815553130E-2   8.887849230008887E-3  -8.325938078835046E-2  -9.905830167166895E-1  -8.188954819832525E-2  
 8.611830861946895E5    -9.920726179596233E-1  -8.017175384729576E-2   8.568005435572196E-3  -8.159341749186778E-2   8.550107694915451E-3  -8.158688890569206E-2  -9.908368306386945E-1  -8.017937265757016E-2  
 8.788255780079850E5    -9.923849388344973E-1  -7.862488462863494E-2   8.234960313009137E-3  -7.993085410168431E-2   8.224919821480846E-3  -8.002294174126093E-2  -9.912460764104873E-1  -7.850382189282379E-2  
 8.968294999542822E5    -9.926786534506288E-1  -7.712518889196475E-2   7.977078289825666E-3  -7.841132035053339E-2   7.909941841340846E-3  -7.840978178535116E-2  -9.913313586181743E-1  -7.709557835943259E-2  
 9.152022564151404E5    -9.927132095291860E-1  -7.547489573293284E-2   7.714433461609153E-3  -7.686440701896033E-2   7.711845702698089E-3  -7.684901470141070E-2  -9.916540637214600E-1  -7.540308454102818E-2  
 9.339514034608167E5    -9.930677318131601E-1  -7.404213333654403E-2   7.548320986271433E-3  -7.535541207424717E-2   7.442033895975471E-3  -7.535657869477430E-2  -9.919113306005334E-1  -7.381824263991871E-2  
 9.530846519578132E5    -9.933549729034001E-1  -7.228813394272654E-2   7.193707866596863E-3  -7.385000658960596E-2   7.192012810586507E-3  -7.389945638927753E-2  -9.922195066749653E-1  -7.233032049377525E-2  
 9.726098707400849E5    -9.936566263912374E-1  -7.092785239006445E-2   6.986463051220132E-3  -7.236484226327151E-2   6.962822319778690E-3  -7.243115585242348E-2  -9.923776818914166E-1  -7.093720185720751E-2  
 9.925350898452161E5    -9.938943489680381E-1  -6.966403065815846E-2   6.780634453652866E-3  -7.099940905315028E-2   6.740796554186637E-3  -7.098658704748800E-2  -9.926960408845018E-1  -6.942244891738722E-2  
 1.012868503816893E6    -9.939193291424922E-1  -6.806586287726853E-2   6.678000568295950E-3  -6.950964548706455E-2   6.634615544367064E-3  -6.948209459684757E-2  -9.929632261106285E-1  -6.809954516305013E-2  
 1.033618475075031E6    -9.942376304262519E-1  -6.596987944222219E-2   6.323527899847489E-3  -6.805349980448118E-2   6.365349759328332E-3  -6.834887630773275E-2  -9.929832372071432E-1  -6.637295070473902E-2  
 1.054793537354946E6    -9.942052675313255E-1  -6.519857060207168E-2   5.949455528403322E-3  -6.679344939898234E-2   6.055483290654156E-3  -6.672667384806263E-2  -9.935396590810678E-1  -6.546833698026447E-2  
 1.076402399216980E6    -9.947848540339740E-1  -6.349546793185593E-2   5.926287076604386E-3  -6.550775187863082E-2   6.046432311770802E-3  -6.538677412680564E-2  -9.935080513213388E-1  -6.433800907928094E-2  
 1.098453947628028E6    -9.949105394450003E-1  -6.232507612504089E-2   5.733147729026366E-3  -6.433806547672881E-2   5.874913597549441E-3  -6.433408837503166E-2  -9.938307717703531E-1  -6.242961280494154E-2  
 1.120957251616430E6    -9.952560642821247E-1  -6.084728541823940E-2   5.455366464615824E-3  -6.291738085960509E-2   5.552485018893649E-3  -6.304660080017671E-2  -9.939764077852812E-1  -6.114623284644525E-2  
 1.143921566001752E6    -9.951388552057043E-1  -5.988807457022995E-2   5.385154045741800E-3  -6.169183056056761E-2   5.549043788055916E-3  -6.181096795442199E-2  -9.943620368005463E-1  -5.955186593649338E-2  
 1.167356335200965E6    -9.951292934100194E-1  -5.802731000002764E-2   5.106547606239098E-3  -6.053402185590909E-2   5.143196476759839E-3  -6.059353206109226E-2  -9.942480792499303E-1  -5.842823176152850E-2  
 1.191271197112600E6    -9.956377559822783E-1  -5.733152661425711E-2   5.160752188782758E-3  -5.923153282517736E-2   4.955086125231489E-3  -5.933657431109302E-2  -9.943479377144135E-1  -5.726511254108397E-2  
 1.215675987080482E6    -9.955445184783902E-1  -5.657154949158481E-2   4.902524781801064E-3  -5.810230111623682E-2   4.890990554005910E-3  -5.818188565583577E-2  -9.947266052459242E-1  -5.615354439726399E-2  
 1.240580741938659E6    -9.958561599410314E-1  -5.504536121823526E-2   4.752986333341635E-3  -5.688628735852477E-2   4.722762483318613E-3  -5.701029252022115E-2  -9.948791028347663E-1  -5.533408519069545E-2  
 1.265995704139202E6    -9.963866693520794E-1  -5.363265423912714E-2   4.522805169447883E-3  -5.585530779457880E-2   4.563463597999471E-3  -5.578590697771155E-2  -9.945624408847253E-1  -5.376628231672381E-2  
 1.291931325964563E6    -9.960699974030398E-1  -5.292281010975694E-2   4.440678015187259E-3  -5.467950600718137E-2   4.475146714516102E-3  -5.483802691951468E-2  -9.950648042386655E-1  -5.297551260300683E-2  
 1.318398273826236E6    -9.966790441929544E-1  -5.136588807767101E-2   4.270789386438430E-3  -5.375438581717097E-2   4.438698873663743E-3  -5.368738071335677E-2  -9.949944395573536E-1  -5.201289008387468E-2  
 1.345407432651476E6    -9.958928128178999E-1  -5.013538511148691E-2   4.205049851670513E-3  -5.266221287917922E-2   4.133495101910275E-3  -5.258100007806860E-2  -9.953003625568042E-1  -4.980900916776378E-2  
 1.372969910359885E6    -9.969717037760615E-1  -4.957728476506502E-2   3.982688641652007E-3  -5.158487811370829E-2   4.144418137706567E-3  -5.155406442496523E-2  -9.951947740731540E-1  -4.920895632033421E-2  
 1.401097042431717E6    -9.960992295113059E-1  -4.862513893303965E-2   3.918926299359753E-3  -5.046195702411271E-2   3.892354341404284E-3  -5.061903259180967E-2  -9.956470349352857E-1  -4.821603786272827E-2  
 1.429800396569754E6    -9.971744888286560E-1  -4.745620792769402E-2   3.680805956583318E-3  -4.945340305881158E-2   3.841984835305181E-3  -4.940489485084887E-2  -9.959791755275257E-1  -4.739165011377164E-2  
 1.459091777456705E6    -9.968713621286389E-1  -4.645777014083777E-2   3.623735408753413E-3  -4.849598247609625E-2   3.641636178334749E-3  -4.854317674534694E-2  -9.961646467563695E-1  -4.618570735146511E-2  
 1.488983231610052E6    -9.970307801164242E-1  -4.551327532126157E-2   3.604534331596942E-3  -4.757840506710830E-2   3.529243295208002E-3  -4.760013419972257E-2  -9.960760535408326E-1  -4.493413840781871E-2  
 1.519487052336364E6    -9.967771839519315E-1  -4.436942052876926E-2   3.457293296444760E-3  -4.654500820371618E-2   3.447801380516145E-3  -4.650569868389141E-2  -9.960927911697108E-1  -4.439248224490248E-2  
 1.550615784787099E6    -9.976528216935365E-1  -4.347441265838604E-2   3.335086980785360E-3  -4.570384272244996E-2   3.487352349578580E-3  -4.572367880067734E-2  -9.961897373575130E-1  -4.311052741941703E-2  
 1.582382231117988E6    -9.974560309422590E-1  -4.175160483477497E-2   3.234859357148643E-3  -4.468413200592969E-2   3.284567439696707E-3  -4.477006850698440E-2  -9.966373606721286E-1  -4.225190740120183E-2  
 1.614799455754111E6    -9.970313755511564E-1  -4.098055194885933E-2   3.122058013205409E-3  -4.381576552958096E-2   3.254026380174602E-3  -4.391103569882495E-2  -9.965294579930349E-1  -4.100718449903887E-2  
 1.647880790762838E6    -9.980521012400577E-1  -4.049343443947904E-2   3.160527300720770E-3  -4.305564365419546E-2   3.106108887306768E-3  -4.291884887834919E-2  -9.962166105024424E-1  -4.027107312429432E-2  
 1.681639841336839E6    -9.976306628371660E-1  -3.980541367000506E-2   3.053064040870313E-3  -4.216211132514511E-2   3.213432612844261E-3  -4.203850891915054E-2  -9.969433149987218E-1  -3.990469325409996E-2  
 1.716090491389422E6    -9.981332668563633E-1  -3.898873194661216E-2   3.058477960180087E-3  -4.142045273000563E-2   2.808444661261678E-3  -4.128468797138760E-2  -9.964642689657293E-1  -3.881034563746302E-2  
 1.751246909264502E6    -9.972837402101435E-1  -3.802218857896575E-2   2.880782132086181E-3  -4.037130911892317E-2   2.851453678942931E-3  -4.050727206286594E-2  -9.970359706958103E-1  -3.748499497609095E-2  
 1.787123553563544E6    -9.974301097211100E-1  -3.686887391377850E-2   2.745252926899538E-3  -3.968469485583773E-2   2.895031849671845E-3  -3.960560935180339E-2  -9.973279845972145E-1  -3.658005953985755E-2  
 1.823735179091875E6    -9.976794201250705E-1  -3.596781405710783E-2   2.723174849664461E-3  -3.893489060659813E-2   2.660117867472022E-3  -3.877474609796806E-2  -9.965949913451511E-1  -3.567161484899619E-2  
 1.861096842926821E6    -9.984318750643799E-1  -3.523467254248239E-2   2.706728359419033E-3  -3.794194127011538E-2   2.617210339709852E-3  -3.802418817854446E-2  -9.970002011746357E-1  -3.470888607046937E-2  
 1.899223910610154E6    -9.983333434683245E-1  -3.404006885192114E-2   2.503497040250380E-3  -3.730246005921192E-2   2.641206067967893E-3  -3.724059628444726E-2  -9.972925343935050E-1  -3.413858928325443E-2  
 1.938132062467400E6    -9.979525912146868E-1  -3.353001344231361E-2   2.538407259971585E-3  -3.652080877566922E-2   2.609528201665465E-3  -3.653615986113072E-2  -9.969842948319867E-1  -3.322473046913903E-2  
 1.977837300056607E6    -9.979567098943960E-1  -3.271243645118038E-2   2.421572847948637E-3  -3.590674650221626E-2   2.419148514522522E-3  -3.586733128141542E-2  -9.972663455169957E-1  -3.258701300939726E-2  
