#  HZ   S   RI   R     50 
! Rohde & Schwarz ZVA/B 
! 
! 
! 
 3.000000000000000E5    -9.555413025013413E-1  -2.034109456637660E-1   4.507118634216354E-2  -2.060528928886093E-1   4.552329595816341E-2  -2.068051132913113E-1  -9.536729793207380E-1  -2.037167524500965E-1  
 3.061459028037530E5    -9.570472421619558E-1  -1.999692337375011E-1   4.350689498931141E-2  -2.022920955450561E-1   4.389048629328016E-2  -2.028146047134087E-1  -9.551648142949429E-1  -1.998120574279465E-1  
 3.124177126784167E5    -9.584492037486896E-1  -1.965481825965451E-1   4.207015196292657E-2  -1.983845229492651E-1   4.227155050498940E-2  -1.991364639628893E-1  -9.569870071549791E-1  -1.961825650210354E-1  
 3.188180089993913E5    -9.601816027433978E-1  -1.925021602803308E-1   4.045587780904141E-2  -1.947858510833095E-1   4.067456929445830E-2  -1.952623922111869E-1  -9.581782141768259E-1  -1.926268413188089E-1  
 3.253494239840457E5    -9.618019760240896E-1  -1.890672127551596E-1   3.893037846843642E-2  -1.910755922456787E-1   3.924303049004116E-2  -1.917440420634731E-1  -9.597719169524883E-1  -1.889038300667005E-1  
 3.320146437742557E5    -9.629303407433311E-1  -1.856029601729606E-1   3.762247993997981E-2  -1.874184044171203E-1   3.781556863399666E-2  -1.880334989756773E-1  -9.610817142563864E-1  -1.855358632193400E-1  
 3.388164095411199E5    -9.641619725353827E-1  -1.824122440771456E-1   3.637180623691189E-2  -1.837300400265411E-1   3.633270781874699E-2  -1.844349855563456E-1  -9.623944525215089E-1  -1.819961498493749E-1  
 3.457575186123076E5    -9.653891051433778E-1  -1.782760719558194E-1   3.485662404811409E-2  -1.803413647606396E-1   3.498498818501705E-2  -1.810263384104079E-1  -9.637362387356943E-1  -1.783237405438890E-1  
 3.528408256225012E5    -9.663575554920758E-1  -1.753149140104389E-1   3.370804036552463E-2  -1.767312805756027E-1   3.373541601527764E-2  -1.775511391761021E-1  -9.648736534601311E-1  -1.751400573130111E-1  
 3.600692436874074E5    -9.680361298645895E-1  -1.719388003495931E-1   3.248275511775525E-2  -1.736085799785695E-1   3.251852641971718E-2  -1.741565981842569E-1  -9.662935081539137E-1  -1.718785386205441E-1  
 3.674457456018197E5    -9.688709416031585E-1  -1.685200089828366E-1   3.138685561146119E-2  -1.701136506497660E-1   3.134238849649893E-2  -1.708130045383621E-1  -9.671742316453101E-1  -1.686445232172403E-1  
 3.749733650622242E5    -9.702597267327056E-1  -1.652357918973144E-1   3.027472893791522E-2  -1.668683993238226E-1   3.021719263504247E-2  -1.673953107459789E-1  -9.683083861715988E-1  -1.656348165579576E-1  
 3.826551979144529E5    -9.711464757880733E-1  -1.620532034356896E-1   2.914136969282285E-2  -1.636831643022961E-1   2.900866342861172E-2  -1.642819628815318E-1  -9.694400846635318E-1  -1.623303195932032E-1  
 3.904944034268967E5    -9.722518101832707E-1  -1.591963844151215E-1   2.819037295016445E-2  -1.605523668311077E-1   2.808110626857630E-2  -1.610893287842158E-1  -9.706025096643672E-1  -1.595771049477564E-1  
 3.984942055898008E5    -9.734599500585920E-1  -1.558146764546642E-1   2.718183325707935E-2  -1.575072732650708E-1   2.706938256828658E-2  -1.579838035653680E-1  -9.715495601850774E-1  -1.563003199587543E-1  
 4.066578944411798E5    -9.743062042719477E-1  -1.530713499922406E-1   2.625230165361029E-2  -1.544990426894128E-1   2.619601193762364E-2  -1.549052076667090E-1  -9.726923808442632E-1  -1.536272546368411E-1  
 4.149888274198943E5    -9.752217814234294E-1  -1.500382298124920E-1   2.528032305541731E-2  -1.513989902799876E-1   2.525933537054752E-2  -1.518982712338169E-1  -9.734532686386861E-1  -1.502916604930301E-1  
 4.234904307464480E5    -9.756509910089870E-1  -1.471225189612421E-1   2.442019480962989E-2  -1.485344773478459E-1   2.431588874501710E-2  -1.488781990724855E-1  -9.743478465780531E-1  -1.473638855238089E-1  
 4.321662008320720E5    -9.768755199204277E-1  -1.443207261689387E-1   2.366422542664190E-2  -1.456887993660872E-1   2.348592752770860E-2  -1.459300700427061E-1  -9.752958113482473E-1  -1.446780776341273E-1  
 4.410197057166757E5    -9.773414128096738E-1  -1.413473071209921E-1   2.281626840775402E-2  -1.428286196017351E-1   2.269109686253904E-2  -1.431002682958233E-1  -9.760556944725716E-1  -1.417033058296931E-1  
 4.500545865362572E5    -9.783768540125185E-1  -1.387189219386889E-1   2.199974243391820E-2  -1.400459271263342E-1   2.189523834286553E-2  -1.403600669338475E-1  -9.769801847653012E-1  -1.390052975004981E-1  
 4.592745590203743E5    -9.794125684715630E-1  -1.361684843503311E-1   2.122822510605185E-2  -1.372939394775516E-1   2.113247583665119E-2  -1.376256030139921E-1  -9.775663075869706E-1  -1.363833354367081E-1  
 4.686834150202934E5    -9.797111288852933E-1  -1.333559001278062E-1   2.049131867627528E-2  -1.345756132919435E-1   2.030740259203691E-2  -1.349422851639873E-1  -9.784801440631541E-1  -1.336463694383012E-1  
 4.782850240684460E5    -9.806243033405292E-1  -1.307605943331791E-1   1.981676948663937E-2  -1.320191868256318E-1   1.974678161041902E-2  -1.322563863040902E-1  -9.792170745882362E-1  -1.309126432504320E-1  
 4.880833349698305E5    -9.809773915919401E-1  -1.281325959464636E-1   1.918827140941400E-2  -1.293457976128957E-1   1.911952128558053E-2  -1.296189177696540E-1  -9.798110957485615E-1  -1.286252309940654E-1  
 4.980823774260179E5    -9.819501423797575E-1  -1.259025208557230E-1   1.858607063209626E-2  -1.269769552356805E-1   1.842551610318483E-2  -1.270579801642421E-1  -9.805428366332404E-1  -1.260174913514807E-1  
 5.082862636924264E5    -9.823136679306421E-1  -1.231782302612824E-1   1.791296691674635E-2  -1.243130328692046E-1   1.787858212208304E-2  -1.246236460551828E-1  -9.812303510884856E-1  -1.234270631568745E-1  
 5.186991902695479E5    -9.830508167470748E-1  -1.210434068129415E-1   1.740246086080468E-2  -1.219603247450156E-1   1.729866014165907E-2  -1.221893750124153E-1  -9.817967961693846E-1  -1.211620911517726E-1  
 5.293254396288213E5    -9.836090096677108E-1  -1.183206578183820E-1   1.681800990186993E-2  -1.196593744384725E-1   1.668353295018640E-2  -1.197430923658072E-1  -9.824457021185609E-1  -1.186726316374063E-1  
 5.401693819738632E5    -9.842215003858672E-1  -1.160811494993313E-1   1.624474706568030E-2  -1.173082086078521E-1   1.617332796780092E-2  -1.173820616660950E-1  -9.828486216989150E-1  -1.162803042573022E-1  
 5.512354770377789E5    -9.845209359937525E-1  -1.138539925677728E-1   1.575414851012798E-2  -1.150038770003005E-1   1.563240591334971E-2  -1.151415120381527E-1  -9.836187824054996E-1  -1.140871768050578E-1  
 5.625282759172944E5    -9.851594643595689E-1  -1.118253827601466E-1   1.528867554078225E-2  -1.126952744182761E-1   1.517599894189339E-2  -1.128834909551573E-1  -9.839771297351689E-1  -1.118342838864377E-1  
 5.740524229444626E5    -9.855916053195922E-1  -1.094286087613227E-1   1.477671441799830E-2  -1.104730599643282E-1   1.468139919174932E-2  -1.105623110458989E-1  -9.843238410593482E-1  -1.095312815939029E-1  
 5.858126575967147E5    -9.859849368252165E-1  -1.069566691427100E-1   1.418937733360300E-2  -1.083179032845598E-1   1.423213991258914E-2  -1.084101136933651E-1  -9.849977274711169E-1  -1.074204950519244E-1  
 5.978138164460403E5    -9.867424589681412E-1  -1.050818585671565E-1   1.384410537518130E-2  -1.062125866889119E-1   1.373994995052063E-2  -1.063500881043273E-1  -9.855887091687595E-1  -1.053098533938566E-1  
 6.100608351481004E5    -9.870307319881164E-1  -1.030338248152531E-1   1.337356955992255E-2  -1.041217371416545E-1   1.332945205785753E-2  -1.042115501987510E-1  -9.860530365364436E-1  -1.030609912297292E-1  
 6.225587504720892E5    -9.872885461968369E-1  -1.008235956935000E-1   1.296117348923509E-2  -1.020399156460726E-1   1.289034581460851E-2  -1.020973965600813E-1  -9.862662505255118E-1  -1.010048432941537E-1  
 6.353127023721805E5    -9.877777021964637E-1  -9.873988687642576E-2   1.255815208227976E-2  -1.000276101006669E-1   1.248996910531029E-2  -1.001038324061019E-1  -9.866763304698166E-1  -9.897813382587817E-2  
 6.483279361014109E5    -9.882877171410233E-1  -9.698443383290796E-2   1.213635224213532E-2  -9.807556812252251E-2   1.216137126329107E-2  -9.815989501813693E-2  -9.871345438408081E-1  -9.698457196078043E-2  
 6.616098043688679E5    -9.886517741796992E-1  -9.499773501476413E-2   1.179437199070017E-2  -9.610279695281872E-2   1.176287059253306E-2  -9.623278976979162E-2  -9.874629145346248E-1  -9.517461719170135E-2  
 6.751637695410716E5    -9.889177981855308E-1  -9.315749502667453E-2   1.147979103218735E-2  -9.417336726012224E-2   1.140114469496570E-2  -9.428583186093326E-2  -9.878407467690167E-1  -9.312740330348028E-2  
 6.889954058884548E5    -9.892379272946694E-1  -9.105387335688688E-2   1.120395494485965E-2  -9.237762703017260E-2   1.111773774287029E-2  -9.240376578901788E-2  -9.881021130068995E-1  -9.143003585541742E-2  
 7.031104018778642E5    -9.899903599057244E-1  -8.949563710012989E-2   1.082714667571962E-2  -9.055685920466719E-2   1.072022507536068E-2  -9.064606951292280E-2  -9.884579666862360E-1  -8.949935169140552E-2  
 7.175145625120278E5    -9.899928917504197E-1  -8.753791641586614E-2   1.045369449840539E-2  -8.876268441390918E-2   1.040054792504911E-2  -8.884944406088861E-2  -9.890040347197335E-1  -8.770723995512748E-2  
 7.322138117169489E5    -9.904398964638896E-1  -8.585601273791253E-2   1.016410920876036E-2  -8.705355814128454E-2   1.009816853188348E-2  -8.705473372931641E-2  -9.893824738570889E-1  -8.612418099285933E-2  
 7.472141947782085E5    -9.905743176619690E-1  -8.418169171614527E-2   9.857130042840523E-3  -8.531310548426760E-2   9.767022940176087E-3  -8.534467125131172E-2  -9.894937977243629E-1  -8.412314365982788E-2  
 7.625218808271801E5    -9.908859321914499E-1  -8.236358886799215E-2   9.616667968596912E-3  -8.365497716019570E-2   9.528559122651700E-3  -8.368087372579738E-2  -9.899071194665714E-1  -8.222641856066015E-2  
 7.781431653781761E5    -9.911244916220999E-1  -8.083260384245586E-2   9.302883209000867E-3  -8.196402524298249E-2   9.280511643520223E-3  -8.204515174718087E-2  -9.902042323461049E-1  -8.069402957110902E-2  
 7.940844729175728E5    -9.915579937021188E-1  -7.910028581325189E-2   8.999661769911389E-3  -8.027633889093822E-2   9.029311802364317E-3  -8.034340311980083E-2  -9.903428848945715E-1  -7.920188045307235E-2  
 8.103523595459757E5    -9.916890591134502E-1  -7.763484495226164E-2   8.771184529945988E-3  -7.874389738721471E-2   8.759261444953122E-3  -7.882552574162502E-2  -9.906203250044615E-1  -7.749381251972891E-2  
 8.269535156745140E5    -9.920019976247301E-1  -7.598629326757106E-2   8.592090311624072E-3  -7.716926978422399E-2   8.499164406960087E-3  -7.717945161496166E-2  -9.909134513781577E-1  -7.592694906348359E-2  
 8.438947687763721E5    -9.922971498600833E-1  -7.436185576166152E-2   8.342113893999836E-3  -7.567292581476948E-2   8.270742686293825E-3  -7.567995114227030E-2  -9.910776625480554E-1  -7.421068568745791E-2  
 8.611830861946895E5    -9.925714995481504E-1  -7.264700238616505E-2   8.092058910498703E-3  -7.415617579679461E-2   8.043622558508497E-3  -7.418396399703381E-2  -9.912787174936715E-1  -7.279763088016858E-2  
 8.788255780079850E5    -9.928319287469569E-1  -7.127738819521860E-2   7.881581883696261E-3  -7.268303794911450E-2   7.878156933026242E-3  -7.270934786775614E-2  -9.913730470835636E-1  -7.140277015951763E-2  
 8.968294999542822E5    -9.928274872808299E-1  -6.983846956622519E-2   7.664692163967660E-3  -7.122723815386184E-2   7.633534022534290E-3  -7.124570100452232E-2  -9.916092479331258E-1  -6.999160206439606E-2  
 9.152022564151404E5    -9.933008318063050E-1  -6.837503527099681E-2   7.449995022384571E-3  -6.985547031536769E-2   7.450959908918232E-3  -6.981212589552488E-2  -9.919413472049556E-1  -6.835091847679309E-2  
 9.339514034608167E5    -9.935038986815397E-1  -6.683328091583379E-2   7.235156954870235E-3  -6.842803849422456E-2   7.292605026381455E-3  -6.848598816573122E-2  -9.921759802417600E-1  -6.693608752113535E-2  
 9.530846519578132E5    -9.936831047584906E-1  -6.541979331358595E-2   7.073108243618990E-3  -6.705158651132381E-2   7.106425610993544E-3  -6.710216546475736E-2  -9.923736306619948E-1  -6.568987180236469E-2  
 9.726098707400849E5    -9.937295497445300E-1  -6.417521682822733E-2   6.910194656683762E-3  -6.573852535422974E-2   6.922137219000319E-3  -6.575912577410779E-2  -9.926378992941976E-1  -6.426264350030407E-2  
 9.925350898452161E5    -9.938420574792285E-1  -6.304468738810802E-2   6.716079914432439E-3  -6.446227291486602E-2   6.700833276687874E-3  -6.444651058416620E-2  -9.927928086343645E-1  -6.295163461003359E-2  
 1.012868503816893E6    -9.945354820337309E-1  -6.155128980754729E-2   6.493550831104393E-3  -6.317550813901027E-2   6.539160705534676E-3  -6.309689385981535E-2  -9.926996427074925E-1  -6.171224740353160E-2  
 1.033618475075031E6    -9.940784580348110E-1  -5.961399323633353E-2   6.396859587085619E-3  -6.177063339306366E-2   6.252669052928374E-3  -6.211061191064689E-2  -9.933043130761062E-1  -6.037798656577440E-2  
 1.054793537354946E6    -9.941828075762526E-1  -5.863086769748574E-2   6.191916191783180E-3  -6.062255424734910E-2   6.233221684769770E-3  -6.060452360746690E-2  -9.929639635103498E-1  -5.938500308778367E-2  
 1.076402399216980E6    -9.944975422255318E-1  -5.771648559092905E-2   6.231586277104612E-3  -5.946902644788818E-2   6.092292612130290E-3  -5.958457337792252E-2  -9.933242692107362E-1  -5.802463402186130E-2  
 1.098453947628028E6    -9.946044795855213E-1  -5.653636139034932E-2   5.955925518302214E-3  -5.829538469796324E-2   5.991588069150471E-3  -5.824682730803753E-2  -9.932270518142135E-1  -5.663136596182045E-2  
 1.120957251616430E6    -9.955057625222581E-1  -5.553521267299716E-2   5.875572128586910E-3  -5.712657821246268E-2   5.861371076682736E-3  -5.708812218629236E-2  -9.936990927704129E-1  -5.541141928233156E-2  
 1.143921566001752E6    -9.947521395307514E-1  -5.425215720798274E-2   5.835663204946273E-3  -5.584090315772983E-2   5.674193035014073E-3  -5.598004407545236E-2  -9.938720788278498E-1  -5.383733282726817E-2  
 1.167356335200965E6    -9.949871375881815E-1  -5.283392384593663E-2   5.460245639167215E-3  -5.487178110270211E-2   5.635841198256482E-3  -5.493447707635074E-2  -9.941859137466701E-1  -5.308830569175355E-2  
 1.191271197112600E6    -9.947484607658873E-1  -5.161047587494704E-2   5.368746370697222E-3  -5.372567226455362E-2   5.447970327275806E-3  -5.379056377395564E-2  -9.936688463945311E-1  -5.221080690350059E-2  
 1.215675987080482E6    -9.952440768415409E-1  -5.079585574752100E-2   5.403849607229389E-3  -5.277407482487675E-2   5.177299090615014E-3  -5.271782404139806E-2  -9.942679098181919E-1  -5.088798413687329E-2  
 1.240580741938659E6    -9.958097585622630E-1  -4.999807918902698E-2   5.200848830823711E-3  -5.176932388000474E-2   5.068886213317855E-3  -5.164288277790419E-2  -9.943236442399268E-1  -4.949079320920592E-2  
 1.265995704139202E6    -9.957003950738814E-1  -4.874650813814747E-2   5.074775071208766E-3  -5.068461297091859E-2   5.072765361075999E-3  -5.064126634452816E-2  -9.943877917957620E-1  -4.869081136498722E-2  
 1.291931325964563E6    -9.962373823517592E-1  -4.744853099749431E-2   5.051657507359643E-3  -4.966304800704834E-2   5.017951402858141E-3  -4.966734694758625E-2  -9.942084074326223E-1  -4.770612387806420E-2  
 1.318398273826236E6    -9.956310618166926E-1  -4.691776139901661E-2   4.951645758106773E-3  -4.858479617382570E-2   4.897105196997474E-3  -4.866273677884470E-2  -9.944031518597952E-1  -4.684393233930499E-2  
 1.345407432651476E6    -9.958384718479703E-1  -4.545953805935428E-2   4.749566964125536E-3  -4.762374109552491E-2   4.699032231671373E-3  -4.758941701689792E-2  -9.948517729629229E-1  -4.506384570267665E-2  
 1.372969910359885E6    -9.957091413308898E-1  -4.452458993020378E-2   4.843851603856157E-3  -4.660340005525487E-2   4.750947506549049E-3  -4.671937566705673E-2  -9.947752577414641E-1  -4.445753959371947E-2  
 1.401097042431717E6    -9.952941484811777E-1  -4.370446880516724E-2   4.647466924637133E-3  -4.571595093304085E-2   4.592621065157637E-3  -4.575482506994688E-2  -9.947753170241682E-1  -4.338412737259638E-2  
 1.429800396569754E6    -9.960384971786161E-1  -4.252999488465784E-2   4.369857497208240E-3  -4.475017227750697E-2   4.514201885777924E-3  -4.492808078513123E-2  -9.951586824989662E-1  -4.210221832344992E-2  
 1.459091777456705E6    -9.963330428013792E-1  -4.162454524455780E-2   4.413183556304220E-3  -4.416447369733439E-2   4.648048890264308E-3  -4.399406564119615E-2  -9.953461253967331E-1  -4.138684096983419E-2  
 1.488983231610052E6    -9.963998554938259E-1  -4.055671090726567E-2   4.448970146370397E-3  -4.311262016348479E-2   4.316237334001493E-3  -4.300723892873898E-2  -9.950021677009441E-1  -4.058373657512960E-2  
 1.519487052336364E6    -9.962666272733830E-1  -3.961958958552043E-2   4.253320522355318E-3  -4.213962939980279E-2   4.307460422040062E-3  -4.216085028460456E-2  -9.951973685847932E-1  -4.003024219195694E-2  
 1.550615784787099E6    -9.962690403147853E-1  -3.926718279939960E-2   4.247117743468528E-3  -4.122831218052102E-2   4.170400494816714E-3  -4.146809506968503E-2  -9.953544369665697E-1  -3.869981644648103E-2  
 1.582382231117988E6    -9.967062376933972E-1  -3.763672840999911E-2   4.116608652983109E-3  -4.054652234089524E-2   4.249926899179905E-3  -4.047367340441866E-2  -9.955783130276811E-1  -3.761651209613727E-2  
 1.614799455754111E6    -9.961824001857803E-1  -3.742603812190073E-2   4.155575093244066E-3  -3.973007798893588E-2   4.027801392157267E-3  -3.964945779469300E-2  -9.951648076642500E-1  -3.737655616227131E-2  
 1.647880790762838E6    -9.967556474140770E-1  -3.675763865620822E-2   3.895399210752984E-3  -3.901030104609755E-2   4.061459989063885E-3  -3.896057447784193E-2  -9.958792713608967E-1  -3.617970924953116E-2  
 1.681639841336839E6    -9.965752276996232E-1  -3.569359000935955E-2   3.869130348271564E-3  -3.818761153645507E-2   3.874467605059469E-3  -3.816684213329766E-2  -9.959040714527020E-1  -3.560541942392174E-2  
 1.716090491389422E6    -9.967810929600229E-1  -3.492263029904048E-2   3.850656672109023E-3  -3.744646574835611E-2   3.791213272134289E-3  -3.742575716603904E-2  -9.958591797492059E-1  -3.462667878329995E-2  
 1.751246909264502E6    -9.965081238413923E-1  -3.401453478931275E-2   3.817306367334645E-3  -3.659182132782097E-2   3.781666867707247E-3  -3.668341063838583E-2  -9.957545604781473E-1  -3.371146366683221E-2  
 1.787123553563544E6    -9.966442647555962E-1  -3.314564963249286E-2   3.804354171384789E-3  -3.601927246966528E-2   3.758435160081406E-3  -3.581420821071209E-2  -9.959051239447869E-1  -3.291061740906302E-2  
 1.823735179091875E6    -9.964111653572263E-1  -3.239148092950016E-2   3.711338152823230E-3  -3.507711562243975E-2   3.577131855748483E-3  -3.525155686722708E-2  -9.956995527034658E-1  -3.224903488675581E-2  
 1.861096842926821E6    -9.970528465196111E-1  -3.170291615935873E-2   3.553993000053643E-3  -3.449850458431999E-2   3.565154414351984E-3  -3.441293115427443E-2  -9.959384680097617E-1  -3.133047105745251E-2  
 1.899223910610154E6    -9.965341381385788E-1  -3.069061534387432E-2   3.521040773029422E-3  -3.376427834180815E-2   3.590755554114801E-3  -3.372101562245966E-2  -9.962342576463429E-1  -3.057804995028870E-2  
 1.938132062467400E6    -9.973002502509440E-1  -2.998391652174270E-2   3.590494716298340E-3  -3.306660317769747E-2   3.568018614379599E-3  -3.304087756492160E-2  -9.956934186245503E-1  -3.014753734829998E-2  
 1.977837300056607E6    -9.969426407228624E-1  -2.921636728611571E-2   3.549797154253615E-3  -3.243945691703224E-2   3.511772638573487E-3  -3.232810164193375E-2  -9.962515983947022E-1  -2.945946797004354E-2  
