#  HZ   S   RI   R     50 
! Rohde & Schwarz ZVA/B 
! 
! 
! 
 3.000000000000000E5    -9.355078956074419E-1  -2.235105505695339E-1   6.488127509635262E-2  -2.259982732837894E-1   6.553843275351859E-2  -2.268797615956585E-1  -9.340756073731500E-1  -2.235490608352050E-1  
 3.061459028037530E5    -9.377741718196843E-1  -2.197907625644232E-1   6.303003249533502E-2  -2.220105072968580E-1   6.347456262700535E-2  -2.226481361376516E-1  -9.358124672136781E-1  -2.195623851338424E-1  
 3.124177126784167E5    -9.396949373889698E-1  -2.156923844499054E-1   6.106368932034201E-2  -2.180463496648326E-1   6.140056927170830E-2  -2.188066472777595E-1  -9.379996922709823E-1  -2.154705978583481E-1  
 3.188180089993913E5    -9.413157553991693E-1  -2.115663837616331E-1   5.911015061513408E-2  -2.141806490797504E-1   5.938309804771436E-2  -2.147605171427580E-1  -9.401869447569438E-1  -2.117207142271926E-1  
 3.253494239840457E5    -9.432620287436313E-1  -2.080019665140548E-1   5.726691703391068E-2  -2.101892202068154E-1   5.758959633658418E-2  -2.108280778016815E-1  -9.414642118865655E-1  -2.077758454107193E-1  
 3.320146437742557E5    -9.449397571584921E-1  -2.046243985713527E-1   5.572795958446861E-2  -2.062934111557724E-1   5.586987835002743E-2  -2.069654742836059E-1  -9.433062897586855E-1  -2.043026262720270E-1  
 3.388164095411199E5    -9.469169374615906E-1  -2.009079506426008E-1   5.392831148204199E-2  -2.026218079927770E-1   5.402503163689377E-2  -2.033141440463131E-1  -9.451045713274380E-1  -2.003355946932499E-1  
 3.457575186123076E5    -9.481724257324899E-1  -1.963171644640636E-1   5.205191538718640E-2  -1.987741185490789E-1   5.229225879196323E-2  -1.995084177668691E-1  -9.464672943049408E-1  -1.966497747004786E-1  
 3.528408256225012E5    -9.497976195443905E-1  -1.934907301263901E-1   5.069504844502783E-2  -1.951735368725116E-1   5.083344993940654E-2  -1.958271111696293E-1  -9.480170788010583E-1  -1.932149574178665E-1  
 3.600692436874074E5    -9.513798024372722E-1  -1.900359335114222E-1   4.920699273495321E-2  -1.915136206602001E-1   4.925075531231723E-2  -1.922543102070330E-1  -9.497148469972696E-1  -1.896596971587036E-1  
 3.674457456018197E5    -9.528254539894699E-1  -1.859971808417186E-1   4.761572240347915E-2  -1.879572029469709E-1   4.768265261630994E-2  -1.887116066715182E-1  -9.511027878643591E-1  -1.861242566952440E-1  
 3.749733650622242E5    -9.541246044585217E-1  -1.826942367369610E-1   4.632358401249175E-2  -1.844557242061874E-1   4.616055253865646E-2  -1.850977971471797E-1  -9.523703369415850E-1  -1.827167554863171E-1  
 3.826551979144529E5    -9.553374762726726E-1  -1.794189426942770E-1   4.490304980964116E-2  -1.809906627878480E-1   4.488506547246825E-2  -1.816601661747618E-1  -9.540287511829820E-1  -1.795102312961400E-1  
 3.904944034268967E5    -9.566109014237878E-1  -1.761720166071636E-1   4.362716018308117E-2  -1.776888658876162E-1   4.362265774425947E-2  -1.781565476767699E-1  -9.552264459826904E-1  -1.764477846875156E-1  
 3.984942055898008E5    -9.584268473299868E-1  -1.728031535262977E-1   4.234668747191589E-2  -1.744040867489651E-1   4.231889754432385E-2  -1.748685425092542E-1  -9.564467829352921E-1  -1.729897157561293E-1  
 4.066578944411798E5    -9.591632069737996E-1  -1.693467102906917E-1   4.115401340215186E-2  -1.710648304415490E-1   4.113624045701517E-2  -1.716158657703926E-1  -9.579341874279309E-1  -1.699228899789853E-1  
 4.149888274198943E5    -9.605824208877409E-1  -1.661113122754413E-1   3.983472251392081E-2  -1.678092155626131E-1   3.987805460708911E-2  -1.684291878464256E-1  -9.589859655195915E-1  -1.665481230294042E-1  
 4.234904307464480E5    -9.612788195011619E-1  -1.631652433928234E-1   3.885247906589339E-2  -1.646794118332745E-1   3.878134718530289E-2  -1.652247402847638E-1  -9.602441343167680E-1  -1.635309744356887E-1  
 4.321662008320720E5    -9.627002037588464E-1  -1.601675402754561E-1   3.777667060537635E-2  -1.616707376763650E-1   3.769746986406656E-2  -1.620799417306833E-1  -9.613043602005745E-1  -1.604370645136395E-1  
 4.410197057166757E5    -9.634201781350661E-1  -1.570411031414130E-1   3.665715514283871E-2  -1.585113678932351E-1   3.666908524516632E-2  -1.588610949489191E-1  -9.621893938464510E-1  -1.574360884429529E-1  
 4.500545865362572E5    -9.647980781322048E-1  -1.541697850671025E-1   3.567914719994798E-2  -1.555242995657898E-1   3.559300829834057E-2  -1.558429779507461E-1  -9.631602632298679E-1  -1.543361541275682E-1  
 4.592745590203743E5    -9.656679494409377E-1  -1.514632818124771E-1   3.469690166603921E-2  -1.525515359602114E-1   3.470974361588902E-2  -1.528779495202668E-1  -9.641165675849117E-1  -1.513796207633014E-1  
 4.686834150202934E5    -9.666024381146882E-1  -1.481619951831668E-1   3.377881115170465E-2  -1.496813844081862E-1   3.364813659429937E-2  -1.499679548536639E-1  -9.651655821815802E-1  -1.483947351541099E-1  
 4.782850240684460E5    -9.674973835055531E-1  -1.454575795143199E-1   3.294771717498680E-2  -1.467726893689739E-1   3.281556108355844E-2  -1.471206016592286E-1  -9.661835329546012E-1  -1.456321194278422E-1  
 4.880833349698305E5    -9.683175437197136E-1  -1.429570375680387E-1   3.209457364585433E-2  -1.440111987378018E-1   3.190590257603453E-2  -1.442861216456632E-1  -9.670810326218370E-1  -1.429935880719068E-1  
 4.980823774260179E5    -9.692836285714603E-1  -1.402515799957545E-1   3.125678545757284E-2  -1.412600628307495E-1   3.113442279171913E-2  -1.415913228042042E-1  -9.680656298553705E-1  -1.403281025247674E-1  
 5.082862636924264E5    -9.699998498412104E-1  -1.372860315563218E-1   3.039475732990361E-2  -1.386073625350293E-1   3.022601554157216E-2  -1.388340305236701E-1  -9.688139752763709E-1  -1.375925427424884E-1  
 5.186991902695479E5    -9.708826154337678E-1  -1.347166476218881E-1   2.969586010890861E-2  -1.359876872519178E-1   2.951589557227111E-2  -1.361740696307970E-1  -9.693650719552628E-1  -1.348895670196682E-1  
 5.293254396288213E5    -9.714384634167964E-1  -1.322833096129610E-1   2.896363623338167E-2  -1.334083757004547E-1   2.873627689016851E-2  -1.335723308966002E-1  -9.704697164408035E-1  -1.322930825654190E-1  
 5.401693819738632E5    -9.722411435801908E-1  -1.295847750575663E-1   2.826517289305571E-2  -1.307983532680645E-1   2.810614295003873E-2  -1.310132863769969E-1  -9.709788844888286E-1  -1.299088577590396E-1  
 5.512354770377789E5    -9.729590675142334E-1  -1.268052724836602E-1   2.748959119075966E-2  -1.282816664203962E-1   2.738324128526479E-2  -1.285130426390993E-1  -9.718748968290729E-1  -1.274213979830267E-1  
 5.625282759172944E5    -9.734963538761525E-1  -1.246599341318364E-1   2.686634698844522E-2  -1.257916641951055E-1   2.674576141440319E-2  -1.260252199881828E-1  -9.724387301229279E-1  -1.250243468364799E-1  
 5.740524229444626E5    -9.741048698515878E-1  -1.221344258211830E-1   2.616167398055215E-2  -1.234058008343218E-1   2.600247075838441E-2  -1.235318625626804E-1  -9.729444524503196E-1  -1.223705550194910E-1  
 5.858126575967147E5    -9.750183546655371E-1  -1.198666517345078E-1   2.556841482683326E-2  -1.210357896917150E-1   2.543374255407011E-2  -1.212175878716753E-1  -9.738324525112866E-1  -1.199757784264843E-1  
 5.978138164460403E5    -9.753834440491531E-1  -1.174482694838782E-1   2.495076954636672E-2  -1.186752246557761E-1   2.487167987065765E-2  -1.188522965374788E-1  -9.744171010000895E-1  -1.177400129475341E-1  
 6.100608351481004E5    -9.760606258269683E-1  -1.152986355632389E-1   2.444357247498896E-2  -1.164566019312905E-1   2.421505774131090E-2  -1.165747368946692E-1  -9.750810930513120E-1  -1.154508906482232E-1  
 6.225587504720892E5    -9.766070171082835E-1  -1.129521093759167E-1   2.387160163802953E-2  -1.142194607902527E-1   2.377296593617794E-2  -1.142908857595012E-1  -9.754735884654944E-1  -1.131994337727867E-1  
 6.353127023721805E5    -9.770698887755127E-1  -1.107215589234676E-1   2.328098557223882E-2  -1.119776112928886E-1   2.325386146916054E-2  -1.120795925216215E-1  -9.760522231427217E-1  -1.109413090997231E-1  
 6.483279361014109E5    -9.777394206172527E-1  -1.087943448523541E-1   2.279863302929182E-2  -1.098914112629421E-1   2.276233222768296E-2  -1.098831512309461E-1  -9.765823908977922E-1  -1.088115014507382E-1  
 6.616098043688679E5    -9.781490084659712E-1  -1.065802728945097E-1   2.227171768963676E-2  -1.076826494626249E-1   2.222970969727117E-2  -1.078298389447941E-1  -9.771706454493471E-1  -1.066031246636471E-1  
 6.751637695410716E5    -9.785744945297776E-1  -1.044137561063141E-1   2.185887517044279E-2  -1.055728736277841E-1   2.171543997240606E-2  -1.057230970612603E-1  -9.774099924740525E-1  -1.045426676818537E-1  
 6.889954058884548E5    -9.792406931188478E-1  -1.023062415584536E-1   2.138316478701482E-2  -1.035796330723091E-1   2.129336651987453E-2  -1.036478571935943E-1  -9.779167672941083E-1  -1.025896288715875E-1  
 7.031104018778642E5    -9.797069034662885E-1  -1.004177017399666E-1   2.092355464062029E-2  -1.015424388785087E-1   2.085599064955365E-2  -1.016907019794177E-1  -9.786291533322500E-1  -1.004344419879101E-1  
 7.175145625120278E5    -9.798479454811278E-1  -9.821498284380115E-2   2.046855784738933E-2  -9.957236318424062E-2   2.042122964522150E-2  -9.965981434232370E-2  -9.791402402555803E-1  -9.863781594360464E-2  
 7.322138117169489E5    -9.804573729677059E-1  -9.646635974856857E-2   2.005601366171167E-2  -9.773846622629030E-2   2.002027083749783E-2  -9.770094153664818E-2  -9.795549881859395E-1  -9.667220211429531E-2  
 7.472141947782085E5    -9.807301640544199E-1  -9.463170347285560E-2   1.968970614130938E-2  -9.585846571034289E-2   1.958044851847782E-2  -9.586674306360389E-2  -9.799561526098420E-1  -9.458113903538029E-2  
 7.625218808271801E5    -9.811726319606302E-1  -9.268565898482055E-2   1.928642703109286E-2  -9.391325039220218E-2   1.925411438007486E-2  -9.401550128160141E-2  -9.803444330715407E-1  -9.261028102706634E-2  
 7.781431653781761E5    -9.815948218243085E-1  -9.100562621102039E-2   1.889909396099863E-2  -9.210197701264396E-2   1.885524306402250E-2  -9.215262780913183E-2  -9.807066282397142E-1  -9.097609794533380E-2  
 7.940844729175728E5    -9.818870982609771E-1  -8.907760663337087E-2   1.850399804508482E-2  -9.030226779021676E-2   1.849625714147954E-2  -9.042150108024903E-2  -9.810363977567090E-1  -8.918972403323942E-2  
 8.103523595459757E5    -9.823807416508552E-1  -8.737462020462015E-2   1.819665080115538E-2  -8.861502264235348E-2   1.818195871362376E-2  -8.863612961030033E-2  -9.813286642573521E-1  -8.749946684825273E-2  
 8.269535156745140E5    -9.826996545260951E-1  -8.546878224897123E-2   1.783291139131070E-2  -8.686897094480309E-2   1.781808794862591E-2  -8.686786725039497E-2  -9.815853191148352E-1  -8.555763676562686E-2  
 8.438947687763721E5    -9.831312013513838E-1  -8.373988039777917E-2   1.749669710293958E-2  -8.514458829382954E-2   1.753815323062649E-2  -8.517521407851607E-2  -9.819513789267443E-1  -8.376509863533696E-2  
 8.611830861946895E5    -9.834030481441893E-1  -8.210351420497077E-2   1.722597475133503E-2  -8.354859843749561E-2   1.719155098368806E-2  -8.354654493023818E-2  -9.822952835016394E-1  -8.222396379186146E-2  
 8.788255780079850E5    -9.838409849040695E-1  -8.046427333729084E-2   1.692026426375449E-2  -8.181246015958209E-2   1.691603910993952E-2  -8.189232966277703E-2  -9.824659012832977E-1  -8.059600675799816E-2  
 8.968294999542822E5    -9.841766201294764E-1  -7.898890811190938E-2   1.662424101734051E-2  -8.025409182631356E-2   1.661502972266121E-2  -8.033585627348533E-2  -9.826829448590728E-1  -7.906003641771067E-2  
 9.152022564151404E5    -9.842009641823919E-1  -7.733585351676021E-2   1.636837150441277E-2  -7.874618641117523E-2   1.635264069934332E-2  -7.876761122467223E-2  -9.831181269112098E-1  -7.728109561872597E-2  
 9.339514034608167E5    -9.844988889237203E-1  -7.580430046008796E-2   1.608223739824572E-2  -7.714156552122693E-2   1.606479696644603E-2  -7.718396578676139E-2  -9.833332535682234E-1  -7.580709940282082E-2  
 9.530846519578132E5    -9.848060531341152E-1  -7.423846195527907E-2   1.581893874550497E-2  -7.565242572842987E-2   1.580100051311115E-2  -7.573160252541425E-2  -9.835897017695581E-1  -7.412389985954572E-2  
 9.726098707400849E5    -9.851303258546814E-1  -7.271971589932240E-2   1.559217086827725E-2  -7.419123396952085E-2   1.553451219014438E-2  -7.424427713147620E-2  -9.839526400679221E-1  -7.275650573691621E-2  
 9.925350898452161E5    -9.852251033054095E-1  -7.136911649287152E-2   1.529200127408601E-2  -7.274726842651055E-2   1.528928977827344E-2  -7.278824752057081E-2  -9.842065408096292E-1  -7.127165467610765E-2  
 1.012868503816893E6    -9.856080172349447E-1  -6.980155260765364E-2   1.507966379908097E-2  -7.138387728020738E-2   1.490626227125538E-2  -7.150666602847644E-2  -9.844690332881065E-1  -7.010475506714158E-2  
 1.033618475075031E6    -9.855673330781984E-1  -6.772389767880255E-2   1.480056165557068E-2  -6.999056606877185E-2   1.471713091678502E-2  -6.997970536429209E-2  -9.847406776946517E-1  -6.767604612068491E-2  
 1.054793537354946E6    -9.856451972790195E-1  -6.699620463590723E-2   1.468397968752721E-2  -6.863517442997846E-2   1.466342412089377E-2  -6.848548621344529E-2  -9.848654794401432E-1  -6.724598822934698E-2  
 1.076402399216980E6    -9.862783790979367E-1  -6.508540404343190E-2   1.448117469972483E-2  -6.745064373503841E-2   1.435738942720480E-2  -6.734698701350482E-2  -9.852371051912396E-1  -6.569169434196785E-2  
 1.098453947628028E6    -9.865469046422758E-1  -6.401400363403216E-2   1.412358470171843E-2  -6.584453579974735E-2   1.416406488748211E-2  -6.587008292409523E-2  -9.849768313483598E-1  -6.441211763636293E-2  
 1.120957251616430E6    -9.867611262367371E-1  -6.254216753753146E-2   1.392052988482861E-2  -6.467828494002403E-2   1.397777990968386E-2  -6.474285854535364E-2  -9.856270461890897E-1  -6.290812302793372E-2  
 1.143921566001752E6    -9.864686329490132E-1  -6.128444142198538E-2   1.374551590292046E-2  -6.327487413920564E-2   1.383167986189665E-2  -6.331547994283958E-2  -9.857302453542458E-1  -6.161153882529605E-2  
 1.167356335200965E6    -9.870093715898839E-1  -6.030538424749860E-2   1.365609551892250E-2  -6.223992088243352E-2   1.362159718703614E-2  -6.216556929850508E-2  -9.862185201745454E-1  -6.038591773394945E-2  
 1.191271197112600E6    -9.871923212112708E-1  -5.882135092417655E-2   1.335919233585929E-2  -6.096525005144574E-2   1.349541720625292E-2  -6.094266753962656E-2  -9.859351811637560E-1  -5.914037201938634E-2  
 1.215675987080482E6    -9.870955263553196E-1  -5.803154867228683E-2   1.321323097452466E-2  -5.976348404766660E-2   1.340709055963059E-2  -5.975414263997611E-2  -9.863134007479883E-1  -5.792071159385642E-2  
 1.240580741938659E6    -9.874046007482481E-1  -5.611183573421794E-2   1.302535922831664E-2  -5.850229274862125E-2   1.324099619026545E-2  -5.870568272240061E-2  -9.866858888474288E-1  -5.656759052537216E-2  
 1.265995704139202E6    -9.876930918151821E-1  -5.620654905000168E-2   1.316418186020304E-2  -5.735643311543310E-2   1.294409968929147E-2  -5.733354770830637E-2  -9.865974493127512E-1  -5.581320712086146E-2  
 1.291931325964563E6    -9.874228214599226E-1  -5.397651003157460E-2   1.284810058339239E-2  -5.631127338003972E-2   1.285087768448823E-2  -5.631547893965331E-2  -9.866411569522473E-1  -5.431566109742328E-2  
 1.318398273826236E6    -9.879665176590469E-1  -5.354417641232947E-2   1.266901928291723E-2  -5.519670615096415E-2   1.275471770732831E-2  -5.514821444329950E-2  -9.870377816542513E-1  -5.365848003872237E-2  
 1.345407432651476E6    -9.882505449473255E-1  -5.187739354458872E-2   1.252952950053902E-2  -5.413267561037247E-2   1.249489001398846E-2  -5.408519697361420E-2  -9.869146389036013E-1  -5.174145500722379E-2  
 1.372969910359885E6    -9.886828290614115E-1  -5.063410930959049E-2   1.255900307746902E-2  -5.314812986720478E-2   1.242880822093280E-2  -5.297800919859035E-2  -9.870675880717974E-1  -5.055753677265823E-2  
 1.401097042431717E6    -9.880828997736636E-1  -4.986558533754461E-2   1.225697333879409E-2  -5.202277864573830E-2   1.224213431410877E-2  -5.211109231065145E-2  -9.871028921565375E-1  -4.962133675382275E-2  
 1.429800396569754E6    -9.887568043131140E-1  -4.893088902979625E-2   1.210361507728382E-2  -5.100617108449706E-2   1.215717850747832E-2  -5.095628970274935E-2  -9.875836970403842E-1  -4.875592931423451E-2  
 1.459091777456705E6    -9.888747822910432E-1  -4.740922766748378E-2   1.198976260480963E-2  -4.988448463252817E-2   1.191781998434045E-2  -5.003817207809244E-2  -9.873650796578274E-1  -4.789608637908813E-2  
 1.488983231610052E6    -9.885044425364098E-1  -4.668022437787154E-2   1.192330584150651E-2  -4.902925865645563E-2   1.186172859453760E-2  -4.912619451787346E-2  -9.878885411669897E-1  -4.689400456734336E-2  
 1.519487052336364E6    -9.891871262191855E-1  -4.559866370329915E-2   1.179839692223019E-2  -4.803792321103637E-2   1.173690761706584E-2  -4.813790273654062E-2  -9.875437174947574E-1  -4.549050815512555E-2  
 1.550615784787099E6    -9.889950966680854E-1  -4.428292400483199E-2   1.152249840260711E-2  -4.711635998401907E-2   1.168780963130404E-2  -4.707920093469400E-2  -9.881194215229834E-1  -4.467954061262715E-2  
 1.582382231117988E6    -9.893411822522739E-1  -4.371081906331235E-2   1.147707102145222E-2  -4.617236398792000E-2   1.150865979618923E-2  -4.619767326273836E-2  -9.877948060201670E-1  -4.364303486718582E-2  
 1.614799455754111E6    -9.892020421973673E-1  -4.286944409484868E-2   1.143113471236325E-2  -4.520269217084035E-2   1.146018482294431E-2  -4.530053194257646E-2  -9.881725041794646E-1  -4.255307654394849E-2  
 1.647880790762838E6    -9.893253344694933E-1  -4.211945016478584E-2   1.131381073509960E-2  -4.447124905938131E-2   1.137550894305856E-2  -4.440338637503923E-2  -9.882837327789594E-1  -4.185764538438692E-2  
 1.681639841336839E6    -9.892982915341364E-1  -4.119515153403532E-2   1.128422955587024E-2  -4.343796327383823E-2   1.130431784429874E-2  -4.359442283673693E-2  -9.886342178900504E-1  -4.135593922378533E-2  
 1.716090491389422E6    -9.897577355644168E-1  -4.011734995676559E-2   1.105514077263670E-2  -4.271165691273066E-2   1.105880579286133E-2  -4.265677230809095E-2  -9.884321436955197E-1  -4.038211375877666E-2  
 1.751246909264502E6    -9.894083715211408E-1  -3.965723260338854E-2   1.093584528590693E-2  -4.198902018776880E-2   1.106761644019335E-2  -4.181947592197097E-2  -9.884135629468601E-1  -3.923749723015951E-2  
 1.787123553563544E6    -9.898269626738451E-1  -3.875192030966675E-2   1.100273019842220E-2  -4.099961955858166E-2   1.091340777976020E-2  -4.103334295147593E-2  -9.888275191124215E-1  -3.799426831398316E-2  
 1.823735179091875E6    -9.895307511648495E-1  -3.753002638111452E-2   1.083357394681266E-2  -4.016567428987991E-2   1.096940667810696E-2  -4.012819503423789E-2  -9.885368868366761E-1  -3.792632271675259E-2  
 1.861096842926821E6    -9.899129032421501E-1  -3.665720029087813E-2   1.076653097980137E-2  -3.939804742917719E-2   1.079799936495017E-2  -3.942726987703075E-2  -9.887303482991304E-1  -3.651350692779132E-2  
 1.899223910610154E6    -9.903447413297475E-1  -3.563876771374772E-2   1.053003592235799E-2  -3.862190847496764E-2   1.060856537970065E-2  -3.867744184240850E-2  -9.892000414045039E-1  -3.573816679270473E-2  
 1.938132062467400E6    -9.900549853416054E-1  -3.494738374585466E-2   1.053714708823728E-2  -3.781762828664718E-2   1.061730956283237E-2  -3.769654358101759E-2  -9.890221238638101E-1  -3.469862271673484E-2  
 1.977837300056607E6    -9.901365449836588E-1  -3.426519793950093E-2   1.052187485407323E-2  -3.710733547614344E-2   1.045893647795277E-2  -3.717280306400637E-2  -9.887619807000669E-1  -3.396459348088013E-2  
