#  HZ   S   RI   R     50 
! Rohde & Schwarz ZVA/B 
! 
! 
! 
 3.000000000000000E5    -9.505843809531097E-1  -2.146771998480671E-1   5.011388664448794E-2  -2.170729694244308E-1   5.070207074586538E-2  -2.179882690229419E-1  -9.485508252688472E-1  -2.148245134137327E-1  
 3.061459028037530E5    -9.520895587840415E-1  -2.110934424908890E-1   4.848005949860235E-2  -2.130948661606684E-1   4.868565274621054E-2  -2.137770794744614E-1  -9.503789222672809E-1  -2.108388592986302E-1  
 3.124177126784167E5    -9.541972946785986E-1  -2.072382386827934E-1   4.664136577985621E-2  -2.093555137282647E-1   4.700564113340712E-2  -2.099955564189681E-1  -9.523041214761225E-1  -2.069372589422261E-1  
 3.188180089993913E5    -9.557481173943743E-1  -2.032369685378013E-1   4.490649133572157E-2  -2.054554575372340E-1   4.515774628691221E-2  -2.061126025408800E-1  -9.540037078595718E-1  -2.033792533576689E-1  
 3.253494239840457E5    -9.571592525356802E-1  -1.994734802175567E-1   4.318240221201773E-2  -2.015655005380692E-1   4.346072068506385E-2  -2.021780427935718E-1  -9.552840789742487E-1  -1.994620498694708E-1  
 3.320146437742557E5    -9.587469431714693E-1  -1.958959426754598E-1   4.168372453501301E-2  -1.977709708782629E-1   4.184258582246847E-2  -1.985219004276001E-1  -9.571312164103267E-1  -1.959717225671877E-1  
 3.388164095411199E5    -9.604877322651922E-1  -1.924009098081685E-1   4.014840803914439E-2  -1.940783459731951E-1   4.031727091260964E-2  -1.948269315817553E-1  -9.584981784233658E-1  -1.922822301859897E-1  
 3.457575186123076E5    -9.617353971559622E-1  -1.881616357876431E-1   3.856212629399664E-2  -1.904773251879443E-1   3.869464562378558E-2  -1.910844748333277E-1  -9.598017931627708E-1  -1.885519880763134E-1  
 3.528408256225012E5    -9.629908817987191E-1  -1.852356426523530E-1   3.731388350107386E-2  -1.868735020527134E-1   3.734626849353488E-2  -1.874938983094099E-1  -9.611902002952875E-1  -1.850576556044691E-1  
 3.600692436874074E5    -9.644603175858774E-1  -1.816013413138675E-1   3.580169557677206E-2  -1.833676417415333E-1   3.598999146809974E-2  -1.840411332299188E-1  -9.628867482761098E-1  -1.818108648621002E-1  
 3.674457456018197E5    -9.658205224575696E-1  -1.781596073563823E-1   3.454714548555855E-2  -1.799319056725619E-1   3.460728003713672E-2  -1.805567212574291E-1  -9.640004969378196E-1  -1.783210519239545E-1  
 3.749733650622242E5    -9.672330622221392E-1  -1.748732020630507E-1   3.330341102933666E-2  -1.764933169706993E-1   3.326796524011553E-2  -1.770648364074937E-1  -9.653078600675120E-1  -1.751695498145769E-1  
 3.826551979144529E5    -9.680927231359047E-1  -1.714541031797249E-1   3.205013080843030E-2  -1.731494651921331E-1   3.203024010325097E-2  -1.737123763439031E-1  -9.666170708466402E-1  -1.717599231516563E-1  
 3.904944034268967E5    -9.694185905528455E-1  -1.683017489371013E-1   3.101835015614869E-2  -1.698286573241417E-1   3.090801656632820E-2  -1.703838585209217E-1  -9.676924904254718E-1  -1.688871163224026E-1  
 3.984942055898008E5    -9.705927905170915E-1  -1.651855324935670E-1   2.980415780485022E-2  -1.666308044994411E-1   2.972589057071507E-2  -1.670976210251516E-1  -9.688444497168386E-1  -1.654611263293623E-1  
 4.066578944411798E5    -9.715942685198108E-1  -1.621611623041743E-1   2.874535462345628E-2  -1.635495926260266E-1   2.867124575386979E-2  -1.639154508577468E-1  -9.700897313598045E-1  -1.623413766455741E-1  
 4.149888274198943E5    -9.727266645795855E-1  -1.590000817041211E-1   2.768217553441970E-2  -1.603321554968737E-1   2.762284368319418E-2  -1.607532307897142E-1  -9.710411172724582E-1  -1.591462750853612E-1  
 4.234904307464480E5    -9.735611320872044E-1  -1.555497596484378E-1   2.664389478438413E-2  -1.573436165719597E-1   2.660364455315418E-2  -1.576798500859258E-1  -9.722267670396561E-1  -1.563382392379187E-1  
 4.321662008320720E5    -9.746753417050611E-1  -1.529639494585542E-1   2.579844825291514E-2  -1.542682010534837E-1   2.556616387961810E-2  -1.546417556728600E-1  -9.731990408009839E-1  -1.531622387086687E-1  
 4.410197057166757E5    -9.752580564254506E-1  -1.500086174637620E-1   2.474345971026408E-2  -1.512174841173251E-1   2.471562778037680E-2  -1.516669336221279E-1  -9.741462280666874E-1  -1.503339445086389E-1  
 4.500545865362572E5    -9.765602032246011E-1  -1.470499701416411E-1   2.387316358358580E-2  -1.484136123774962E-1   2.370246280309136E-2  -1.487399222910944E-1  -9.749377255889792E-1  -1.472586122150463E-1  
 4.592745590203743E5    -9.771785375192290E-1  -1.446913330406726E-1   2.308889012546867E-2  -1.454597232118673E-1   2.303734319117815E-2  -1.459164227597589E-1  -9.759206297180957E-1  -1.446405261861908E-1  
 4.686834150202934E5    -9.781518674003761E-1  -1.415850232443789E-1   2.218345636884912E-2  -1.427075072497458E-1   2.206086514871832E-2  -1.430671864028058E-1  -9.767357057653057E-1  -1.417314642676868E-1  
 4.782850240684460E5    -9.787964767749298E-1  -1.388896974562147E-1   2.146841543555509E-2  -1.399604645189207E-1   2.132627964821000E-2  -1.402371000732078E-1  -9.774861050636745E-1  -1.389221057402888E-1  
 4.880833349698305E5    -9.796974233663283E-1  -1.358735818191007E-1   2.064485337736800E-2  -1.373388561027107E-1   2.054549890955585E-2  -1.375548524442842E-1  -9.783077023817919E-1  -1.364067820195916E-1  
 4.980823774260179E5    -9.803432395434933E-1  -1.335432073656462E-1   1.996022899066806E-2  -1.346483902014440E-1   1.978730011588276E-2  -1.349493429436200E-1  -9.792606336449180E-1  -1.337569908385966E-1  
 5.082862636924264E5    -9.810934804105058E-1  -1.307232371030837E-1   1.926620574171423E-2  -1.319761486597120E-1   1.907575755540893E-2  -1.322457301762844E-1  -9.798180804056723E-1  -1.310150277287201E-1  
 5.186991902695479E5    -9.817914941034014E-1  -1.284766538401270E-1   1.858476819643990E-2  -1.294637580293656E-1   1.844156433793737E-2  -1.296590101420810E-1  -9.806496314892222E-1  -1.284759202842707E-1  
 5.293254396288213E5    -9.824221830778620E-1  -1.256232553503147E-1   1.790283723274013E-2  -1.269298547988467E-1   1.777581702234495E-2  -1.271777559038791E-1  -9.813719308793178E-1  -1.259964264124741E-1  
 5.401693819738632E5    -9.831921095557584E-1  -1.233447857246202E-1   1.735286956494899E-2  -1.245152405246101E-1   1.708316457045774E-2  -1.246769695463714E-1  -9.818612320729688E-1  -1.236049241154734E-1  
 5.512354770377789E5    -9.835458671783248E-1  -1.208133845873421E-1   1.664907978730911E-2  -1.221099786325909E-1   1.655185832514954E-2  -1.222321223368693E-1  -9.826657094463324E-1  -1.212065314052079E-1  
 5.625282759172944E5    -9.841916249141622E-1  -1.188408991027102E-1   1.607242297164732E-2  -1.196796172924290E-1   1.599570181508996E-2  -1.198772173689463E-1  -9.831871074782119E-1  -1.188971915808059E-1  
 5.740524229444626E5    -9.848221496895494E-1  -1.161516536207910E-1   1.551818961411817E-2  -1.173965747000405E-1   1.536814877369929E-2  -1.175059991258813E-1  -9.838403333326691E-1  -1.162878027821961E-1  
 5.858126575967147E5    -9.854208066741574E-1  -1.138329109931094E-1   1.493488322515506E-2  -1.150900847445264E-1   1.482058119773579E-2  -1.152166266270014E-1  -9.844364362220017E-1  -1.141732006150523E-1  
 5.978138164460403E5    -9.857005412389388E-1  -1.118877160188452E-1   1.447016057403614E-2  -1.128186638558242E-1   1.433138752031576E-2  -1.129809268180989E-1  -9.849603937900361E-1  -1.120387851536285E-1  
 6.100608351481004E5    -9.863734242244178E-1  -1.096757653640875E-1   1.398308148064779E-2  -1.106440093791044E-1   1.380551847233209E-2  -1.107532709143267E-1  -9.853305983680644E-1  -1.097098747499255E-1  
 6.225587504720892E5    -9.871009379597404E-1  -1.073974883907460E-1   1.351283726075530E-2  -1.085140277084914E-1   1.341940002619964E-2  -1.085206224619126E-1  -9.859308184984201E-1  -1.075844998725870E-1  
 6.353127023721805E5    -9.874415289695804E-1  -1.053611034461789E-1   1.294967680655968E-2  -1.063344778157270E-1   1.296214111817714E-2  -1.064180039990648E-1  -9.861673047738200E-1  -1.054267960774018E-1  
 6.483279361014109E5    -9.878152657563080E-1  -1.035295398324830E-1   1.259694815692180E-2  -1.042782080234206E-1   1.250469303209906E-2  -1.043541659191981E-1  -9.868175475837213E-1  -1.033299579227566E-1  
 6.616098043688679E5    -9.881629782554596E-1  -1.013758205305363E-1   1.217091338099588E-2  -1.021687934582008E-1   1.208276061096553E-2  -1.022765765092863E-1  -9.871647327960279E-1  -1.012859938306621E-1  
 6.751637695410716E5    -9.886209051498106E-1  -9.918626362431929E-2   1.176715436819959E-2  -1.002063531308659E-1   1.156642118412425E-2  -1.003117346483175E-1  -9.875446829164634E-1  -9.906630119623169E-2  
 6.889954058884548E5    -9.890717564489545E-1  -9.707807968106803E-2   1.135183473428153E-2  -9.822941883667319E-2   1.119622550733464E-2  -9.829776356229981E-2  -9.880687616776459E-1  -9.738532145452747E-2  
 7.031104018778642E5    -9.897817178866106E-1  -9.510335611213158E-2   1.091422875898808E-2  -9.631694864167052E-2   1.080233359018066E-2  -9.646947252769945E-2  -9.885897246846090E-1  -9.521194132405138E-2  
 7.175145625120278E5    -9.897535945890192E-1  -9.344082133256830E-2   1.053119628711453E-2  -9.445155711517465E-2   1.042186380422525E-2  -9.453023999346899E-2  -9.889946827925445E-1  -9.335421866082036E-2  
 7.322138117169489E5    -9.899771350556291E-1  -9.143118762034044E-2   1.019395107337740E-2  -9.260782576035720E-2   1.014120716377994E-2  -9.260700009126309E-2  -9.894632876897617E-1  -9.164296627563541E-2  
 7.472141947782085E5    -9.907156198678643E-1  -8.969792087773407E-2   9.859680801757920E-3  -9.074140579936355E-2   9.819344941970908E-3  -9.084192130340899E-2  -9.896739663501576E-1  -8.959027971614607E-2  
 7.625218808271801E5    -9.910048961497801E-1  -8.796982012435589E-2   9.479782783615463E-3  -8.900141472262348E-2   9.492297272514851E-3  -8.904505670062084E-2  -9.899653656247260E-1  -8.777670086212829E-2  
 7.781431653781761E5    -9.912388777533685E-1  -8.622192260720091E-2   9.161111152902522E-3  -8.722389926465422E-2   9.140160022935334E-3  -8.730407105041332E-2  -9.902560948465093E-1  -8.609504716905936E-2  
 7.940844729175728E5    -9.915901318898206E-1  -8.421322212517933E-2   8.848584262248615E-3  -8.551569972622386E-2   8.857867215683275E-3  -8.555138133795845E-2  -9.906729241290976E-1  -8.440736122536603E-2  
 8.103523595459757E5    -9.920926512645358E-1  -8.266486359587338E-2   8.538032837805212E-3  -8.386093865969803E-2   8.513552210127858E-3  -8.387078933181649E-2  -9.908407574967111E-1  -8.275590149432849E-2  
 8.269535156745140E5    -9.921875197796334E-1  -8.112536968065499E-2   8.303375317375553E-3  -8.218003997659340E-2   8.291620339074520E-3  -8.223158291552146E-2  -9.911486860352770E-1  -8.092717186989555E-2  
 8.438947687763721E5    -9.925436446791921E-1  -7.925314353236035E-2   8.039138803159002E-3  -8.059443061298457E-2   7.992248673651605E-3  -8.062434500687278E-2  -9.913583301000117E-1  -7.933615884636770E-2  
 8.611830861946895E5    -9.928651326147510E-1  -7.770676379514707E-2   7.715662522423760E-3  -7.899993951093598E-2   7.753208677777788E-3  -7.904165235064027E-2  -9.917947936211314E-1  -7.768107117698068E-2  
 8.788255780079850E5    -9.931234093469508E-1  -7.630459642996346E-2   7.507041118766358E-3  -7.744080124462462E-2   7.484063452047071E-3  -7.746175046398429E-2  -9.918916142823554E-1  -7.597342048163198E-2  
 8.968294999542822E5    -9.933805154468510E-1  -7.454791048553147E-2   7.254726122713558E-3  -7.590664297813574E-2   7.202659469908876E-3  -7.597485843132920E-2  -9.922078872481044E-1  -7.459783603356068E-2  
 9.152022564151404E5    -9.935059027105047E-1  -7.303689233169181E-2   6.994114409708989E-3  -7.442145981049608E-2   6.968681861325507E-3  -7.443878446475834E-2  -9.924985824129519E-1  -7.302756173967279E-2  
 9.339514034608167E5    -9.938412165449794E-1  -7.144258340216315E-2   6.791502378038283E-3  -7.292317413644651E-2   6.771836819981806E-3  -7.292442165971590E-2  -9.926368174813680E-1  -7.152557249471729E-2  
 9.530846519578132E5    -9.941221699233617E-1  -6.999104391158219E-2   6.592482526904351E-3  -7.151266821458042E-2   6.517016413236903E-3  -7.148012558398455E-2  -9.928237307919527E-1  -7.009263382276333E-2  
 9.726098707400849E5    -9.944011443735834E-1  -6.855971093717886E-2   6.388197156419407E-3  -7.010414318170506E-2   6.308438656201749E-3  -7.012419612731505E-2  -9.931815560666859E-1  -6.864413654474801E-2  
 9.925350898452161E5    -9.944206246340887E-1  -6.736697197997436E-2   6.204605144226947E-3  -6.868416614573222E-2   6.073021690092431E-3  -6.870405250518204E-2  -9.934171671627097E-1  -6.721398299811758E-2  
 1.012868503816893E6    -9.947303787231063E-1  -6.555894095201782E-2   5.892436477843112E-3  -6.728473613587856E-2   5.951175502078318E-3  -6.742319995759623E-2  -9.934622016990804E-1  -6.601888631268779E-2  
 1.033618475075031E6    -9.939602312145555E-1  -6.401509184441492E-2   5.660914550472406E-3  -6.583226264929946E-2   5.835512736935001E-3  -6.595017720448802E-2  -9.938894817890467E-1  -6.457242373129127E-2  
 1.054793537354946E6    -9.948663022412033E-1  -6.301366532931409E-2   5.615179485190807E-3  -6.481543830633608E-2   5.566333115604037E-3  -6.474960754326933E-2  -9.935013996826462E-1  -6.356720608737287E-2  
 1.076402399216980E6    -9.952702566754751E-1  -6.203205742707617E-2   5.418391235170246E-3  -6.332633723926760E-2   5.276580884016101E-3  -6.357012958261644E-2  -9.941422955845154E-1  -6.183707070549648E-2  
 1.098453947628028E6    -9.960598845332072E-1  -6.077637541911222E-2   5.280486689283181E-3  -6.220629724841293E-2   5.131734946445120E-3  -6.210249946418657E-2  -9.942702285903499E-1  -6.042457997325957E-2  
 1.120957251616430E6    -9.954622000803128E-1  -5.921896790247571E-2   5.016362717521372E-3  -6.088521955841050E-2   5.040203952007159E-3  -6.078935976679340E-2  -9.942066613174933E-1  -5.901504931904441E-2  
 1.143921566001752E6    -9.960375403333385E-1  -5.804072941886967E-2   4.955003503101418E-3  -5.969944654531548E-2   4.941787113697484E-3  -5.979510769089181E-2  -9.948892807959442E-1  -5.774706350779157E-2  
 1.167356335200965E6    -9.960133504283441E-1  -5.676629293105405E-2   4.659578029921140E-3  -5.845592465419480E-2   4.804187101862143E-3  -5.852798773958835E-2  -9.949337281969002E-1  -5.653960311462245E-2  
 1.191271197112600E6    -9.961233825954486E-1  -5.531247990774357E-2   4.628376344252475E-3  -5.734427019482704E-2   4.728726255558301E-3  -5.736339619818505E-2  -9.946673410989289E-1  -5.545655408061269E-2  
 1.215675987080482E6    -9.963131026260267E-1  -5.495533156790702E-2   4.627960863232112E-3  -5.622913596987797E-2   4.460134707931163E-3  -5.627783974424281E-2  -9.952474315651867E-1  -5.436093920218754E-2  
 1.240580741938659E6    -9.969500777903686E-1  -5.319637375380228E-2   4.412857484687094E-3  -5.512557283792650E-2   4.286790478832459E-3  -5.509603587448610E-2  -9.955006854829890E-1  -5.370859486591134E-2  
 1.265995704139202E6    -9.966682594379368E-1  -5.234027899218640E-2   4.216746972305197E-3  -5.388616022946548E-2   4.346709735695872E-3  -5.384613822574340E-2  -9.951841164003982E-1  -5.232771618008307E-2  
 1.291931325964563E6    -9.970089477187366E-1  -5.088329636192160E-2   4.127284718907133E-3  -5.301956033497866E-2   4.057193415129777E-3  -5.296474602611907E-2  -9.951427429262160E-1  -5.093433190381715E-2  
 1.318398273826236E6    -9.964643849115563E-1  -5.020794411626462E-2   3.898419919499111E-3  -5.184029410138382E-2   4.002926839917609E-3  -5.191088818000817E-2  -9.952614781184557E-1  -5.027725514414194E-2  
 1.345407432651476E6    -9.968952536344897E-1  -4.895610020877006E-2   3.894797596266219E-3  -5.087345494302176E-2   3.894626376702155E-3  -5.091879364455151E-2  -9.956344587816989E-1  -4.827815024300840E-2  
 1.372969910359885E6    -9.969701080787645E-1  -4.771774767101056E-2   3.709076101879621E-3  -4.972402331263983E-2   3.678664455576765E-3  -4.988933415232881E-2  -9.960679269736718E-1  -4.762158771016048E-2  
 1.401097042431717E6    -9.968540893130248E-1  -4.642766382197558E-2   3.603400973855839E-3  -4.865432928090189E-2   3.634834611655473E-3  -4.895209482462814E-2  -9.964916481280552E-1  -4.664662977741031E-2  
 1.429800396569754E6    -9.970154225548513E-1  -4.573092852048418E-2   3.491046473538168E-3  -4.776655695775248E-2   3.490028033157852E-3  -4.779870962352344E-2  -9.959938360212014E-1  -4.544590929144098E-2  
 1.459091777456705E6    -9.973303797800401E-1  -4.447373061187203E-2   3.397849703130769E-3  -4.688639167812141E-2   3.353372032030145E-3  -4.688291329720771E-2  -9.961335263050708E-1  -4.470343313618345E-2  
 1.488983231610052E6    -9.971804324492574E-1  -4.379053879650741E-2   3.294465747842646E-3  -4.597170171545112E-2   3.355389732306216E-3  -4.584922896703558E-2  -9.959613404103999E-1  -4.393143044098535E-2  
 1.519487052336364E6    -9.970256154036769E-1  -4.242316645138667E-2   3.239576835032006E-3  -4.495980715508937E-2   3.298604338953397E-3  -4.514432803844554E-2  -9.961303112088021E-1  -4.231071753004679E-2  
 1.550615784787099E6    -9.976313504283435E-1  -4.208894920052120E-2   3.184404121578089E-3  -4.414553609082018E-2   3.229950125334101E-3  -4.410720206671648E-2  -9.965792662354134E-1  -4.157594673781998E-2  
 1.582382231117988E6    -9.976285072508828E-1  -4.071061209445998E-2   3.000728221028710E-3  -4.314310900591746E-2   3.034662820833410E-3  -4.334640280039299E-2  -9.964782770338233E-1  -4.092466944118107E-2  
 1.614799455754111E6    -9.974317043961019E-1  -3.990871347434735E-2   3.059572997597663E-3  -4.245161176227628E-2   2.905202419394625E-3  -4.221317058399282E-2  -9.964540784655804E-1  -3.984052229278958E-2  
 1.647880790762838E6    -9.975379184995556E-1  -3.910761937799306E-2   2.849905600246273E-3  -4.164264256486399E-2   2.910257872927675E-3  -4.143601885742620E-2  -9.967208715422069E-1  -3.883212600767521E-2  
 1.681639841336839E6    -9.977021581963409E-1  -3.841071801108825E-2   2.849077375998609E-3  -4.058636739794042E-2   2.919456942135348E-3  -4.074607272460139E-2  -9.967989869007368E-1  -3.845599741021393E-2  
 1.716090491389422E6    -9.979909321439922E-1  -3.717033081288465E-2   2.716905120757447E-3  -3.995200332315619E-2   2.769268220508543E-3  -3.984728751026960E-2  -9.968790610686303E-1  -3.754540518606971E-2  
 1.751246909264502E6    -9.977354069777941E-1  -3.634631572004252E-2   2.680111295521471E-3  -3.906051456941170E-2   2.697914203306300E-3  -3.909196615079369E-2  -9.967014825040643E-1  -3.586074347309898E-2  
 1.787123553563544E6    -9.977403750546777E-1  -3.542563895772313E-2   2.508200343488484E-3  -3.838192167652783E-2   2.627240095823095E-3  -3.832939774059377E-2  -9.972489278210615E-1  -3.542071409850969E-2  
 1.823735179091875E6    -9.979327919282676E-1  -3.497848036878033E-2   2.620274102507952E-3  -3.758308375040047E-2   2.440035531040310E-3  -3.737150806448172E-2  -9.969691017543407E-1  -3.448301365842828E-2  
 1.861096842926821E6    -9.979634113520247E-1  -3.414777099851468E-2   2.571404075696450E-3  -3.672327636402874E-2   2.507736669915623E-3  -3.675559549483273E-2  -9.969792988475273E-1  -3.365809675914277E-2  
 1.899223910610154E6    -9.982885316274180E-1  -3.294310453116567E-2   2.273503827331783E-3  -3.600300157152318E-2   2.319827573414166E-3  -3.597908512897311E-2  -9.977580941566151E-1  -3.315429591965090E-2  
 1.938132062467400E6    -9.982498235849636E-1  -3.236279189643721E-2   2.361463871011478E-3  -3.532255018580112E-2   2.290996496605826E-3  -3.531599005598349E-2  -9.969515533525011E-1  -3.242035362044255E-2  
 1.977837300056607E6    -9.980785086923902E-1  -3.162093569549570E-2   2.217462208786845E-3  -3.462122423454928E-2   2.263033400893355E-3  -3.462756524877363E-2  -9.972363854608379E-1  -3.150939209949430E-2  
