#  HZ   S   RI   R     50 
! Rohde & Schwarz ZVA/B 
! 
! 
! 
 3.000000000000000E5    -9.448637594872846E-1  -2.218269839801774E-1   5.560175102503061E-2  -2.245401669973846E-1   5.614150518039695E-2  -2.253609462935851E-1  -9.430152925767877E-1  -2.222749704564906E-1  
 3.061459028037530E5    -9.470716190888138E-1  -2.182618561740845E-1   5.383431767050305E-2  -2.204739043330626E-1   5.411897660886977E-2  -2.210855975432928E-1  -9.447843540973890E-1  -2.180359272678368E-1  
 3.124177126784167E5    -9.487919454718463E-1  -2.141208473559779E-1   5.189333872293030E-2  -2.162655144804141E-1   5.226069416790986E-2  -2.170856908404225E-1  -9.469326570919525E-1  -2.140904106476511E-1  
 3.188180089993913E5    -9.503642404528442E-1  -2.099945897326463E-1   4.991779896625762E-2  -2.124423009513254E-1   5.022536762932539E-2  -2.130152470094856E-1  -9.486278551077481E-1  -2.103931299776523E-1  
 3.253494239840457E5    -9.522768682211259E-1  -2.062944526596822E-1   4.813492150528923E-2  -2.085078987713877E-1   4.851029344017493E-2  -2.092423189044932E-1  -9.505003040184790E-1  -2.062303207930804E-1  
 3.320146437742557E5    -9.536192424944328E-1  -2.025295197112960E-1   4.645904872649929E-2  -2.044728572222341E-1   4.671229548523956E-2  -2.052555479850483E-1  -9.523021181275924E-1  -2.026663781118837E-1  
 3.388164095411199E5    -9.555232721033109E-1  -1.986005054118926E-1   4.474181335127068E-2  -2.006680971754157E-1   4.495014448325903E-2  -2.014718334436073E-1  -9.537782664453171E-1  -1.988162201983471E-1  
 3.457575186123076E5    -9.572755346735926E-1  -1.948142155420261E-1   4.312865653623203E-2  -1.969106574693583E-1   4.331499718395432E-2  -1.976689150173194E-1  -9.553797608745739E-1  -1.949520638004980E-1  
 3.528408256225012E5    -9.583925168887636E-1  -1.915305550856822E-1   4.171562389432981E-2  -1.931967333410768E-1   4.181543410729795E-2  -1.939380672094778E-1  -9.566898763383773E-1  -1.914979491238563E-1  
 3.600692436874074E5    -9.601405746691658E-1  -1.879532657846713E-1   4.023533346478969E-2  -1.895928739677597E-1   4.021771541668236E-2  -1.903078480814112E-1  -9.584328851406883E-1  -1.877817636105811E-1  
 3.674457456018197E5    -9.614842451347136E-1  -1.845272269239674E-1   3.880379626939306E-2  -1.859700058402310E-1   3.886987282201345E-2  -1.866063301256613E-1  -9.595482027157249E-1  -1.844780343623497E-1  
 3.749733650622242E5    -9.626676988132182E-1  -1.807866252574735E-1   3.740290289357066E-2  -1.823939004421340E-1   3.733334305335798E-2  -1.830711374080609E-1  -9.610553246864739E-1  -1.808606693539963E-1  
 3.826551979144529E5    -9.641310664259897E-1  -1.772861740224610E-1   3.614427494360870E-2  -1.789228690750569E-1   3.606826462731312E-2  -1.796286543045012E-1  -9.625518971274917E-1  -1.775454186232142E-1  
 3.904944034268967E5    -9.654410953357726E-1  -1.741238799449714E-1   3.493523679073791E-2  -1.755036856858171E-1   3.482915438246639E-2  -1.761801520702685E-1  -9.639397554159951E-1  -1.742672778115474E-1  
 3.984942055898008E5    -9.665945119470594E-1  -1.705441685904834E-1   3.369565941203217E-2  -1.721828723615407E-1   3.364224291274215E-2  -1.726752493836361E-1  -9.648490987025923E-1  -1.712035018126396E-1  
 4.066578944411798E5    -9.680061545966209E-1  -1.673964107578249E-1   3.252196642197643E-2  -1.689883516894413E-1   3.242591049258427E-2  -1.693677558188138E-1  -9.661809815606465E-1  -1.677973529502594E-1  
 4.149888274198943E5    -9.690187094922469E-1  -1.640940695796939E-1   3.139968679305875E-2  -1.656690606784049E-1   3.129530581553359E-2  -1.660185725504806E-1  -9.674157816904843E-1  -1.643968050194715E-1  
 4.234904307464480E5    -9.696125407341949E-1  -1.608119233109874E-1   3.028374332079337E-2  -1.623711250186096E-1   3.023019635920242E-2  -1.628552129614471E-1  -9.683716751959897E-1  -1.610940303704115E-1  
 4.321662008320720E5    -9.708039677368482E-1  -1.578827491806497E-1   2.924139287569869E-2  -1.593743266967682E-1   2.911762553086667E-2  -1.596847965281928E-1  -9.694282001223721E-1  -1.582251396778233E-1  
 4.410197057166757E5    -9.718272041187156E-1  -1.546613778651741E-1   2.825939805403315E-2  -1.561716024242083E-1   2.817533213136814E-2  -1.564969657153428E-1  -9.705249363360038E-1  -1.551498726051286E-1  
 4.500545865362572E5    -9.728401041109279E-1  -1.517887849857947E-1   2.723679607427384E-2  -1.531159746056112E-1   2.720886592724039E-2  -1.534465661534260E-1  -9.714239488524193E-1  -1.521334603572887E-1  
 4.592745590203743E5    -9.740345471911491E-1  -1.487926181947970E-1   2.631252364668354E-2  -1.501368722312067E-1   2.626966481720090E-2  -1.505653549215353E-1  -9.724047227574406E-1  -1.491242651792552E-1  
 4.686834150202934E5    -9.747660071305093E-1  -1.456392217697292E-1   2.542822412454559E-2  -1.471877664498798E-1   2.536464520306302E-2  -1.475463263503873E-1  -9.733070080642570E-1  -1.461776464851664E-1  
 4.782850240684460E5    -9.757140299391436E-1  -1.430828218611823E-1   2.458161783479213E-2  -1.444132258546276E-1   2.454584076970150E-2  -1.447316175183060E-1  -9.740763230413285E-1  -1.432709785007419E-1  
 4.880833349698305E5    -9.763584937381397E-1  -1.401599141957100E-1   2.375277643072516E-2  -1.414396290298479E-1   2.369136009441126E-2  -1.417513327928882E-1  -9.750030302247956E-1  -1.406774502833320E-1  
 4.980823774260179E5    -9.773442759269643E-1  -1.373841317913260E-1   2.299972571223312E-2  -1.387523577033540E-1   2.285740261410707E-2  -1.390827533644531E-1  -9.760598415769969E-1  -1.377772066212126E-1  
 5.082862636924264E5    -9.781384718465355E-1  -1.348135015998955E-1   2.225047519432470E-2  -1.360021992518182E-1   2.210121247671273E-2  -1.362357259671554E-1  -9.767953704336476E-1  -1.350420480872836E-1  
 5.186991902695479E5    -9.788843657273580E-1  -1.322135189424505E-1   2.154745224946663E-2  -1.333063838235090E-1   2.134875448720085E-2  -1.336308176956326E-1  -9.776069217770219E-1  -1.324639234943121E-1  
 5.293254396288213E5    -9.795143411807180E-1  -1.293475481116495E-1   2.085254812012067E-2  -1.306943615543481E-1   2.066413871497256E-2  -1.308504441930531E-1  -9.782126947270463E-1  -1.297933306820613E-1  
 5.401693819738632E5    -9.803099839245889E-1  -1.267472637382005E-1   2.012313459853602E-2  -1.281506193757719E-1   2.001157627368840E-2  -1.282891052389546E-1  -9.788256871187472E-1  -1.272598864793621E-1  
 5.512354770377789E5    -9.809494225349170E-1  -1.241903550437228E-1   1.944259015733866E-2  -1.256270901789917E-1   1.939400082888470E-2  -1.257766098716912E-1  -9.796626679571159E-1  -1.246003846337066E-1  
 5.625282759172944E5    -9.814188660190484E-1  -1.221253954516330E-1   1.884473228166214E-2  -1.230861237252083E-1   1.880618683939011E-2  -1.232626996568740E-1  -9.802304582384963E-1  -1.222735846081817E-1  
 5.740524229444626E5    -9.819498342329504E-1  -1.195818546842343E-1   1.828021888973322E-2  -1.206918536851552E-1   1.814935759498216E-2  -1.207679061820278E-1  -9.808257110239930E-1  -1.195735007962697E-1  
 5.858126575967147E5    -9.826684720844520E-1  -1.167761190743539E-1   1.760605369472056E-2  -1.182929715932029E-1   1.756432741115958E-2  -1.183505676598310E-1  -9.813917651871250E-1  -1.172984248405831E-1  
 5.978138164460403E5    -9.830331043752919E-1  -1.149953212603037E-1   1.717644700705271E-2  -1.158653370884723E-1   1.695969684933924E-2  -1.159631029571726E-1  -9.819562498672922E-1  -1.150772390060323E-1  
 6.100608351481004E5    -9.836816590189987E-1  -1.124369128949703E-1   1.660827979554170E-2  -1.136667391969661E-1   1.647059769440351E-2  -1.136935899972971E-1  -9.827502340486811E-1  -1.125123514794290E-1  
 6.225587504720892E5    -9.842379919845443E-1  -1.100298608639949E-1   1.608319538479325E-2  -1.112991972646830E-1   1.595099662739727E-2  -1.113910890577283E-1  -9.830730573243374E-1  -1.101884940401078E-1  
 6.353127023721805E5    -9.848281221028185E-1  -1.077653522656281E-1   1.555257963103609E-2  -1.090775633869900E-1   1.546994716689717E-2  -1.092186425569754E-1  -9.836373921990402E-1  -1.079687707211967E-1  
 6.483279361014109E5    -9.851700822744884E-1  -1.056149761428055E-1   1.512260015785945E-2  -1.068319602981665E-1   1.502316802698957E-2  -1.069751735519801E-1  -9.843324588527436E-1  -1.059302329599289E-1  
 6.616098043688679E5    -9.856405815931412E-1  -1.036681737144657E-1   1.460726269553703E-2  -1.046698824082480E-1   1.457907786146083E-2  -1.048811535746972E-1  -9.846808462255926E-1  -1.035935120041594E-1  
 6.751637695410716E5    -9.861941183583476E-1  -1.013820699838926E-1   1.420598542791862E-2  -1.025834641074407E-1   1.415334525218437E-2  -1.026466252445363E-1  -9.850717956004255E-1  -1.014989785332039E-1  
 6.889954058884548E5    -9.865833106265910E-1  -9.923614373921531E-2   1.377844401407607E-2  -1.004771913597682E-1   1.375307461869258E-2  -1.006347868595281E-1  -9.854527150529735E-1  -9.960112803003857E-2  
 7.031104018778642E5    -9.872110874630902E-1  -9.721457376987563E-2   1.336886520489163E-2  -9.852280376510383E-2   1.329251348193885E-2  -9.855061877045095E-2  -9.857700274779402E-1  -9.742871296720602E-2  
 7.175145625120278E5    -9.872378520876041E-1  -9.535295971578302E-2   1.299912229284982E-2  -9.655337290708203E-2   1.292842244832634E-2  -9.653387182499387E-2  -9.865051106544764E-1  -9.533582214997377E-2  
 7.322138117169489E5    -9.878218976747540E-1  -9.317757715040105E-2   1.253367657884205E-2  -9.455323912840589E-2   1.250783536841664E-2  -9.457445559813522E-2  -9.867005786656734E-1  -9.354306029563640E-2  
 7.472141947782085E5    -9.880588752404940E-1  -9.125118699089532E-2   1.219088429927861E-2  -9.257500949299193E-2   1.215328519352737E-2  -9.270403124091747E-2  -9.871039468782129E-1  -9.141232332419925E-2  
 7.625218808271801E5    -9.884347555607801E-1  -8.942741308241486E-2   1.190963581060917E-2  -9.074436722316899E-2   1.184432622372142E-2  -9.080043539898597E-2  -9.875791349208979E-1  -8.931599619932014E-2  
 7.781431653781761E5    -9.888927590814109E-1  -8.774785190126812E-2   1.158066698786097E-2  -8.885115864318575E-2   1.147707296232718E-2  -8.893183181999671E-2  -9.879296872794049E-1  -8.761847799130773E-2  
 7.940844729175728E5    -9.891998987675615E-1  -8.568134694472852E-2   1.121262611046307E-2  -8.701407765082433E-2   1.118736864480174E-2  -8.713664805274944E-2  -9.883891773877850E-1  -8.590279195628721E-2  
 8.103523595459757E5    -9.897287227935474E-1  -8.396784731891428E-2   1.089600327219675E-2  -8.527824809211176E-2   1.086957723501705E-2  -8.532334529064846E-2  -9.885806994941430E-1  -8.389619003540340E-2  
 8.269535156745140E5    -9.897943400771857E-1  -8.189557525619724E-2   1.058786369600281E-2  -8.348264958289618E-2   1.052559777149895E-2  -8.354638484545786E-2  -9.886921105694877E-1  -8.211452319514360E-2  
 8.438947687763721E5    -9.901607623615695E-1  -8.042180242365267E-2   1.033096928973822E-2  -8.179114358924972E-2   1.025998855887576E-2  -8.186248851630856E-2  -9.890762158743675E-1  -8.033163438851991E-2  
 8.611830861946895E5    -9.903783843451151E-1  -7.842737900043185E-2   1.001081718414578E-2  -8.007679982519175E-2   9.973997459970461E-3  -8.009956381418895E-2  -9.892445924576105E-1  -7.857935026253160E-2  
 8.788255780079850E5    -9.907021741889541E-1  -7.698596970256412E-2   9.770452598511496E-3  -7.849398692658444E-2   9.708328848556514E-3  -7.848246969367097E-2  -9.895568499879182E-1  -7.705059818403633E-2  
 8.968294999542822E5    -9.910701690146588E-1  -7.523081810814011E-2   9.530811889301757E-3  -7.683134776175593E-2   9.498065286739221E-3  -7.684429615015070E-2  -9.897199314764371E-1  -7.539820968543000E-2  
 9.152022564151404E5    -9.910893021592756E-1  -7.357829129530798E-2   9.253673713661188E-3  -7.519139522304237E-2   9.279544800333616E-3  -7.521468663321025E-2  -9.900530966608018E-1  -7.363776812621141E-2  
 9.339514034608167E5    -9.914528736925667E-1  -7.212712762561588E-2   9.093280223808850E-3  -7.362441500554851E-2   9.058536115663325E-3  -7.363082907850443E-2  -9.902950309072707E-1  -7.217424619359289E-2  
 9.530846519578132E5    -9.917473998208828E-1  -7.042223310059340E-2   8.827445098243488E-3  -7.207614726605895E-2   8.756599713175084E-3  -7.214638528847005E-2  -9.905680140914306E-1  -7.049608367459791E-2  
 9.726098707400849E5    -9.919664668850464E-1  -6.880732092691808E-2   8.555901786824539E-3  -7.056799878040315E-2   8.574075711475684E-3  -7.058634767240901E-2  -9.907349084103002E-1  -6.893918946558229E-2  
 9.925350898452161E5    -9.920583828229471E-1  -6.753867575152513E-2   8.411069107448200E-3  -6.905817824240125E-2   8.328351246450838E-3  -6.909447649561361E-2  -9.909218721050956E-1  -6.753648899414375E-2  
 1.012868503816893E6    -9.919752476093511E-1  -6.617039843434087E-2   8.178978792641794E-3  -6.752635262743346E-2   8.175522175915209E-3  -6.773526012557206E-2  -9.908561783437633E-1  -6.603284878192885E-2  
 1.033618475075031E6    -9.918670846644785E-1  -6.396535371925244E-2   7.853189165014624E-3  -6.617279488442766E-2   7.972912449749152E-3  -6.622210968084008E-2  -9.911590617587098E-1  -6.464092150923650E-2  
 1.054793537354946E6    -9.928199648813683E-1  -6.275024441981475E-2   7.660645369416553E-3  -6.478038236580097E-2   7.788309583355591E-3  -6.473149244431711E-2  -9.911836531171751E-1  -6.351245216688363E-2  
 1.076402399216980E6    -9.923916181518334E-1  -6.159642210717581E-2   7.603902599589173E-3  -6.330159277312479E-2   7.620880458787950E-3  -6.344746038026396E-2  -9.921278246237035E-1  -6.153308249725232E-2  
 1.098453947628028E6    -9.933367822334736E-1  -6.034871625654157E-2   7.504134956329742E-3  -6.199484037047153E-2   7.439649798234350E-3  -6.209676313444857E-2  -9.921270304369145E-1  -6.028983790745891E-2  
 1.120957251616430E6    -9.935576622241402E-1  -5.845970609260051E-2   7.333609095388186E-3  -6.065622007861795E-2   7.343027652378923E-3  -6.067903829685715E-2  -9.920967390300396E-1  -5.921172713111972E-2  
 1.143921566001752E6    -9.932965228194565E-1  -5.761919463955831E-2   7.151645582739319E-3  -5.940534834065499E-2   7.095903454348536E-3  -5.932492333191983E-2  -9.922701666684742E-1  -5.724105239544018E-2  
 1.167356335200965E6    -9.932635375913334E-1  -5.570297664295774E-2   7.036335472156022E-3  -5.815402465221864E-2   7.200789915727693E-3  -5.826606287519231E-2  -9.927200356711731E-1  -5.625968449286988E-2  
 1.191271197112600E6    -9.939810925639666E-1  -5.436321915082956E-2   6.898300687185110E-3  -5.710137759644965E-2   6.782868149192437E-3  -5.687659966826615E-2  -9.921274589648004E-1  -5.499835840254588E-2  
 1.215675987080482E6    -9.933153647915085E-1  -5.336103813754632E-2   6.637590673659757E-3  -5.587182954897151E-2   6.679925231382720E-3  -5.572528860326085E-2  -9.928615206852973E-1  -5.347860359517664E-2  
 1.240580741938659E6    -9.936726043619758E-1  -5.230344234967364E-2   6.648213574377846E-3  -5.453970153424360E-2   6.587132502801082E-3  -5.443083158721906E-2  -9.931967208827226E-1  -5.227324246519731E-2  
 1.265995704139202E6    -9.940543342880929E-1  -5.120528118231318E-2   6.427208490805828E-3  -5.314774856761313E-2   6.420721574479473E-3  -5.326393418549547E-2  -9.928294880675757E-1  -5.137252301934448E-2  
 1.291931325964563E6    -9.938244139277432E-1  -4.919310904122266E-2   6.074608768267535E-3  -5.201580105558040E-2   6.390502139295559E-3  -5.208720499686395E-2  -9.934504732412144E-1  -4.959829313984664E-2  
 1.318398273826236E6    -9.943375315366989E-1  -4.825634651791494E-2   6.325903359357703E-3  -5.094456516161661E-2   6.192256469940618E-3  -5.096888107290135E-2  -9.930521106877127E-1  -4.903934880028443E-2  
 1.345407432651476E6    -9.948522329152529E-1  -4.743265820703271E-2   6.148224796791815E-3  -4.974979776161025E-2   6.146241864636991E-3  -4.995055640435343E-2  -9.934560352213107E-1  -4.711887973606989E-2  
 1.372969910359885E6    -9.941259583537143E-1  -4.644359210728128E-2   5.943590720415014E-3  -4.884263828560520E-2   5.964634227334600E-3  -4.868562201065585E-2  -9.933990734201267E-1  -4.638031311554969E-2  
 1.401097042431717E6    -9.940192660451964E-1  -4.515411452741760E-2   5.754481377213335E-3  -4.757322425151880E-2   5.746862144691686E-3  -4.764077981224181E-2  -9.933705904906472E-1  -4.520188994695937E-2  
 1.429800396569754E6    -9.943763484463257E-1  -4.390129292983461E-2   5.813361372340452E-3  -4.655816018532539E-2   5.815478442942022E-3  -4.660599959334435E-2  -9.934918613843529E-1  -4.401821805764700E-2  
 1.459091777456705E6    -9.947491567684738E-1  -4.332968112286510E-2   5.705675712373851E-3  -4.557077282130883E-2   5.773075059853462E-3  -4.534967892875352E-2  -9.938839624291463E-1  -4.318988348681148E-2  
 1.488983231610052E6    -9.949159046267780E-1  -4.199977152660918E-2   5.574717734854420E-3  -4.429454709699739E-2   5.689064359186397E-3  -4.434210229313351E-2  -9.938314383694367E-1  -4.198300816140416E-2  
 1.519487052336364E6    -9.948194595500465E-1  -4.079075494059586E-2   5.515791631517744E-3  -4.340774562177401E-2   5.575819853042730E-3  -4.344273619657315E-2  -9.937482765841068E-1  -4.066046248758026E-2  
 1.550615784787099E6    -9.948150614612313E-1  -4.004078929931910E-2   5.463403337320295E-3  -4.253011042789093E-2   5.432116419087877E-3  -4.257429294926662E-2  -9.941586709277581E-1  -3.968100877184839E-2  
 1.582382231117988E6    -9.949069449821238E-1  -3.849189459933678E-2   5.302730012463550E-3  -4.141773395416645E-2   5.439771094591831E-3  -4.167285480069009E-2  -9.939933925563641E-1  -3.882009951665552E-2  
 1.614799455754111E6    -9.946102698772754E-1  -3.763795910970944E-2   5.335480199622867E-3  -4.034533850266480E-2   5.386532648804541E-3  -4.063723325127418E-2  -9.942077510014491E-1  -3.758055410093820E-2  
 1.647880790762838E6    -9.952179517700786E-1  -3.675368219162810E-2   5.331548270770418E-3  -3.966666016875439E-2   5.242063489088038E-3  -3.963796212741505E-2  -9.940638658991901E-1  -3.641945620238178E-2  
 1.681639841336839E6    -9.952696186555212E-1  -3.643462718726909E-2   5.170534859562001E-3  -3.861532083362056E-2   5.163411320561138E-3  -3.865910109351122E-2  -9.945975759329840E-1  -3.620907979390134E-2  
 1.716090491389422E6    -9.959810636101295E-1  -3.476431798427419E-2   5.071873045974394E-3  -3.778715132045442E-2   5.021020102614763E-3  -3.773578559427395E-2  -9.941186840989172E-1  -3.514566148837732E-2  
 1.751246909264502E6    -9.952610013852462E-1  -3.399271333420259E-2   5.123605235464757E-3  -3.686745926614077E-2   5.209889456881080E-3  -3.686837198512909E-2  -9.944922508564980E-1  -3.392531550484992E-2  
 1.787123553563544E6    -9.951516547850705E-1  -3.279037879581080E-2   5.050829946452446E-3  -3.585686969691864E-2   4.929450051943631E-3  -3.604282362606819E-2  -9.946740187640997E-1  -3.256331826582849E-2  
 1.823735179091875E6    -9.950916642057466E-1  -3.201600748059067E-2   4.932198768931755E-3  -3.506552039887489E-2   4.965127403194930E-3  -3.510440192300316E-2  -9.941696494525820E-1  -3.219736393486661E-2  
 1.861096842926821E6    -9.955087433226008E-1  -3.107059743975754E-2   4.882440652631154E-3  -3.408996364724905E-2   4.867685276750224E-3  -3.413161202883459E-2  -9.946130536833731E-1  -3.068830766874725E-2  
 1.899223910610154E6    -9.955231674904597E-1  -3.022204005299641E-2   4.974395889140532E-3  -3.340372134854376E-2   4.888679772778703E-3  -3.345943711010196E-2  -9.947920243317429E-1  -3.029611486420537E-2  
 1.938132062467400E6    -9.953705146605831E-1  -2.934557947632842E-2   4.897420640735411E-3  -3.247793120240464E-2   4.881303552692741E-3  -3.248446037602060E-2  -9.947195768519466E-1  -2.940906593426329E-2  
 1.977837300056607E6    -9.954454844542214E-1  -2.858577698124021E-2   4.778736367463653E-3  -3.185924276336111E-2   4.688092202290674E-3  -3.179706161331276E-2  -9.943900803653594E-1  -2.851102101394352E-2  
