#  HZ   S   RI   R     50 
! Rohde & Schwarz ZVA/B 
! 
! 
! 
 3.000000000000000E5    -1.728641690071468E-1  -3.720530846847417E-1   8.300927116613894E-1  -3.716975737713215E-1   8.311017164856208E-1  -3.719448409353257E-1  -1.724584077167077E-1  -3.702326316512588E-1  
 3.061459028037530E5    -1.787166276204737E-1  -3.772613750035362E-1   8.245438213388269E-1  -3.763594783867164E-1   8.250957467756940E-1  -3.770959962690838E-1  -1.781843952942053E-1  -3.752040432731182E-1  
 3.124177126784167E5    -1.844241467500117E-1  -3.817497752831137E-1   8.184263067904130E-1  -3.813088707171267E-1   8.193950925161124E-1  -3.818807080158270E-1  -1.840980025769981E-1  -3.800052331728754E-1  
 3.188180089993913E5    -1.905714712515338E-1  -3.864268512765759E-1   8.126884797070767E-1  -3.860742699708303E-1   8.132190629827678E-1  -3.865121084514882E-1  -1.895899331976721E-1  -3.846324109556989E-1  
 3.253494239840457E5    -1.966043539688580E-1  -3.911573106430815E-1   8.063039053705209E-1  -3.910394401237031E-1   8.070727926191676E-1  -3.911960292927830E-1  -1.959753495544536E-1  -3.890856039601173E-1  
 3.320146437742557E5    -2.029355730479203E-1  -3.957839529089843E-1   8.000471975307303E-1  -3.957274577450846E-1   8.005799405303974E-1  -3.960935273194973E-1  -2.024778219190087E-1  -3.939252819259242E-1  
 3.388164095411199E5    -2.093861502767088E-1  -4.002942775396431E-1   7.934103396842931E-1  -4.003487712520703E-1   7.944261929873226E-1  -4.008008817858180E-1  -2.085681077881700E-1  -3.985575504555577E-1  
 3.457575186123076E5    -2.160582372065555E-1  -4.045905276053025E-1   7.865366142671187E-1  -4.053947646045485E-1   7.874673674894769E-1  -4.055912227400122E-1  -2.151818315241036E-1  -4.028863325736593E-1  
 3.528408256225012E5    -2.227689392225105E-1  -4.092118222175818E-1   7.798648391426566E-1  -4.094176720196091E-1   7.807002129024794E-1  -4.100618663350232E-1  -2.220588615410883E-1  -4.073986055891128E-1  
 3.600692436874074E5    -2.296433611135916E-1  -4.138742757206847E-1   7.729929776911582E-1  -4.140209515653541E-1   7.739424771447073E-1  -4.147868561375659E-1  -2.288562472502882E-1  -4.118726213149605E-1  
 3.674457456018197E5    -2.367286498897823E-1  -4.180325252490380E-1   7.658019897213227E-1  -4.184038181912171E-1   7.666319634570352E-1  -4.189525441730723E-1  -2.357212293999422E-1  -4.160650897276991E-1  
 3.749733650622242E5    -2.440194722256655E-1  -4.222032390664217E-1   7.585032674433129E-1  -4.229072435206283E-1   7.591926627879468E-1  -4.235283968122762E-1  -2.427877378949772E-1  -4.205311736538707E-1  
 3.826551979144529E5    -2.512966675719731E-1  -4.264566895284438E-1   7.514419191115991E-1  -4.272958562889925E-1   7.519321080613965E-1  -4.278083586969897E-1  -2.500453589178781E-1  -4.247816314153148E-1  
 3.904944034268967E5    -2.588216402934206E-1  -4.305611672015322E-1   7.436681866677815E-1  -4.312996695107504E-1   7.444920908027024E-1  -4.320453655776033E-1  -2.575332841601254E-1  -4.291422161861480E-1  
 3.984942055898008E5    -2.666463503391295E-1  -4.344929961230741E-1   7.360653820278010E-1  -4.355271610205996E-1   7.365892505082321E-1  -4.361794539125186E-1  -2.651143706900191E-1  -4.330673534035545E-1  
 4.066578944411798E5    -2.742684920082188E-1  -4.384330742186171E-1   7.285266904029334E-1  -4.396975722517740E-1   7.288519316451276E-1  -4.402882311122091E-1  -2.729946798468021E-1  -4.372430220561993E-1  
 4.149888274198943E5    -2.819724296074713E-1  -4.421699762578531E-1   7.200553542155400E-1  -4.434617399989548E-1   7.206883719435071E-1  -4.443284335794581E-1  -2.808781068440201E-1  -4.410234889157916E-1  
 4.234904307464480E5    -2.900516878141835E-1  -4.459156428812756E-1   7.120071088961701E-1  -4.473673333380158E-1   7.125390841250753E-1  -4.481087687932726E-1  -2.889285104670901E-1  -4.449449682364517E-1  
 4.321662008320720E5    -2.983601783643916E-1  -4.495269850345713E-1   7.037513451723088E-1  -4.509890763400003E-1   7.042051556778385E-1  -4.516116743783952E-1  -2.969318094132995E-1  -4.485165226965573E-1  
 4.410197057166757E5    -3.065277189948367E-1  -4.530508468653615E-1   6.954500491286141E-1  -4.547752587184453E-1   6.958000895798888E-1  -4.552917037638893E-1  -3.053187083789745E-1  -4.521705838165446E-1  
 4.500545865362572E5    -3.149019383943544E-1  -4.565071375304725E-1   6.868555984347685E-1  -4.581378489709804E-1   6.873673806728676E-1  -4.586379857771645E-1  -3.136471329348521E-1  -4.554703979918696E-1  
 4.592745590203743E5    -3.234596221836802E-1  -4.598072470304765E-1   6.781856846398188E-1  -4.613063390950736E-1   6.786410928522184E-1  -4.619781474838509E-1  -3.222689329499381E-1  -4.584922608104930E-1  
 4.686834150202934E5    -3.320048156850627E-1  -4.630183708590376E-1   6.695877907182805E-1  -4.644106440066327E-1   6.697561938150636E-1  -4.652989569528275E-1  -3.309636425791662E-1  -4.618394674534852E-1  
 4.782850240684460E5    -3.406781577605927E-1  -4.658849065056722E-1   6.605077527867760E-1  -4.673410163580696E-1   6.610835348534966E-1  -4.680160616626911E-1  -3.396737071785326E-1  -4.648274473148726E-1  
 4.880833349698305E5    -3.497467013489873E-1  -4.685005162375210E-1   6.514130247591433E-1  -4.703884479624843E-1   6.518504124283682E-1  -4.709018664093303E-1  -3.483911413376327E-1  -4.679514014224649E-1  
 4.980823774260179E5    -3.586003795017021E-1  -4.713559349514040E-1   6.424844863613035E-1  -4.730557534964951E-1   6.428304532629342E-1  -4.736370480858854E-1  -3.575971700878967E-1  -4.706031218429477E-1  
 5.082862636924264E5    -3.678039981122976E-1  -4.739831060430574E-1   6.332266952863387E-1  -4.757030129766905E-1   6.335979153786016E-1  -4.762597922280313E-1  -3.666694800417497E-1  -4.732132248581677E-1  
 5.186991902695479E5    -3.771268717695309E-1  -4.763233138445209E-1   6.241678942320483E-1  -4.781020659427406E-1   6.243919879413578E-1  -4.786773959295621E-1  -3.758894129251104E-1  -4.755131332039896E-1  
 5.293254396288213E5    -3.864496204763902E-1  -4.784687120168956E-1   6.147427128582681E-1  -4.801783011544906E-1   6.149238835217661E-1  -4.809595821817834E-1  -3.851137906176588E-1  -4.780432030044723E-1  
 5.401693819738632E5    -3.957700617574207E-1  -4.805049330939197E-1   6.053118863009720E-1  -4.822793551105118E-1   6.054657947573636E-1  -4.827596433918834E-1  -3.946055307686608E-1  -4.799430074221980E-1  
 5.512354770377789E5    -4.051304113907888E-1  -4.822414490561991E-1   5.953658547756554E-1  -4.841323059781910E-1   5.958714182181891E-1  -4.847647959081535E-1  -4.041100741280402E-1  -4.818273797333387E-1  
 5.625282759172944E5    -4.144969940601927E-1  -4.840507844047637E-1   5.859833295357684E-1  -4.856482724039738E-1   5.862871389433906E-1  -4.864579750159566E-1  -4.137441573478520E-1  -4.836582551136923E-1  
 5.740524229444626E5    -4.241687038878239E-1  -4.856057006622224E-1   5.762456179999034E-1  -4.873520714135324E-1   5.765648572482626E-1  -4.881182290937867E-1  -4.233444424175670E-1  -4.851130278047618E-1  
 5.858126575967147E5    -4.339421603096257E-1  -4.868742058976373E-1   5.665119077388736E-1  -4.887919202377765E-1   5.668100426513782E-1  -4.895079769761477E-1  -4.330961387382710E-1  -4.865119808555082E-1  
 5.978138164460403E5    -4.436016624569941E-1  -4.881957773186046E-1   5.568652674050603E-1  -4.897519400703684E-1   5.570770765665731E-1  -4.904550685581863E-1  -4.426971730501657E-1  -4.877259561284116E-1  
 6.100608351481004E5    -4.533319458491172E-1  -4.891608569977678E-1   5.470689109567759E-1  -4.908378939995660E-1   5.471846081845322E-1  -4.913433862912596E-1  -4.525657759956994E-1  -4.886747368278591E-1  
 6.225587504720892E5    -4.631707153623810E-1  -4.898557985896907E-1   5.371292420922434E-1  -4.916108781118838E-1   5.372688328671557E-1  -4.920249176538403E-1  -4.624078683394165E-1  -4.893667324700773E-1  
 6.353127023721805E5    -4.729468798322298E-1  -4.904775883362861E-1   5.273343152743995E-1  -4.920798533066159E-1   5.274879210211352E-1  -4.926254600074263E-1  -4.722551091531581E-1  -4.899294294302562E-1  
 6.483279361014109E5    -4.828549385476384E-1  -4.907430167543452E-1   5.173346711796696E-1  -4.924617126409853E-1   5.175679565175382E-1  -4.928798325296362E-1  -4.821225436734566E-1  -4.903637835160349E-1  
 6.616098043688679E5    -4.926046814562735E-1  -4.910019466128559E-1   5.074595946143328E-1  -4.925049224426078E-1   5.077626169291485E-1  -4.930549714480699E-1  -4.919425947881367E-1  -4.905641150394965E-1  
 6.751637695410716E5    -5.025763321086048E-1  -4.909848150520194E-1   4.976704746189449E-1  -4.926738444624432E-1   4.977930447672284E-1  -4.931300833164019E-1  -5.017882149201809E-1  -4.905914660115648E-1  
 6.889954058884548E5    -5.124067975230607E-1  -4.908653664501697E-1   4.877471165682935E-1  -4.923071853262497E-1   4.878468975247685E-1  -4.928196597405860E-1  -5.116243207459787E-1  -4.904124902221868E-1  
 7.031104018778642E5    -5.223559083600455E-1  -4.906020604848752E-1   4.778193183916208E-1  -4.919902778014207E-1   4.779804204817286E-1  -4.924582775260341E-1  -5.215282110975509E-1  -4.899537080173109E-1  
 7.175145625120278E5    -5.321303824328821E-1  -4.898685389981070E-1   4.680648714340357E-1  -4.913563806998839E-1   4.682174450063989E-1  -4.917421204568948E-1  -5.314133204675035E-1  -4.895015630082538E-1  
 7.322138117169489E5    -5.420052393405848E-1  -4.890835305972212E-1   4.582558094542355E-1  -4.905860729913718E-1   4.583249549400491E-1  -4.910032549577379E-1  -5.412369116215553E-1  -4.888237138176872E-1  
 7.472141947782085E5    -5.516817195863327E-1  -4.882325722964938E-1   4.484234456973254E-1  -4.896397986185994E-1   4.484518106203295E-1  -4.900791890886986E-1  -5.511049739254244E-1  -4.877006460168492E-1  
 7.625218808271801E5    -5.614264435587500E-1  -4.870644711354977E-1   4.386919207762959E-1  -4.885303169094008E-1   4.387807190700571E-1  -4.888473622551155E-1  -5.610227398540650E-1  -4.865236063444588E-1  
 7.781431653781761E5    -5.712904786375467E-1  -4.858022216582666E-1   4.289279649046311E-1  -4.870872264411615E-1   4.289995432598517E-1  -4.873949458230391E-1  -5.707045944613796E-1  -4.853004924519067E-1  
 7.940844729175728E5    -5.808580852655605E-1  -4.842546308892274E-1   4.191985989223803E-1  -4.854198324461454E-1   4.192360775549147E-1  -4.859617758028749E-1  -5.802834145555595E-1  -4.836248656975111E-1  
 8.103523595459757E5    -5.905973269508922E-1  -4.826009450406522E-1   4.096775196422426E-1  -4.838561642563977E-1   4.096345029602660E-1  -4.840975135614089E-1  -5.898497745980847E-1  -4.818411467985285E-1  
 8.269535156745140E5    -6.001939176413680E-1  -4.806613047920144E-1   4.000647840747297E-1  -4.818433299263994E-1   3.999909651102940E-1  -4.823608297485601E-1  -5.993118186805955E-1  -4.799070296639796E-1  
 8.438947687763721E5    -6.094613108853318E-1  -4.785462053807639E-1   3.906931248868476E-1  -4.797040001472140E-1   3.907264851904201E-1  -4.802568611587580E-1  -6.089247375293599E-1  -4.778111774252450E-1  
 8.611830861946895E5    -6.189388756861872E-1  -4.762916427716290E-1   3.812924675188639E-1  -4.774880669877057E-1   3.812319026925002E-1  -4.779761575576077E-1  -6.181557174448418E-1  -4.755209103075255E-1  
 8.788255780079850E5    -6.283304569004737E-1  -4.736656010436583E-1   3.718797202470529E-1  -4.752383742082659E-1   3.720124050753689E-1  -4.754628195403893E-1  -6.275605154064682E-1  -4.731511469587622E-1  
 8.968294999542822E5    -6.374688827226440E-1  -4.711230655555783E-1   3.627447496238066E-1  -4.724134046518275E-1   3.627322621231322E-1  -4.728835486020082E-1  -6.365962398834488E-1  -4.705622711237312E-1  
 9.152022564151404E5    -6.465847894214822E-1  -4.683234271563259E-1   3.536079875512853E-1  -4.698717744400843E-1   3.535794043478286E-1  -4.701233249552652E-1  -6.458422998146811E-1  -4.678311071526214E-1  
 9.339514034608167E5    -6.554491647019058E-1  -4.655440508059478E-1   3.446405170211356E-1  -4.667738447062384E-1   3.445726529377817E-1  -4.670756018317184E-1  -6.547672905996536E-1  -4.647427088380711E-1  
 9.530846519578132E5    -6.643849157456317E-1  -4.623360329703264E-1   3.357492789954235E-1  -4.638464785479206E-1   3.357957175900627E-1  -4.641473737006715E-1  -6.637063090653924E-1  -4.617419878930467E-1  
 9.726098707400849E5    -6.731865819338526E-1  -4.590624193910031E-1   3.270168965359523E-1  -4.607401900090269E-1   3.270885957055447E-1  -4.609179491689744E-1  -6.724122370396503E-1  -4.587516099131775E-1  
 9.925350898452161E5    -6.817616662706245E-1  -4.559287620298405E-1   3.184514518342130E-1  -4.573378928508512E-1   3.184176368151503E-1  -4.575697784949950E-1  -6.811732897110049E-1  -4.552633290328108E-1  
 1.012868503816893E6    -6.904546511120443E-1  -4.521594806710150E-1   3.100744498430270E-1  -4.540133064712943E-1   3.094345060767478E-1  -4.539448722015700E-1  -6.892087899735404E-1  -4.518317683750305E-1  
 1.033618475075031E6    -6.983317396780756E-1  -4.483089593935029E-1   3.013900989227133E-1  -4.501699259803212E-1   3.012813865461562E-1  -4.508940274740658E-1  -6.982366622706772E-1  -4.479776368144777E-1  
 1.054793537354946E6    -7.068655911937745E-1  -4.449945011014439E-1   2.932780493755146E-1  -4.465780776666037E-1   2.930331617845908E-1  -4.465605136598918E-1  -7.057495435519910E-1  -4.443734584399780E-1  
 1.076402399216980E6    -7.150513279065244E-1  -4.406107968606137E-1   2.845978960528747E-1  -4.425039834676687E-1   2.851138642203130E-1  -4.430148774572445E-1  -7.141708985556684E-1  -4.406394650867376E-1  
 1.098453947628028E6    -7.232002579398428E-1  -4.366672028937595E-1   2.767496863036705E-1  -4.387436389039960E-1   2.772865977779585E-1  -4.389755270214535E-1  -7.222299148277377E-1  -4.366982604515452E-1  
 1.120957251616430E6    -7.310322432769786E-1  -4.330912152276603E-1   2.692827510973072E-1  -4.345599098627765E-1   2.695067032545466E-1  -4.347777955999641E-1  -7.301265719309090E-1  -4.325348409093163E-1  
 1.143921566001752E6    -7.381678797723846E-1  -4.289588331200221E-1   2.613385447352851E-1  -4.301817187290221E-1   2.617350282782098E-1  -4.308660042913250E-1  -7.383376729583724E-1  -4.283366009846015E-1  
 1.167356335200965E6    -7.464652041291886E-1  -4.246231692868723E-1   2.541273982110526E-1  -4.264403260259301E-1   2.541685077124977E-1  -4.265338506470010E-1  -7.457900198009533E-1  -4.239218289485150E-1  
 1.191271197112600E6    -7.536159559610434E-1  -4.203477783625963E-1   2.466564760348844E-1  -4.221086926399981E-1   2.467241837240421E-1  -4.222450030254960E-1  -7.527384594121985E-1  -4.197388287219185E-1  
 1.215675987080482E6    -7.603082369237549E-1  -4.154546615322165E-1   2.395023680199145E-1  -4.174450010225357E-1   2.394997087208129E-1  -4.176789620188155E-1  -7.601279246482853E-1  -4.149776746013886E-1  
 1.240580741938659E6    -7.684107383035356E-1  -4.104879001278410E-1   2.318793412739527E-1  -4.131886351645245E-1   2.323327499026667E-1  -4.131865837429458E-1  -7.671848345779895E-1  -4.109295026340262E-1  
 1.265995704139202E6    -7.747112383226049E-1  -4.067431506829607E-1   2.255082821759004E-1  -4.082914179894071E-1   2.256394744509906E-1  -4.084677541604152E-1  -7.739531525463634E-1  -4.060675095159862E-1  
 1.291931325964563E6    -7.818766311609617E-1  -4.017621565583205E-1   2.184515669074609E-1  -4.040032708758474E-1   2.188189408047074E-1  -4.041616747849808E-1  -7.809528855346954E-1  -4.017370978071717E-1  
 1.318398273826236E6    -7.889222622165255E-1  -3.970953330393811E-1   2.119217623023506E-1  -3.993150818861171E-1   2.119771050410342E-1  -3.992388376243903E-1  -7.875111004328049E-1  -3.966840782164731E-1  
 1.345407432651476E6    -7.947768780077124E-1  -3.926718153266641E-1   2.052841591225610E-1  -3.945963544673612E-1   2.054495613770890E-1  -3.947359328953043E-1  -7.941634415851956E-1  -3.917215177103049E-1  
 1.372969910359885E6    -8.013227210555444E-1  -3.875003539276715E-1   1.990480111678361E-1  -3.897767058144437E-1   1.989009737963062E-1  -3.899690806634900E-1  -8.006449036120180E-1  -3.869852449925392E-1  
 1.401097042431717E6    -8.071372846172651E-1  -3.823949257918993E-1   1.926485717047936E-1  -3.847560251699138E-1   1.928597307996449E-1  -3.850568764519320E-1  -8.066157140927879E-1  -3.823261950559674E-1  
 1.429800396569754E6    -8.130688555567339E-1  -3.777527296998721E-1   1.866573385455299E-1  -3.799177990634740E-1   1.868690672980215E-1  -3.800116439364099E-1  -8.127449375465460E-1  -3.774708829726275E-1  
 1.459091777456705E6    -8.196346422388836E-1  -3.728282540286810E-1   1.808396333097870E-1  -3.752823676434162E-1   1.809959823045396E-1  -3.752815584696854E-1  -8.187132730600553E-1  -3.724239010568600E-1  
 1.488983231610052E6    -8.254302343943484E-1  -3.682859800653717E-1   1.752283412418182E-1  -3.702415200432164E-1   1.750772294115069E-1  -3.701470523724252E-1  -8.245407488496012E-1  -3.674091976408637E-1  
 1.519487052336364E6    -8.302715038570817E-1  -3.623871689726699E-1   1.692195975706337E-1  -3.649677121686288E-1   1.694593597562847E-1  -3.653256678934128E-1  -8.299960189031230E-1  -3.622189939600745E-1  
 1.550615784787099E6    -8.365392920778547E-1  -3.580723716714315E-1   1.639784541693989E-1  -3.603562038462301E-1   1.640364824325933E-1  -3.606679488932705E-1  -8.357157410452802E-1  -3.572977185432592E-1  
 1.582382231117988E6    -8.414808221640500E-1  -3.529374484680362E-1   1.587134160112628E-1  -3.554798976866854E-1   1.586770855908078E-1  -3.554474474200164E-1  -8.406271729082879E-1  -3.521855623516174E-1  
 1.614799455754111E6    -8.464572964370918E-1  -3.479782771666878E-1   1.533670593269614E-1  -3.502294521050354E-1   1.535608290330393E-1  -3.501574724724672E-1  -8.462042128491639E-1  -3.471534176610909E-1  
 1.647880790762838E6    -8.519227570913186E-1  -3.434468316357056E-1   1.487501239401424E-1  -3.455288594095044E-1   1.486074062253204E-1  -3.457395355276625E-1  -8.510545055156754E-1  -3.423308521269264E-1  
 1.681639841336839E6    -8.566398423912335E-1  -3.380611803424401E-1   1.438554710042380E-1  -3.403627832617181E-1   1.436683469380888E-1  -3.405706626688433E-1  -8.558490764466102E-1  -3.374103189974073E-1  
 1.716090491389422E6    -8.612346871022831E-1  -3.332052899067654E-1   1.391677023375287E-1  -3.355398729366212E-1   1.389824188008833E-1  -3.356034773666536E-1  -8.605036314308424E-1  -3.323241632346977E-1  
 1.751246909264502E6    -8.658313421139207E-1  -3.276647150905610E-1   1.342294819281810E-1  -3.304384864729785E-1   1.342996576783948E-1  -3.305055278149228E-1  -8.654635991737945E-1  -3.271050508619662E-1  
 1.787123553563544E6    -8.704235020959207E-1  -3.223554761778332E-1   1.296235761733377E-1  -3.255377908882166E-1   1.298963445597193E-1  -3.254563779911346E-1  -8.698769569049160E-1  -3.222632007904673E-1  
 1.823735179091875E6    -8.746866856461889E-1  -3.174537518341225E-1   1.252582430008761E-1  -3.207191830146350E-1   1.254558036959315E-1  -3.205698633400145E-1  -8.739328351880367E-1  -3.172787781216176E-1  
 1.861096842926821E6    -8.792410829769795E-1  -3.130200554560659E-1   1.212006065883675E-1  -3.156105469319503E-1   1.212095229925096E-1  -3.159229726077189E-1  -8.782543562712240E-1  -3.121050900293785E-1  
 1.899223910610154E6    -8.832913619804423E-1  -3.077119611004570E-1   1.169491239998427E-1  -3.106334534991805E-1   1.170184723307752E-1  -3.110033404064640E-1  -8.827908751897229E-1  -3.070427357606533E-1  
 1.938132062467400E6    -8.872669155466816E-1  -3.031463728188593E-1   1.133385622210544E-1  -3.057914828955671E-1   1.129618308300014E-1  -3.058735579424396E-1  -8.865841589120413E-1  -3.024026180673805E-1  
 1.977837300056607E6    -8.911776400448446E-1  -2.980975860147802E-1   1.092427348175890E-1  -3.008666569250941E-1   1.090233305822552E-1  -3.009720543272761E-1  -8.900407108552736E-1  -2.970735253133569E-1  
