#  HZ   S   RI   R     50 
! Rohde & Schwarz ZVA/B 
! 
! 
! 
 3.000000000000000E5    -2.066003608863712E-3  -4.415362875054568E-2   9.972058931577145E-1  -4.511665515216072E-2   9.975228436508261E-1  -4.531370878265084E-2  -2.382116957126477E-3  -4.345556254178782E-2  
 3.061459028037530E5    -2.422847191763297E-3  -4.535842213566950E-2   9.971409331685150E-1  -4.565565219997760E-2   9.976685417886844E-1  -4.607984910503271E-2  -2.215516614716811E-3  -4.449522427306039E-2  
 3.124177126784167E5    -2.381095039911520E-3  -4.599863459939738E-2   9.972769041610847E-1  -4.671040607999102E-2   9.975063845410881E-1  -4.713941833102771E-2  -2.588931909015179E-3  -4.574808358563420E-2  
 3.188180089993913E5    -2.714876097129976E-3  -4.703619278016546E-2   9.970245445706518E-1  -4.770730281292417E-2   9.971973340643696E-1  -4.802797603260186E-2  -2.439560425319525E-3  -4.630374504711540E-2  
 3.253494239840457E5    -2.720754946478311E-3  -4.799070636983990E-2   9.969950207034581E-1  -4.869455783105611E-2   9.971409330017858E-1  -4.892398621068089E-2  -2.801936659003175E-3  -4.748421180951051E-2  
 3.320146437742557E5    -2.788884689605588E-3  -4.906096055799605E-2   9.966806274485307E-1  -4.965970601222956E-2   9.970464947089242E-1  -4.983056474334641E-2  -3.092128065749453E-3  -4.864248765316204E-2  
 3.388164095411199E5    -3.049236606068614E-3  -4.999699168483703E-2   9.966840616565836E-1  -5.053736451437312E-2   9.968966046189829E-1  -5.084471836963806E-2  -3.096251249356491E-3  -4.964834668520624E-2  
 3.457575186123076E5    -3.175073215866994E-3  -5.075481884547828E-2   9.962800114706920E-1  -5.174849791590772E-2   9.967693319344164E-1  -5.205066071350076E-2  -3.355575028184343E-3  -5.037738695839145E-2  
 3.528408256225012E5    -3.341091183977083E-3  -5.212201108255227E-2   9.962114278041712E-1  -5.267081563840376E-2   9.966491481025303E-1  -5.280892792408932E-2  -3.490341852982164E-3  -5.168458240487872E-2  
 3.600692436874074E5    -3.577031285763724E-3  -5.321839955715985E-2   9.964713038110215E-1  -5.366492756798662E-2   9.967917356416489E-1  -5.384974737605354E-2  -3.617756058914507E-3  -5.252717772372086E-2  
 3.674457456018197E5    -3.614269158982585E-3  -5.422069941783523E-2   9.958965487610978E-1  -5.469040028714135E-2   9.964506304966974E-1  -5.503651922260337E-2  -3.893184297220749E-3  -5.371884291138243E-2  
 3.749733650622242E5    -3.894345649646980E-3  -5.530981740965052E-2   9.959863771114422E-1  -5.612068177738581E-2   9.963984023790298E-1  -5.632745778915882E-2  -3.907252187598761E-3  -5.473943113301436E-2  
 3.826551979144529E5    -4.029897595156397E-3  -5.629568369160855E-2   9.956565620610398E-1  -5.698580510856244E-2   9.959277454708833E-1  -5.729610374734065E-2  -4.160357536365603E-3  -5.580459133437155E-2  
 3.904944034268967E5    -4.393370060652036E-3  -5.759714954739892E-2   9.956619075829380E-1  -5.827442245451019E-2   9.960439710713938E-1  -5.824472098383714E-2  -4.151644880427103E-3  -5.716328420347082E-2  
 3.984942055898008E5    -4.565377048330410E-3  -5.865881450643806E-2   9.955491905926830E-1  -5.947243710119250E-2   9.960411508362997E-1  -5.960586353293909E-2  -4.413069665922308E-3  -5.820194190770373E-2  
 4.066578944411798E5    -4.760845847404529E-3  -5.981137946415914E-2   9.952917537394371E-1  -6.060454104522443E-2   9.957627889922796E-1  -6.057358632194398E-2  -4.604395680349037E-3  -5.953329509402048E-2  
 4.149888274198943E5    -4.692974892148969E-3  -6.096263029625480E-2   9.949461117904228E-1  -6.176242307656187E-2   9.957098968067389E-1  -6.216074489432653E-2  -4.921954152237489E-3  -6.079523778781212E-2  
 4.234904307464480E5    -4.978571225946586E-3  -6.219346570260147E-2   9.949636076157591E-1  -6.313557165389241E-2   9.955748415746960E-1  -6.334009492504414E-2  -4.906141982389308E-3  -6.202591860002700E-2  
 4.321662008320720E5    -5.344862051034160E-3  -6.363510818404446E-2   9.947791525298493E-1  -6.428790198632897E-2   9.952442323393242E-1  -6.463534813299443E-2  -5.176841135979972E-3  -6.311917380078240E-2  
 4.410197057166757E5    -5.444565981632763E-3  -6.474528363691515E-2   9.944769677855334E-1  -6.594693093439742E-2   9.948565120005866E-1  -6.572555366400863E-2  -5.302855532856409E-3  -6.456733453609546E-2  
 4.500545865362572E5    -5.500147407168982E-3  -6.613452231574314E-2   9.942625746630982E-1  -6.713952215148729E-2   9.949554186200458E-1  -6.718639320339007E-2  -5.503916276660324E-3  -6.569995621487457E-2  
 4.592745590203743E5    -5.730897892934882E-3  -6.749631651659314E-2   9.940390691696520E-1  -6.828974053631795E-2   9.946909707936330E-1  -6.851873678554299E-2  -5.935203376206654E-3  -6.706230732934991E-2  
 4.686834150202934E5    -5.850338972843344E-3  -6.867436785868222E-2   9.938264495775790E-1  -6.963119409980802E-2   9.944697924441477E-1  -6.988339730200026E-2  -6.074495660705623E-3  -6.852709016923492E-2  
 4.782850240684460E5    -6.102030640520279E-3  -7.025856045237879E-2   9.937231882195599E-1  -7.131465268836416E-2   9.941018902200423E-1  -7.132023152978892E-2  -6.458718531027206E-3  -6.989903436434498E-2  
 4.880833349698305E5    -6.503564720290073E-3  -7.158981083075305E-2   9.934896650717839E-1  -7.274477491467050E-2   9.939635636280809E-1  -7.264379275921182E-2  -6.323688150648589E-3  -7.126992649714019E-2  
 4.980823774260179E5    -6.675917128869995E-3  -7.291010917497277E-2   9.933704773870155E-1  -7.397070852924044E-2   9.936445546053687E-1  -7.414409673984107E-2  -6.794765700862392E-3  -7.281731135410283E-2  
 5.082862636924264E5    -6.908950745375730E-3  -7.441570923928383E-2   9.929240208308784E-1  -7.554040314969687E-2   9.933638748667324E-1  -7.561420002824773E-2  -6.946963640784403E-3  -7.418160158142298E-2  
 5.186991902695479E5    -7.251701390086802E-3  -7.591254180493992E-2   9.927234871218046E-1  -7.712208502753908E-2   9.933214406415120E-1  -7.721604752393155E-2  -7.358531050821529E-3  -7.579074889540523E-2  
 5.293254396288213E5    -7.535769733183706E-3  -7.749545254719256E-2   9.922517847653204E-1  -7.866348427773441E-2   9.928492305444399E-1  -7.885148524847321E-2  -7.362052139065392E-3  -7.727116770980801E-2  
 5.401693819738632E5    -7.857286928613318E-3  -7.914566514783138E-2   9.923058961492540E-1  -8.011645778406099E-2   9.924547057414015E-1  -8.029715744665476E-2  -7.899047095046585E-3  -7.894254595618505E-2  
 5.512354770377789E5    -8.051496706420008E-3  -8.068331529709628E-2   9.918429629561940E-1  -8.168802936762899E-2   9.924249505413211E-1  -8.190717383954217E-2  -8.159354821046929E-3  -8.036789945273823E-2  
 5.625282759172944E5    -8.338559697467926E-3  -8.220149872744446E-2   9.914483970249159E-1  -8.328216377060772E-2   9.919714278632608E-1  -8.358978382142698E-2  -8.288977891301130E-3  -8.229271035684850E-2  
 5.740524229444626E5    -8.536494607610882E-3  -8.379833532106436E-2   9.912652676348577E-1  -8.500896041379240E-2   9.915126363288305E-1  -8.506478575712319E-2  -8.678782287723693E-3  -8.368741157274987E-2  
 5.858126575967147E5    -8.851848793411820E-3  -8.551669199022753E-2   9.910084605474526E-1  -8.672977093538395E-2   9.913842838353772E-1  -8.698691402909693E-2  -8.913181154015777E-3  -8.535887494290197E-2  
 5.978138164460403E5    -9.179377051998821E-3  -8.727773647541766E-2   9.905392263527379E-1  -8.851542476244391E-2   9.910725418394567E-1  -8.857361367385490E-2  -9.384070274776018E-3  -8.718001655785738E-2  
 6.100608351481004E5    -9.443952331641883E-3  -8.899064137258050E-2   9.903527656565663E-1  -9.020355476479534E-2   9.906381916392657E-1  -9.032150382586521E-2  -9.687525814038735E-3  -8.886911241365368E-2  
 6.225587504720892E5    -9.831485545333007E-3  -9.075048087451136E-2   9.900221761012490E-1  -9.203991035974517E-2   9.902127017481831E-1  -9.215358605283616E-2  -1.008347220344716E-2  -9.076451902287483E-2  
 6.353127023721805E5    -1.028907912772659E-2  -9.260888862482922E-2   9.896688908741684E-1  -9.394838293701260E-2   9.897386031734378E-1  -9.393771841402931E-2  -1.058020260620544E-2  -9.239839920511633E-2  
 6.483279361014109E5    -1.072771884352418E-2  -9.452886062334448E-2   9.889729400672782E-1  -9.582501249033920E-2   9.895033131093807E-1  -9.581039294302002E-2  -1.083109797323293E-2  -9.447082277226811E-2  
 6.616098043688679E5    -1.106678498005292E-2  -9.632513297662287E-2   9.887495332059471E-1  -9.764251480568724E-2   9.889003175106482E-1  -9.764129796877566E-2  -1.131499680224612E-2  -9.633484444832553E-2  
 6.751637695410716E5    -1.147296946615400E-2  -9.830374105993334E-2   9.883418225115832E-1  -9.949065826487347E-2   9.885496964960656E-1  -9.956850568365998E-2  -1.173184059267525E-2  -9.800324214575011E-2  
 6.889954058884548E5    -1.193048696694644E-2  -1.003075859526676E-1   9.879829357569346E-1  -1.015959668516775E-1   9.881633205769943E-1  -1.016503489894011E-1  -1.220316821418427E-2  -1.000569088840675E-1  
 7.031104018778642E5    -1.240017415685826E-2  -1.022580296775672E-1   9.873034501345249E-1  -1.034370381598631E-1   9.877785345374739E-1  -1.035719446377127E-1  -1.274997073923581E-2  -1.020701351225072E-1  
 7.175145625120278E5    -1.293692580425565E-2  -1.042421727589099E-1   9.868065465980979E-1  -1.056819048150404E-1   9.871419513619508E-1  -1.056654048139912E-1  -1.313357704414334E-2  -1.042001448838986E-1  
 7.322138117169489E5    -1.345081820715221E-2  -1.063334914874466E-1   9.863149890266664E-1  -1.077653067134033E-1   9.867577727704351E-1  -1.076857994008293E-1  -1.345822494758623E-2  -1.061300315075482E-1  
 7.472141947782085E5    -1.389328700799207E-2  -1.083740827380671E-1   9.859406060805923E-1  -1.099116030061003E-1   9.862793959684213E-1  -1.098025842093448E-1  -1.414811019938692E-2  -1.082464581470312E-1  
 7.625218808271801E5    -1.442869465523264E-2  -1.105480357975955E-1   9.854271751045478E-1  -1.121908798785913E-1   9.856672096279381E-1  -1.120106027848519E-1  -1.476304246601448E-2  -1.104850345115196E-1  
 7.781431653781761E5    -1.497686534406720E-2  -1.127596813421988E-1   9.847742539039759E-1  -1.141631639702341E-1   9.851541911673775E-1  -1.142941769095332E-1  -1.514630332608602E-2  -1.127877256665415E-1  
 7.940844729175728E5    -1.545565417732421E-2  -1.149435863966434E-1   9.840693305495687E-1  -1.163933201986471E-1   9.846072443412124E-1  -1.163843525451499E-1  -1.566047682617366E-2  -1.148691984810478E-1  
 8.103523595459757E5    -1.606388566699451E-2  -1.173937069915328E-1   9.837119556074343E-1  -1.188192352704399E-1   9.839044132824268E-1  -1.187049018952285E-1  -1.634194277437338E-2  -1.171164734750858E-1  
 8.269535156745140E5    -1.665329838672928E-2  -1.196595635291552E-1   9.828338714769143E-1  -1.210655173984142E-1   9.832441585454690E-1  -1.211349316125048E-1  -1.691050123685432E-2  -1.193619918222616E-1  
 8.438947687763721E5    -1.727355941669809E-2  -1.219148716836511E-1   9.825844116138869E-1  -1.233109142505180E-1   9.825984707218576E-1  -1.236043662233554E-1  -1.777363016858967E-2  -1.218142335315932E-1  
 8.611830861946895E5    -1.803221352660024E-2  -1.245079384510167E-1   9.814966532912673E-1  -1.256319936303540E-1   9.820580863187485E-1  -1.258377422637423E-1  -1.844206972649754E-2  -1.240767479650868E-1  
 8.788255780079850E5    -1.867789226513710E-2  -1.267073342537252E-1   9.810776579246823E-1  -1.284378124222562E-1   9.811211088551273E-1  -1.282975849798515E-1  -1.900453589942826E-2  -1.266462611369337E-1  
 8.968294999542822E5    -1.961923104288601E-2  -1.292493554594617E-1   9.801228785055278E-1  -1.306855017767558E-1   9.805919123125315E-1  -1.309399889781096E-1  -1.966654749445998E-2  -1.290878489478901E-1  
 9.152022564151404E5    -2.015756890974185E-2  -1.317355096555168E-1   9.795088006353444E-1  -1.334059008418461E-1   9.798349006050501E-1  -1.334852643557801E-1  -2.040143609866091E-2  -1.315604151600991E-1  
 9.339514034608167E5    -2.080700351281525E-2  -1.343650739055895E-1   9.786326461562316E-1  -1.359419756274752E-1   9.789576399528716E-1  -1.360168828451181E-1  -2.129468719701386E-2  -1.341759778279653E-1  
 9.530846519578132E5    -2.175336986252891E-2  -1.368295878335201E-1   9.780259425491481E-1  -1.386742252668124E-1   9.781983606551518E-1  -1.386076331408400E-1  -2.204816976481449E-2  -1.366773947253760E-1  
 9.726098707400849E5    -2.265524141625752E-2  -1.395759909666929E-1   9.770423712690817E-1  -1.411868640541873E-1   9.773879299736095E-1  -1.413085642347015E-1  -2.278206333689582E-2  -1.394575282458793E-1  
 9.925350898452161E5    -2.340148037553086E-2  -1.422378296093842E-1   9.763227126156617E-1  -1.440011853787878E-1   9.764919048178133E-1  -1.441327640471151E-1  -2.383207629688727E-2  -1.422130032280327E-1  
 1.012868503816893E6    -2.433529101977256E-2  -1.450638851425830E-1   9.761423873761603E-1  -1.466846658292652E-1   9.752121360479319E-1  -1.471703254788970E-1  -2.449103634993534E-2  -1.448207149219024E-1  
 1.033618475075031E6    -2.538048687697787E-2  -1.477984398161515E-1   9.743997829286533E-1  -1.494427714033299E-1   9.747681809374507E-1  -1.503496412951907E-1  -2.556779253661840E-2  -1.474204482408481E-1  
 1.054793537354946E6    -2.629648427708507E-2  -1.507501972047498E-1   9.732691010430672E-1  -1.529754265183036E-1   9.734356374400539E-1  -1.524303432298368E-1  -2.651509839229264E-2  -1.504626934321339E-1  
 1.076402399216980E6    -2.707052275569634E-2  -1.534585174665227E-1   9.722579619217333E-1  -1.549790726913472E-1   9.731007595224371E-1  -1.555551642615106E-1  -2.734224243367218E-2  -1.531137690594029E-1  
 1.098453947628028E6    -2.822893115238520E-2  -1.564889653671323E-1   9.715077186169363E-1  -1.583918650713339E-1   9.716056748207727E-1  -1.584009258182866E-1  -2.859950768117602E-2  -1.561163755918231E-1  
 1.120957251616430E6    -2.957854814118925E-2  -1.597739912597619E-1   9.699342574449891E-1  -1.613102795765704E-1   9.707013696059614E-1  -1.617374112808585E-1  -2.978623996448178E-2  -1.596040408425440E-1  
 1.143921566001752E6    -3.020964030198824E-2  -1.628685561328880E-1   9.690208453219972E-1  -1.643696115670486E-1   9.698546799647206E-1  -1.646152539433586E-1  -3.070488120159659E-2  -1.625620778816659E-1  
 1.167356335200965E6    -3.188548762428152E-2  -1.657820585085418E-1   9.676084972217813E-1  -1.679065563258067E-1   9.681644413771949E-1  -1.677713896786625E-1  -3.237981154061547E-2  -1.655228886449368E-1  
 1.191271197112600E6    -3.295352649459945E-2  -1.689876778673409E-1   9.666863653655972E-1  -1.706085451192228E-1   9.667574531262720E-1  -1.705112563865867E-1  -3.340094946367604E-2  -1.682417326876574E-1  
 1.215675987080482E6    -3.449274129672959E-2  -1.719299215753974E-1   9.655656431002003E-1  -1.737445986107714E-1   9.652580327591566E-1  -1.741286414909480E-1  -3.489343630644780E-2  -1.718634220997892E-1  
 1.240580741938659E6    -3.557079803240880E-2  -1.752147212193917E-1   9.642124392812096E-1  -1.770687720655399E-1   9.645210693014754E-1  -1.775342986819660E-1  -3.578683822164216E-2  -1.750796848019491E-1  
 1.265995704139202E6    -3.689025803091808E-2  -1.785041907611275E-1   9.627789471914019E-1  -1.800297739607544E-1   9.632123320441366E-1  -1.805721945777217E-1  -3.721645257412397E-2  -1.786314670410277E-1  
 1.291931325964563E6    -3.833637951429139E-2  -1.815705498665842E-1   9.615481529849080E-1  -1.838688382898959E-1   9.616572243410804E-1  -1.846432132754869E-1  -3.882457314040117E-2  -1.814691479432242E-1  
 1.318398273826236E6    -3.978806396342491E-2  -1.852600644802280E-1   9.599030198342941E-1  -1.872470484807091E-1   9.599495054281658E-1  -1.872232227158873E-1  -4.010507363810883E-2  -1.850509466678881E-1  
 1.345407432651476E6    -4.112582100549985E-2  -1.884355196705512E-1   9.580890072880011E-1  -1.910683388537731E-1   9.586862232067787E-1  -1.910324329348964E-1  -4.177942139572032E-2  -1.884126869565292E-1  
 1.372969910359885E6    -4.278200827381782E-2  -1.923690112769700E-1   9.567806839820211E-1  -1.943111208560485E-1   9.572872835365889E-1  -1.947500118244425E-1  -4.329785860311453E-2  -1.914352415596040E-1  
 1.401097042431717E6    -4.442435990697752E-2  -1.954829084375114E-1   9.547200109565158E-1  -1.979139187695584E-1   9.556314788027981E-1  -1.983239104711281E-1  -4.479586708732906E-2  -1.953552437174685E-1  
 1.429800396569754E6    -4.593939289575580E-2  -1.991012780617246E-1   9.536716557089734E-1  -2.019065726216055E-1   9.539205762049920E-1  -2.015995251134737E-1  -4.631980040398568E-2  -1.993127771226672E-1  
 1.459091777456705E6    -4.786681771785678E-2  -2.025337147113362E-1   9.518272950511216E-1  -2.053665728618298E-1   9.519984578418170E-1  -2.054768186892822E-1  -4.840510596412438E-2  -2.030415803618902E-1  
 1.488983231610052E6    -4.964456697983737E-2  -2.066554581302016E-1   9.501963489596352E-1  -2.089339377044857E-1   9.498082812437112E-1  -2.095342408944495E-1  -5.015341251235729E-2  -2.068503930030253E-1  
 1.519487052336364E6    -5.141884228657929E-2  -2.104794117119780E-1   9.475965072961251E-1  -2.130269682689962E-1   9.483567081589728E-1  -2.132871687140661E-1  -5.209346119085738E-2  -2.103798179188562E-1  
 1.550615784787099E6    -5.353629999203018E-2  -2.144575718511272E-1   9.460964319294004E-1  -2.169790538030794E-1   9.466057177526688E-1  -2.168683107446163E-1  -5.416218997941454E-2  -2.139350886496154E-1  
 1.582382231117988E6    -5.562529102062985E-2  -2.182965925071504E-1   9.438184631512878E-1  -2.206789075038411E-1   9.439886276472738E-1  -2.211584539095465E-1  -5.621735163677540E-2  -2.177918873726222E-1  
 1.614799455754111E6    -5.743346136433027E-2  -2.220648894551748E-1   9.419587755469501E-1  -2.248943665657464E-1   9.421996463890915E-1  -2.247649514262078E-1  -5.825314333957114E-2  -2.222156101678124E-1  
 1.647880790762838E6    -5.967249794795777E-2  -2.259679502084118E-1   9.398515368800682E-1  -2.283122104856830E-1   9.404134732795506E-1  -2.283615521380910E-1  -6.063142441238252E-2  -2.257231657499041E-1  
 1.681639841336839E6    -6.190341661252597E-2  -2.303773699536154E-1   9.376360552191528E-1  -2.327511161023178E-1   9.376609266269947E-1  -2.326676690844435E-1  -6.274318540988377E-2  -2.299018184673010E-1  
 1.716090491389422E6    -6.428890720280264E-2  -2.341018838595871E-1   9.353523547721020E-1  -2.366821489946908E-1   9.351910839085085E-1  -2.371448037288121E-1  -6.487672710193575E-2  -2.338055289252156E-1  
 1.751246909264502E6    -6.680002190735003E-2  -2.380919034779431E-1   9.329132726170676E-1  -2.407598257355137E-1   9.331698267714985E-1  -2.411422745559558E-1  -6.764061396455785E-2  -2.378891865569130E-1  
 1.787123553563544E6    -6.947984419198749E-2  -2.419217237248655E-1   9.299812258786830E-1  -2.449982477742297E-1   9.303553200385066E-1  -2.451606649270107E-1  -7.001626551272204E-2  -2.423327386757652E-1  
 1.823735179091875E6    -7.184526043887886E-2  -2.463306031772405E-1   9.274936033944666E-1  -2.494317035682323E-1   9.277879567532356E-1  -2.495304585542467E-1  -7.214285781728705E-2  -2.460885419565722E-1  
 1.861096842926821E6    -7.459419777960238E-2  -2.506132719305889E-1   9.249308902243443E-1  -2.539404272344166E-1   9.252127841843099E-1  -2.540162902180813E-1  -7.538637475632186E-2  -2.501385837219275E-1  
 1.899223910610154E6    -7.728265234413528E-2  -2.550746515419576E-1   9.224499053231017E-1  -2.588239395947797E-1   9.225531566639628E-1  -2.583195418643804E-1  -7.794391719075959E-2  -2.544881507507144E-1  
 1.938132062467400E6    -8.048483532052547E-2  -2.593197866200482E-1   9.194682440145181E-1  -2.623554220729069E-1   9.194283178538787E-1  -2.626024407894659E-1  -8.053841813750014E-2  -2.592227115018368E-1  
 1.977837300056607E6    -8.303822115862386E-2  -2.637788417902785E-1   9.161838690319820E-1  -2.666139000703297E-1   9.169968608524963E-1  -2.671357968541510E-1  -8.365756871521363E-2  -2.632770276604882E-1  
