#  HZ   S   RI   R     50 
! Rohde & Schwarz ZVA/B 
! 
! 
! 
 3.000000000000000E5     7.677221141902238E-4  -4.038379954448199E-3   9.995174919655538E-1  -5.099187786818448E-3   9.999694651016531E-1  -5.436203932045862E-3   4.461938970622580E-4  -3.539900848494896E-3  
 3.061459028037530E5     5.093025287098582E-4  -4.399875699800823E-3   9.994083081647878E-1  -4.871142194490017E-3   9.998241753179162E-1  -5.435397997455821E-3   5.519195767947288E-4  -3.685744092449255E-3  
 3.124177126784167E5     5.222805234147429E-4  -4.283748498068774E-3   9.994901383313648E-1  -5.028036383206920E-3   1.000058381507658  -5.659938020965693E-3   3.893324104721912E-4  -4.072371088588397E-3  
 3.188180089993913E5     4.138596285108067E-4  -4.417611721820786E-3   9.995605854773867E-1  -5.235086639175995E-3   9.997846617397511E-1  -5.803765006851362E-3   6.066350853670511E-4  -3.826092548751163E-3  
 3.253494239840457E5     6.032931202699470E-4  -4.393510204957181E-3   9.995798409888010E-1  -5.877720012151600E-3   9.997451398684102E-1  -5.631246516417561E-3   3.160810861696839E-4  -4.111121003219514E-3  
 3.320146437742557E5     5.577036246380233E-4  -4.743709383862959E-3   9.997419188019785E-1  -5.534358575050908E-3   9.996636593889976E-1  -6.013729178584915E-3   1.587483933957205E-4  -4.409882418946505E-3  
 3.388164095411199E5     5.005279454208969E-4  -4.710460498497258E-3   9.994614766016959E-1  -5.683156019526992E-3   9.999063436769327E-1  -5.960700825212014E-3   3.152323706306658E-4  -4.512303715582343E-3  
 3.457575186123076E5     3.693640340511040E-4  -4.724950226195901E-3   9.997073529093514E-1  -5.748721222556077E-3   9.995481328505528E-1  -6.165958965657709E-3   2.162714103554612E-4  -4.499180698622944E-3  
 3.528408256225012E5     2.981369680784188E-4  -5.066721534018130E-3   9.994292385559040E-1  -6.142326829236727E-3   9.995656947521326E-1  -6.210259421631424E-3   1.211227782642006E-4  -4.779506378070919E-3  
 3.600692436874074E5     2.062037658265635E-4  -5.222537812324118E-3   9.999206701525761E-1  -6.188193843040108E-3   9.998055116413457E-1  -6.215669345382869E-3   1.550426556556562E-4  -4.790432864309525E-3  
 3.674457456018197E5     3.076067785031168E-4  -5.327150861730507E-3   9.997615597658522E-1  -6.068662859515780E-3   9.996643593237606E-1  -6.319802793229110E-3   3.490937286900446E-5  -4.996329692703566E-3  
 3.749733650622242E5     2.177660521131962E-4  -5.493093511758743E-3   9.997080546823949E-1  -6.044123352148607E-3   9.998095882985127E-1  -6.459645607626615E-3   1.485377297668314E-4  -4.986504380210277E-3  
 3.826551979144529E5     1.057915912438832E-4  -5.400192948394824E-3   9.998322409554734E-1  -6.384744034961355E-3   9.997422995816288E-1  -6.520971389210896E-3   3.875710746807448E-5  -5.219825223546370E-3  
 3.904944034268967E5     3.649402931965766E-5  -5.713381800216263E-3   9.995002629850679E-1  -6.430186224340809E-3   1.000006817299296  -6.949311750172308E-3   1.018985193599011E-4  -5.510924790852032E-3  
 3.984942055898008E5     7.658709354684914E-5  -5.933807418408918E-3   9.997425012883476E-1  -6.826617860139766E-3   9.999653965945050E-1  -6.899035214937881E-3   1.378203910169641E-5  -5.552232814775003E-3  
 4.066578944411798E5     7.288559021199193E-6  -5.980747841879381E-3   9.996453544718368E-1  -6.705255220728295E-3   1.000000011762775  -7.020562381080419E-3   2.650617946308448E-5  -5.859319897297786E-3  
 4.149888274198943E5     2.081984731669826E-4  -5.923515410163775E-3   9.994092777423793E-1  -7.268915540650757E-3   1.000077627252134  -7.316547578579908E-3  -9.294077615757632E-6  -6.049366738256257E-3  
 4.234904307464480E5     1.127304476786807E-4  -6.097066712718423E-3   9.996949211343268E-1  -7.330816721079960E-3   9.997403891120528E-1  -7.384936247411400E-3   4.673049538545315E-5  -6.187414132628015E-3  
 4.321662008320720E5    -2.389567305049871E-6  -6.471887163735673E-3   9.995258592776615E-1  -7.301327835628686E-3   9.996854209474089E-1  -7.633796647594483E-3   1.016728438972328E-5  -6.183784605413484E-3  
 4.410197057166757E5     7.926208019912248E-6  -6.442439599358027E-3   9.997298478634668E-1  -7.899826993167526E-3   9.998480881833035E-1  -7.373515106080650E-3   1.257263379169729E-4  -6.401606302850947E-3  
 4.500545865362572E5     1.597186517235214E-4  -6.626300343231100E-3   9.996735066935644E-1  -7.752766048570976E-3   9.997962216011788E-1  -7.783832997063371E-3   2.134011490708998E-5  -6.423370817301895E-3  
 4.592745590203743E5     8.937463079001124E-5  -6.834601601591868E-3   9.996461467973433E-1  -7.947394989354496E-3   1.000169168008566  -7.898571567931051E-3  -2.548392455650055E-4  -6.671794159646486E-3  
 4.686834150202934E5     2.097721702747411E-4  -6.932797915876155E-3   9.994202776850837E-1  -7.944761690518226E-3   9.998320190982017E-1  -8.203979483070717E-3  -1.107998408213770E-4  -6.811159938549350E-3  
 4.782850240684460E5     7.956182082434422E-5  -7.176717978920848E-3   9.994918357506982E-1  -8.214238181943345E-3   9.998584397013057E-1  -8.336903897500874E-3  -3.139552101547132E-4  -7.047612386254802E-3  
 4.880833349698305E5     1.124886522560616E-4  -7.323568450134561E-3   9.994240334663066E-1  -8.288085291168921E-3   9.997824595903969E-1  -8.756046038787147E-3   1.338345091070685E-4  -7.244192654794503E-3  
 4.980823774260179E5     1.432848723070082E-4  -7.317335644338103E-3   9.996126488469181E-1  -8.539187894005765E-3   9.998311074077461E-1  -8.696697942028115E-3  -1.853259794067942E-4  -7.389419641110329E-3  
 5.082862636924264E5     3.604639358403825E-5  -7.573777072661528E-3   9.996804985076178E-1  -8.792683657661492E-3   9.998202463723418E-1  -8.817952934758953E-3  -1.508810341385424E-4  -7.499398578676944E-3  
 5.186991902695479E5    -3.855406729947734E-5  -7.800520529161521E-3   9.994800112329976E-1  -8.680621897592673E-3   9.998590721226570E-1  -9.071986691174566E-3  -2.979209154190390E-4  -7.754624659214561E-3  
 5.293254396288213E5    -5.090954373913207E-5  -8.006071393360107E-3   9.996190427617475E-1  -9.039544545927421E-3   9.998502387424763E-1  -9.351380586005584E-3   7.475511257304495E-6  -7.927425219832120E-3  
 5.401693819738632E5    -8.270453157440224E-5  -8.224440821239770E-3   9.995035201417780E-1  -9.503570986805489E-3   9.999320568422065E-1  -9.315310547941672E-3  -2.573305103707699E-4  -8.109307006028320E-3  
 5.512354770377789E5     2.580317812623802E-5  -8.332959826529204E-3   9.996059195331405E-1  -9.644919537654556E-3   9.997744236746368E-1  -9.645182310026127E-3  -2.817922750360602E-4  -8.222306728876192E-3  
 5.625282759172944E5    -5.339098337905087E-6  -8.446882437310059E-3   9.994948456139392E-1  -9.714684324364929E-3   9.998159955574466E-1  -9.582626175083833E-3  -7.440527273975196E-5  -8.695146996814019E-3  
 5.740524229444626E5     4.769482884053337E-5  -8.634134942737773E-3   9.997807248150435E-1  -9.962097422176481E-3   9.996997154462850E-1  -1.010807478550250E-2  -1.659351814800218E-4  -8.636847000206348E-3  
 5.858126575967147E5     4.679506895195934E-5  -8.803137944275117E-3   9.996383187567540E-1  -1.021460431151807E-2   9.999414252019506E-1  -1.024725091489131E-2  -6.612541585843097E-5  -8.781084604663187E-3  
 5.978138164460403E5     5.256802536542978E-5  -9.077908660857267E-3   9.997554756934223E-1  -1.036032758123720E-2   9.998283473628271E-1  -1.045537830501151E-2  -2.597865134943280E-4  -9.076035756597187E-3  
 6.100608351481004E5     1.286132087090733E-4  -9.248185677918980E-3   9.997148943763822E-1  -1.058071206483179E-2   9.996685515359369E-1  -1.060708192343679E-2  -1.972136954035533E-4  -9.263560809791198E-3  
 6.225587504720892E5     1.039326935028962E-4  -9.499024925476367E-3   9.996088194976105E-1  -1.083586782623949E-2   9.997414930618507E-1  -1.091334046843190E-2  -1.705596279631838E-4  -9.584437425150524E-3  
 6.353127023721805E5     7.708070705206783E-5  -9.713943692939646E-3   9.996974088796360E-1  -1.107893266109933E-2   9.997721474729536E-1  -1.110362401811935E-2  -3.169557278330454E-4  -9.631038390332199E-3  
 6.483279361014109E5     7.469680837615843E-5  -9.957289332876566E-3   9.996790781637612E-1  -1.125233790511556E-2   9.998221553320354E-1  -1.116277784491340E-2  -2.637816820492128E-4  -1.002683843260061E-2  
 6.616098043688679E5     6.691673835843789E-5  -1.012671654645315E-2   9.995187108492527E-1  -1.153812646848436E-2   9.998162685507541E-1  -1.145265417226831E-2  -3.156712071733968E-4  -1.029820845826713E-2  
 6.751637695410716E5     8.092000324420242E-5  -1.034413223003909E-2   9.997312911986035E-1  -1.167198298310265E-2   9.996669650262559E-1  -1.164910407115905E-2  -3.149882460658679E-4  -1.026608323736993E-2  
 6.889954058884548E5     6.183158064411216E-5  -1.063289194862919E-2   9.996996789670650E-1  -1.188455472970033E-2   9.997847669264195E-1  -1.200880433948512E-2  -3.590659269797614E-4  -1.055383080794190E-2  
 7.031104018778642E5     2.573927162989069E-6  -1.081578369907258E-2   9.995509069500101E-1  -1.240150942177153E-2   9.998042542762435E-1  -1.213071476185240E-2  -4.298045179228913E-4  -1.075748674592963E-2  
 7.175145625120278E5    -5.723505447214679E-5  -1.105139551518430E-2   9.996499897979830E-1  -1.255936056279243E-2   9.997229729846264E-1  -1.242477285342839E-2  -3.697641226879764E-4  -1.114179781837980E-2  
 7.322138117169489E5    -1.249099938404597E-4  -1.130321987659175E-2   9.994984037541499E-1  -1.277138681979423E-2   9.999101079219039E-1  -1.257036141772213E-2  -2.117048030990475E-4  -1.118415970561902E-2  
 7.472141947782085E5    -1.296999227301112E-5  -1.146170403660834E-2   9.994903447683516E-1  -1.314298680602485E-2   9.996816629825873E-1  -1.300149048010837E-2  -3.763969549748688E-4  -1.143398291626216E-2  
 7.625218808271801E5    -4.257087886945464E-6  -1.165725351398989E-2   9.995498808241279E-1  -1.345713806480805E-2   9.998679706358344E-1  -1.340028175374480E-2  -4.817245179343192E-4  -1.184244904846124E-2  
 7.781431653781761E5     5.353839154092445E-5  -1.197999068070276E-2   9.994790635167998E-1  -1.343111039403965E-2   9.998092763354135E-1  -1.346881571605161E-2  -2.859181945449964E-4  -1.213504090721364E-2  
 7.940844729175728E5     2.544588727988878E-5  -1.222585782313105E-2   9.995211173427537E-1  -1.363997158489283E-2   9.997349315449954E-1  -1.369342015241746E-2  -2.558139884443486E-4  -1.225944362406402E-2  
 8.103523595459757E5     1.740812297813725E-5  -1.263460169050984E-2   9.995859084570323E-1  -1.407414644194291E-2   9.995931916151151E-1  -1.399956430101729E-2  -3.462264209324656E-4  -1.252367263908814E-2  
 8.269535156745140E5    -1.370369618753474E-5  -1.290631219974062E-2   9.992662916255021E-1  -1.441202063926410E-2   9.998227540268483E-1  -1.425976065931189E-2  -2.895570516736882E-4  -1.269343338457452E-2  
 8.438947687763721E5     4.067033141456649E-5  -1.302660214742758E-2   9.995299651823507E-1  -1.468280051209189E-2   9.997634307964565E-1  -1.470322452106746E-2  -5.033203641423091E-4  -1.315684740793463E-2  
 8.611830861946895E5    -5.475026740847219E-5  -1.346546479602601E-2   9.993854343821774E-1  -1.496662632664283E-2   9.997133353366023E-1  -1.494672298348822E-2  -5.642446441485569E-4  -1.327823862418599E-2  
 8.788255780079850E5     1.525903709147731E-5  -1.360020406782510E-2   9.994561929105547E-1  -1.537698908337244E-2   9.996545876821801E-1  -1.519341809397737E-2  -4.339072688710905E-4  -1.370571363905342E-2  
 8.968294999542822E5    -1.374529041204731E-4  -1.397500196249062E-2   9.993787514529504E-1  -1.549768657514631E-2   9.997032154538827E-1  -1.572265605356497E-2  -4.187542720889466E-4  -1.388801531866699E-2  
 9.152022564151404E5    -3.465961814504322E-5  -1.415273030595673E-2   9.994422048137217E-1  -1.581336175865183E-2   9.996471629800969E-1  -1.583758597888854E-2  -4.047539641794073E-4  -1.413301204124911E-2  
 9.339514034608167E5     5.013700458769674E-5  -1.445044390046049E-2   9.994845460673150E-1  -1.623883510496380E-2   9.995570615850604E-1  -1.620255988931236E-2  -4.894521803401125E-4  -1.453638397671984E-2  
 9.530846519578132E5    -7.385343294167593E-5  -1.472320836221813E-2   9.993682665781383E-1  -1.649025553016912E-2   9.997402809143111E-1  -1.667388217220090E-2  -4.118027955260700E-4  -1.478789810827496E-2  
 9.726098707400849E5    -8.891005685216855E-5  -1.505470204579709E-2   9.994833772606522E-1  -1.700826752302692E-2   9.997916712269011E-1  -1.698364160064298E-2  -3.717045464081135E-4  -1.504927281720294E-2  
 9.925350898452161E5    -8.132788960397703E-5  -1.535655546220899E-2   9.993858249190648E-1  -1.717498379715930E-2   9.996189369163745E-1  -1.726844428074054E-2  -5.750643143883951E-4  -1.554974522921629E-2  
 1.012868503816893E6     1.109406254394384E-5  -1.590182224038943E-2   9.998043811777656E-1  -1.742598635052386E-2   9.996240235323914E-1  -1.797787763279006E-2  -3.793625386753927E-4  -1.571186450353836E-2  
 1.033618475075031E6    -1.708095805021295E-4  -1.618478857594380E-2   9.990903651664922E-1  -1.819760224441865E-2   9.999055918684479E-1  -1.828766821515446E-2  -3.300480099350372E-4  -1.575402407435348E-2  
 1.054793537354946E6     8.583793655873249E-5  -1.633479702161425E-2   9.996140555446124E-1  -1.814562712927165E-2   9.993105544285125E-1  -1.839666896195920E-2  -4.911882402523760E-4  -1.625193987950876E-2  
 1.076402399216980E6     1.759868258945002E-4  -1.651329215346009E-2   9.993873028679533E-1  -1.830447474121367E-2   9.997937893629443E-1  -1.911982088443640E-2  -1.967793380168706E-4  -1.636530681460813E-2  
 1.098453947628028E6    -2.279468044104015E-4  -1.702877092843952E-2   9.990581057467616E-1  -1.932672550111126E-2   9.995113336140253E-1  -1.924013756541053E-2  -6.451249573833486E-4  -1.714983056302387E-2  
 1.120957251616430E6    -3.684862894058695E-4  -1.767033053820563E-2   9.991169300666133E-1  -1.968976407411230E-2   9.996413655692316E-1  -1.967762668894620E-2  -6.742396034190329E-4  -1.776739358291441E-2  
 1.143921566001752E6     1.307100162290949E-4  -1.773646073622360E-2   9.989979565772451E-1  -1.963599039732594E-2   9.998736033534211E-1  -1.952969193481251E-2  -3.254693635504325E-4  -1.794603910087083E-2  
 1.167356335200965E6    -2.049852397657313E-4  -1.834225292593289E-2   9.993094378606591E-1  -2.022231586571091E-2   9.994604602371647E-1  -2.050377898853175E-2  -8.625288019332712E-4  -1.837605626883987E-2  
 1.191271197112600E6    -1.336727130337757E-5  -1.871950629844244E-2   9.992388815308406E-1  -2.120130523915271E-2   9.993713079062438E-1  -2.035637703161661E-2  -8.143455840321470E-4  -1.807845334714578E-2  
 1.215675987080482E6    -3.304424571509827E-4  -1.898424941014552E-2   9.992496148520790E-1  -2.075334495773108E-2   9.994821590085355E-1  -2.117718932638499E-2  -9.530842530095763E-4  -1.908906527676579E-2  
 1.240580741938659E6    -4.009305980181067E-4  -1.909772978429176E-2   9.989802515060117E-1  -2.157709629805420E-2   9.998704387919006E-1  -2.149731271994711E-2  -5.104237816803492E-4  -1.954571824524119E-2  
 1.265995704139202E6    -2.387600311704859E-4  -1.957154278406768E-2   9.995068836708080E-1  -2.204144178094158E-2   9.996582562474519E-1  -2.175180691816627E-2  -4.452813254321138E-4  -1.995332293280504E-2  
 1.291931325964563E6    -3.507471465892386E-4  -2.007383156868841E-2   9.993875199775090E-1  -2.275270894872618E-2   9.993875604023710E-1  -2.247088557954319E-2  -9.844515289401002E-4  -2.012858119068887E-2  
 1.318398273826236E6    -3.020454265487377E-4  -2.079087163812218E-2   9.991708043902072E-1  -2.316752092729028E-2   9.994963433341403E-1  -2.282678358157299E-2  -5.705938989079429E-4  -2.076733249003129E-2  
 1.345407432651476E6    -4.195876088926228E-4  -2.090928587729079E-2   9.995010931092815E-1  -2.387471027028660E-2   9.996246078991427E-1  -2.330686397306064E-2  -8.800454087881768E-4  -2.097073510413847E-2  
 1.372969910359885E6    -5.265584345214108E-4  -2.149275652817537E-2   9.991648393248447E-1  -2.420310080706545E-2   9.992446605135958E-1  -2.395329280242154E-2  -9.638491991498235E-4  -2.101216505772040E-2  
 1.401097042431717E6    -2.773051225703346E-4  -2.164916885420128E-2   9.987732557779787E-1  -2.408683469866425E-2   9.994620647870497E-1  -2.477360817359414E-2  -6.892321122387582E-4  -2.185135393391584E-2  
 1.429800396569754E6    -3.522808916370379E-4  -2.222233507046971E-2   9.991531534272273E-1  -2.495294045969702E-2   9.994356434503602E-1  -2.478598451308194E-2  -4.866653768769278E-4  -2.246778654690824E-2  
 1.459091777456705E6    -5.179246867608202E-4  -2.229940522497992E-2   9.991440982285685E-1  -2.555882790666243E-2   9.997986776193679E-1  -2.535129098196607E-2  -6.565568886689822E-4  -2.313887276916622E-2  
 1.488983231610052E6    -3.085886894013030E-4  -2.315957817275209E-2   9.993748587556749E-1  -2.572607045000216E-2   9.996948897616756E-1  -2.599129463165315E-2  -6.742862629441550E-4  -2.358367705293813E-2  
 1.519487052336364E6    -2.110654907355985E-4  -2.379485045224428E-2   9.988556772705143E-1  -2.676202494611062E-2   9.993025324679491E-1  -2.648016455293530E-2  -9.561465445621106E-4  -2.381563940355204E-2  
 1.550615784787099E6    -3.663141714327203E-4  -2.416644140087074E-2   9.990344906336378E-1  -2.690239760182026E-2   9.994159200746992E-1  -2.667616116435875E-2  -9.437607148563692E-4  -2.418172094414575E-2  
 1.582382231117988E6    -3.173771768904912E-4  -2.477009510371572E-2   9.989202641735385E-1  -2.778087573909267E-2   9.991834083429749E-1  -2.741030874807257E-2  -1.079150369367191E-3  -2.499253841649702E-2  
 1.614799455754111E6    -8.436843338881221E-5  -2.523250389606812E-2   9.989960775116011E-1  -2.822021538088008E-2   9.997301732445653E-1  -2.808679912568812E-2  -8.739941583645254E-4  -2.564880557185785E-2  
 1.647880790762838E6    -4.587323196052172E-4  -2.583967322295850E-2   9.992835143630113E-1  -2.849213543106563E-2   9.992756161614222E-1  -2.863738143064676E-2  -1.306018632577751E-3  -2.583192534688414E-2  
 1.681639841336839E6    -4.556856243303863E-4  -2.648640138405320E-2   9.993670926871060E-1  -2.913735256646794E-2   9.987511722416579E-1  -2.903500656976833E-2  -1.255290610647140E-3  -2.654514198769954E-2  
 1.716090491389422E6    -5.300324879806061E-4  -2.694948854240208E-2   9.988060625030364E-1  -2.963202315446569E-2   9.989375008481458E-1  -2.992052038526535E-2  -1.409593991279366E-3  -2.690141155811986E-2  
 1.751246909264502E6    -7.155348922743010E-4  -2.736460005839817E-2   9.991531442650615E-1  -3.011004970578063E-2   9.989083506496697E-1  -3.065969937317786E-2  -1.313114760902618E-3  -2.760057677624415E-2  
 1.787123553563544E6    -9.946016677958014E-4  -2.756311225946388E-2   9.989489989283007E-1  -3.096217996848936E-2   9.993276570300114E-1  -3.102529777026913E-2  -1.095623366451026E-3  -2.847909998799492E-2  
 1.823735179091875E6    -7.297370490960489E-4  -2.831742309438459E-2   9.986681095935432E-1  -3.164803030992264E-2   9.990001432413176E-1  -3.194795838290130E-2  -1.024211187831417E-3  -2.827166278442811E-2  
 1.861096842926821E6    -8.206053471295786E-4  -2.885705163839811E-2   9.989196485806182E-1  -3.254517564834027E-2   9.991168943375168E-1  -3.241028708274936E-2  -1.442376265541762E-3  -2.904180877210979E-2  
 1.899223910610154E6    -6.644620059874607E-4  -2.954489172635389E-2   9.986932432997606E-1  -3.369258434272683E-2   9.990177590856210E-1  -3.330561786451908E-2  -1.506433270736398E-3  -2.944934657135696E-2  
 1.938132062467400E6    -8.072790742085604E-4  -3.047522538855741E-2   9.984933923721278E-1  -3.346439718281608E-2   9.989197462053301E-1  -3.380225156940807E-2  -1.030945759303146E-3  -3.043934378950704E-2  
 1.977837300056607E6    -5.473089985161333E-4  -3.113061170748723E-2   9.986147434967628E-1  -3.404294021821014E-2   9.989749925644920E-1  -3.397026863208096E-2  -1.443633007474068E-3  -3.069795310246013E-2  
