#  HZ   S   RI   R     50 
! Rohde & Schwarz ZVA/B 
! 
! 
! 
 3.000000000000000E5    -9.465779096000928E-1  -2.198236772771554E-1   5.421106171758618E-2  -2.226364604407695E-1   5.469702986577970E-2  -2.234246972587196E-1  -9.445228547569866E-1  -2.201174520089717E-1  
 3.061459028037530E5    -9.482049180877964E-1  -2.165134254027832E-1   5.264313469071100E-2  -2.185530416284845E-1   5.264372350046064E-2  -2.193187885714158E-1  -9.461780434524721E-1  -2.159836859523511E-1  
 3.124177126784167E5    -9.497630366152839E-1  -2.126312317918542E-1   5.064256494885312E-2  -2.145799295530010E-1   5.080766020748959E-2  -2.152922946927036E-1  -9.483253182228237E-1  -2.121868195595072E-1  
 3.188180089993913E5    -9.517362409970746E-1  -2.084450077877107E-1   4.874961639301609E-2  -2.108314322162098E-1   4.888389295888036E-2  -2.114114287036201E-1  -9.499824072999266E-1  -2.085595123896331E-1  
 3.253494239840457E5    -9.535323543982286E-1  -2.048050670493729E-1   4.691979794245876E-2  -2.068913362689415E-1   4.713192584160410E-2  -2.074970047061049E-1  -9.516173549311481E-1  -2.046883938913466E-1  
 3.320146437742557E5    -9.550371315832091E-1  -2.010146009061335E-1   4.522202296036099E-2  -2.031096147498786E-1   4.536219383785495E-2  -2.036430305882275E-1  -9.533416672397206E-1  -2.010219707452175E-1  
 3.388164095411199E5    -9.565622514811392E-1  -1.974625122483078E-1   4.365454032337358E-2  -1.992468422438162E-1   4.373308542951697E-2  -1.999585980888214E-1  -9.548505917810369E-1  -1.974235678577217E-1  
 3.457575186123076E5    -9.583436718669358E-1  -1.933265502588975E-1   4.195313750759591E-2  -1.956500899470363E-1   4.206714198065312E-2  -1.963441302357499E-1  -9.565426066434272E-1  -1.936393536658811E-1  
 3.528408256225012E5    -9.594642513620980E-1  -1.901690214472686E-1   4.052377957945086E-2  -1.918936515182923E-1   4.063937369293492E-2  -1.926349942610551E-1  -9.579521048744693E-1  -1.903205925737194E-1  
 3.600692436874074E5    -9.614628739593765E-1  -1.866146621406452E-1   3.902453728951979E-2  -1.884919780971585E-1   3.912272426039227E-2  -1.891052859620086E-1  -9.596613082118852E-1  -1.864862618036986E-1  
 3.674457456018197E5    -9.625579177264851E-1  -1.832109392276976E-1   3.773392138136306E-2  -1.848374041426887E-1   3.772205041888577E-2  -1.854982809395127E-1  -9.608123886070756E-1  -1.832922507176591E-1  
 3.749733650622242E5    -9.637801491976612E-1  -1.797878082080168E-1   3.636025587259521E-2  -1.813348782638059E-1   3.622227832553086E-2  -1.819558083621486E-1  -9.621568903292338E-1  -1.797838180222240E-1  
 3.826551979144529E5    -9.652037984424611E-1  -1.764738607338215E-1   3.509777199639576E-2  -1.779641850325312E-1   3.489048531788350E-2  -1.785768893274778E-1  -9.635578094171804E-1  -1.765624126447122E-1  
 3.904944034268967E5    -9.665123448875534E-1  -1.731075012650708E-1   3.382057996566181E-2  -1.746660197770181E-1   3.370357239698945E-2  -1.751987696077118E-1  -9.647568116861807E-1  -1.734581693956470E-1  
 3.984942055898008E5    -9.675917640937948E-1  -1.695935848173187E-1   3.259515833184294E-2  -1.713162023641235E-1   3.247782805684143E-2  -1.718081360683344E-1  -9.660392166350322E-1  -1.701912323168204E-1  
 4.066578944411798E5    -9.689699807287902E-1  -1.664910975074052E-1   3.143246386223492E-2  -1.681421764775385E-1   3.130606932584835E-2  -1.686159530295516E-1  -9.673392974856194E-1  -1.670095905573824E-1  
 4.149888274198943E5    -9.701225958692054E-1  -1.633151626093885E-1   3.023775479786191E-2  -1.649901657176957E-1   3.014068112864972E-2  -1.654302348418325E-1  -9.683318732836961E-1  -1.635929033022390E-1  
 4.234904307464480E5    -9.708087884462552E-1  -1.601561306791773E-1   2.921142651819143E-2  -1.618407356772387E-1   2.914358858329313E-2  -1.623332991873424E-1  -9.698572589909771E-1  -1.606931564292802E-1  
 4.321662008320720E5    -9.719032898606701E-1  -1.573233745095485E-1   2.817862754506198E-2  -1.587911050709395E-1   2.803160964703735E-2  -1.591949185277755E-1  -9.707696509108850E-1  -1.575128282114138E-1  
 4.410197057166757E5    -9.728442044495037E-1  -1.544485243388862E-1   2.719456710125091E-2  -1.557410047807663E-1   2.707733670355292E-2  -1.561038561615131E-1  -9.715117626283851E-1  -1.546816378573794E-1  
 4.500545865362572E5    -9.741860968845137E-1  -1.514135878676580E-1   2.619785582275363E-2  -1.528243701141635E-1   2.607706443927374E-2  -1.531351902254445E-1  -9.724694565993213E-1  -1.515777407772886E-1  
 4.592745590203743E5    -9.752132478345832E-1  -1.484310412125826E-1   2.527650890575225E-2  -1.498638503718413E-1   2.519235733740897E-2  -1.502029229965007E-1  -9.734938503370495E-1  -1.488887942452264E-1  
 4.686834150202934E5    -9.756938196118934E-1  -1.455151337219554E-1   2.437134201814144E-2  -1.469409855385833E-1   2.416874086803473E-2  -1.472959886994033E-1  -9.743562507915053E-1  -1.457539092025103E-1  
 4.782850240684460E5    -9.766085308076646E-1  -1.428629323946410E-1   2.352346872938154E-2  -1.441660774480472E-1   2.340165156215889E-2  -1.445157920880274E-1  -9.752662944768941E-1  -1.430735157951168E-1  
 4.880833349698305E5    -9.771820390415817E-1  -1.400168808328975E-1   2.267384083058274E-2  -1.413792102124614E-1   2.255297014183575E-2  -1.416799020578105E-1  -9.761133015874149E-1  -1.404899153378153E-1  
 4.980823774260179E5    -9.782728645813784E-1  -1.374096840321219E-1   2.195167194945017E-2  -1.387229466796295E-1   2.176606140191688E-2  -1.390277527953912E-1  -9.771513212920984E-1  -1.378581310218261E-1  
 5.082862636924264E5    -9.789916960656592E-1  -1.346608923923915E-1   2.112781036854709E-2  -1.360403368431075E-1   2.095303514211139E-2  -1.362802273316443E-1  -9.779687145687919E-1  -1.349815337573965E-1  
 5.186991902695479E5    -9.800156558172665E-1  -1.321889868818172E-1   2.044498760895465E-2  -1.335070996451737E-1   2.022614964374391E-2  -1.336723910607092E-1  -9.784669036895257E-1  -1.324344407522449E-1  
 5.293254396288213E5    -9.803005058307499E-1  -1.295836939466674E-1   1.979427587216447E-2  -1.309124968770175E-1   1.953084371815673E-2  -1.310709401493745E-1  -9.793977058131905E-1  -1.298114629847369E-1  
 5.401693819738632E5    -9.812568812814112E-1  -1.270680036468589E-1   1.906167731032997E-2  -1.284228423461091E-1   1.890590431161342E-2  -1.285080892620749E-1  -9.800224346289533E-1  -1.274370183364341E-1  
 5.512354770377789E5    -9.818614540687698E-1  -1.246519555440028E-1   1.836363733337662E-2  -1.259357073370039E-1   1.823414860985726E-2  -1.260851852717728E-1  -9.808807236306660E-1  -1.250065210738288E-1  
 5.625282759172944E5    -9.822772364821728E-1  -1.225455481872403E-1   1.773931151027777E-2  -1.234950094371760E-1   1.765305449679396E-2  -1.235916659574959E-1  -9.814498991456526E-1  -1.224542923837441E-1  
 5.740524229444626E5    -9.830676317097654E-1  -1.196916002625612E-1   1.708424638831521E-2  -1.210517614497358E-1   1.693275905020162E-2  -1.212007270095273E-1  -9.820618712011802E-1  -1.201611862860368E-1  
 5.858126575967147E5    -9.835792280392768E-1  -1.174403461156649E-1   1.655229099397173E-2  -1.187573323856029E-1   1.639287700669498E-2  -1.188516383932071E-1  -9.826884516521560E-1  -1.177873969501554E-1  
 5.978138164460403E5    -9.841205487392933E-1  -1.151574308775098E-1   1.598607832836030E-2  -1.164222888725352E-1   1.585365143456346E-2  -1.166037125944803E-1  -9.833919149529456E-1  -1.155636598292881E-1  
 6.100608351481004E5    -9.849445735795259E-1  -1.129789613618173E-1   1.542056381785767E-2  -1.142498242568058E-1   1.534415239817753E-2  -1.143164635615660E-1  -9.838694957509769E-1  -1.131411321334242E-1  
 6.225587504720892E5    -9.854750800334006E-1  -1.106297439173814E-1   1.492770044325422E-2  -1.120379436606763E-1   1.483220072381559E-2  -1.120394984424214E-1  -9.842953774717076E-1  -1.108867502576352E-1  
 6.353127023721805E5    -9.858216448218048E-1  -1.085043251286127E-1   1.444421405745212E-2  -1.098714705814770E-1   1.428788625339394E-2  -1.099671792171952E-1  -9.850162965707956E-1  -1.085909713670540E-1  
 6.483279361014109E5    -9.862944256534886E-1  -1.063721589381639E-1   1.387378769686882E-2  -1.076646877608879E-1   1.379035937537133E-2  -1.077478206984312E-1  -9.854551150840917E-1  -1.067037715062232E-1  
 6.616098043688679E5    -9.868593083432156E-1  -1.044178966567249E-1   1.341657603898848E-2  -1.055450149755978E-1   1.330176938435235E-2  -1.056509367113310E-1  -9.858828420857806E-1  -1.045618283477822E-1  
 6.751637695410716E5    -9.874334848556035E-1  -1.021417113201550E-1   1.293722593523578E-2  -1.035574695160463E-1   1.283873236589715E-2  -1.035783980469731E-1  -9.862826609692368E-1  -1.024084128253295E-1  
 6.889954058884548E5    -9.877288083926019E-1  -1.002765790224400E-1   1.258105391815656E-2  -1.014904854300262E-1   1.239750677181785E-2  -1.015516568538660E-1  -9.866535383486960E-1  -1.004077177011043E-1  
 7.031104018778642E5    -9.883943495114717E-1  -9.826548610206422E-2   1.210393422666722E-2  -9.956141054616233E-2   1.205485751195814E-2  -9.959724760980170E-2  -9.872536998263604E-1  -9.837752290641766E-2  
 7.175145625120278E5    -9.885398954003101E-1  -9.615490920779993E-2   1.165058566961060E-2  -9.758062357926463E-2   1.157333372757804E-2  -9.767877505922003E-2  -9.877437684468660E-1  -9.635926155977190E-2  
 7.322138117169489E5    -9.888742269241949E-1  -9.448503565715259E-2   1.126829010585219E-2  -9.566043499516343E-2   1.123581108279237E-2  -9.571245423192390E-2  -9.881118615987936E-1  -9.457170295815953E-2  
 7.472141947782085E5    -9.894480647584227E-1  -9.251178484020468E-2   1.089417462525736E-2  -9.382384866708338E-2   1.078840677321960E-2  -9.387210569412564E-2  -9.885347687468775E-1  -9.256512073768942E-2  
 7.625218808271801E5    -9.898961518326841E-1  -9.063984457322831E-2   1.047251555648834E-2  -9.208349905865955E-2   1.054127032992402E-2  -9.204752698812230E-2  -9.888126538281397E-1  -9.064429688580458E-2  
 7.781431653781761E5    -9.902458962918637E-1  -8.893160320750485E-2   1.019625773494835E-2  -9.018644652523238E-2   1.014583065327448E-2  -9.021614938399759E-2  -9.892464178252978E-1  -8.890616639807615E-2  
 7.940844729175728E5    -9.905691126575876E-1  -8.698212648408342E-2   9.853101188627108E-3  -8.844117178932390E-2   9.792146303130828E-3  -8.847907920989594E-2  -9.897142066084801E-1  -8.715198159233656E-2  
 8.103523595459757E5    -9.909832475945519E-1  -8.536850441398880E-2   9.465342195730380E-3  -8.670883809217056E-2   9.455164208699280E-3  -8.675261526741596E-2  -9.897600964810102E-1  -8.545026741041435E-2  
 8.269535156745140E5    -9.913794946235260E-1  -8.367345111568125E-2   9.206214086413186E-3  -8.499257845811574E-2   9.164191878983263E-3  -8.502696224663778E-2  -9.901867312605861E-1  -8.359724412061335E-2  
 8.438947687763721E5    -9.916737163194730E-1  -8.182665267086292E-2   8.913866512817658E-3  -8.333165191624219E-2   8.852011216047855E-3  -8.337754104185233E-2  -9.904030358959075E-1  -8.181689310274019E-2  
 8.611830861946895E5    -9.919115400272840E-1  -8.007166397607296E-2   8.568838422951048E-3  -8.170165618784681E-2   8.540039706854869E-3  -8.175305535356664E-2  -9.907896416110861E-1  -8.026523044869038E-2  
 8.788255780079850E5    -9.922558094910468E-1  -7.871819921567810E-2   8.268374090437623E-3  -8.012362402850567E-2   8.252190885330159E-3  -8.014633680373134E-2  -9.911670026648933E-1  -7.858725822769941E-2  
 8.968294999542822E5    -9.925332625191727E-1  -7.685954004893285E-2   8.061804899708204E-3  -7.854877392096188E-2   7.975396740929331E-3  -7.856610302502042E-2  -9.912535495446163E-1  -7.714574897435246E-2  
 9.152022564151404E5    -9.927208604568514E-1  -7.542998499552858E-2   7.741107549090782E-3  -7.694805738975691E-2   7.688152975013621E-3  -7.700118197532882E-2  -9.917049835544637E-1  -7.535790491261118E-2  
 9.339514034608167E5    -9.928574801488673E-1  -7.401033629343337E-2   7.443205032341589E-3  -7.545576052869793E-2   7.454849913007962E-3  -7.546895903837621E-2  -9.918168915446396E-1  -7.380682074916728E-2  
 9.530846519578132E5    -9.933481379643018E-1  -7.230551085271086E-2   7.215915362776536E-3  -7.401237632719487E-2   7.199234180527639E-3  -7.402096317848496E-2  -9.921766871769746E-1  -7.234952661333677E-2  
 9.726098707400849E5    -9.935069878301535E-1  -7.085067241984970E-2   6.969449378927730E-3  -7.256366420265784E-2   6.983371438920881E-3  -7.255901431081026E-2  -9.925585638597556E-1  -7.089353620477029E-2  
 9.925350898452161E5    -9.938201797979656E-1  -6.946287225486958E-2   6.865045391559889E-3  -7.113790546004022E-2   6.776143698776589E-3  -7.111633805249008E-2  -9.925769669446315E-1  -6.946622876230822E-2  
 1.012868503816893E6    -9.943766775482189E-1  -6.804371259184043E-2   6.624307179438736E-3  -6.961763727466934E-2   6.476266412754285E-3  -6.967909349038674E-2  -9.923741884950352E-1  -6.808413641725523E-2  
 1.033618475075031E6    -9.944751102789693E-1  -6.614531200273874E-2   6.195325369150160E-3  -6.833993856707722E-2   6.296252360224102E-3  -6.844181284571303E-2  -9.929286271168072E-1  -6.646194154613552E-2  
 1.054793537354946E6    -9.939577383361699E-1  -6.496334041986032E-2   6.116452601891210E-3  -6.702985370853462E-2   6.374188997817170E-3  -6.703651442599655E-2  -9.929282350017634E-1  -6.570666120279976E-2  
 1.076402399216980E6    -9.944604226048323E-1  -6.357450344772278E-2   5.921226954094029E-3  -6.552664977304094E-2   5.869969185389791E-3  -6.562580367986559E-2  -9.932192071388434E-1  -6.387969656962236E-2  
 1.098453947628028E6    -9.951501617005174E-1  -6.216791189079547E-2   5.705510385856014E-3  -6.435751564276387E-2   5.749728559408238E-3  -6.450824648414491E-2  -9.935400104526324E-1  -6.260525537627049E-2  
 1.120957251616430E6    -9.956023699856029E-1  -6.068779340772856E-2   5.465071369384234E-3  -6.305252663471432E-2   5.540831321876501E-3  -6.315834057405616E-2  -9.937710750456801E-1  -6.132428179562051E-2  
 1.143921566001752E6    -9.947251323989693E-1  -6.027906582616174E-2   5.484806790304160E-3  -6.182475267623681E-2   5.461110412100306E-3  -6.173150563064583E-2  -9.942653873659848E-1  -5.968615854190101E-2  
 1.167356335200965E6    -9.955499010840243E-1  -5.814272759207920E-2   5.167046596351075E-3  -6.068833195787035E-2   5.194940366976373E-3  -6.053859291822833E-2  -9.945681460941730E-1  -5.825870072632846E-2  
 1.191271197112600E6    -9.959045467375267E-1  -5.702644776216118E-2   4.990374260051664E-3  -5.933811747360485E-2   5.021526257749450E-3  -5.930540133915120E-2  -9.943647301958666E-1  -5.740003527210134E-2  
 1.215675987080482E6    -9.952817139384431E-1  -5.600342754009911E-2   4.768551248309765E-3  -5.828268781277186E-2   4.945036074659054E-3  -5.837293819985708E-2  -9.950021673368075E-1  -5.603443477234037E-2  
 1.240580741938659E6    -9.959439044407271E-1  -5.471099777600350E-2   4.642999477989876E-3  -5.703917352073798E-2   4.647195036723928E-3  -5.699883970998264E-2  -9.944318742845654E-1  -5.464845979163682E-2  
 1.265995704139202E6    -9.957152730570752E-1  -5.410414102207611E-2   4.587270268840239E-3  -5.589768444760090E-2   4.444113017619569E-3  -5.592822903996593E-2  -9.943753295572834E-1  -5.378581993686286E-2  
 1.291931325964563E6    -9.961267387473034E-1  -5.255691764094456E-2   4.411998377584389E-3  -5.481712651080768E-2   4.622145591330220E-3  -5.482788943885456E-2  -9.949870025995941E-1  -5.273873708415156E-2  
 1.318398273826236E6    -9.963322611829171E-1  -5.147207257850760E-2   4.329026559066506E-3  -5.380328248472491E-2   4.442234833930267E-3  -5.378227301490437E-2  -9.947741455115705E-1  -5.149950470887061E-2  
 1.345407432651476E6    -9.965251462031733E-1  -5.003547705182948E-2   4.106383227735621E-3  -5.264943636696434E-2   3.979839968258008E-3  -5.265574128862174E-2  -9.956919520415494E-1  -4.992097021636942E-2  
 1.372969910359885E6    -9.962291001147939E-1  -4.904643416533502E-2   4.081473036703032E-3  -5.161527772053423E-2   3.938043502307470E-3  -5.163481899587182E-2  -9.955546455279605E-1  -4.912253286060467E-2  
 1.401097042431717E6    -9.966180984776618E-1  -4.852555697607990E-2   4.105482881181885E-3  -5.056081725783909E-2   3.952630330631914E-3  -5.055053886396677E-2  -9.955175319718641E-1  -4.822766052909323E-2  
 1.429800396569754E6    -9.963588709460719E-1  -4.701839737309881E-2   3.754459950328852E-3  -4.963479379559807E-2   3.884807877644096E-3  -4.973668743448887E-2  -9.960147535629510E-1  -4.697605105196241E-2  
 1.459091777456705E6    -9.967870946411973E-1  -4.650461433067825E-2   3.637454735103111E-3  -4.854889955528011E-2   3.607075036206240E-3  -4.861242179934751E-2  -9.960539961652641E-1  -4.621109128579545E-2  
 1.488983231610052E6    -9.967714758896803E-1  -4.470647210500246E-2   3.557349165077554E-3  -4.747263115901804E-2   3.542785758867354E-3  -4.757017018581140E-2  -9.958906054747017E-1  -4.524683161505920E-2  
 1.519487052336364E6    -9.970004479841197E-1  -4.395862601700169E-2   3.476235804238499E-3  -4.670587579516336E-2   3.547144162751759E-3  -4.667570992256868E-2  -9.956330237225631E-1  -4.394012445083359E-2  
 1.550615784787099E6    -9.970991779958813E-1  -4.312824452074879E-2   3.281702606282489E-3  -4.576766050546226E-2   3.380661807292442E-3  -4.565705123763730E-2  -9.962450252900968E-1  -4.318065111866778E-2  
 1.582382231117988E6    -9.976283143196769E-1  -4.200877211033461E-2   3.317918232431902E-3  -4.478222278839182E-2   3.421591415553565E-3  -4.483021009392703E-2  -9.958468553534641E-1  -4.202953103622438E-2  
 1.614799455754111E6    -9.971719836952779E-1  -4.089769962443964E-2   3.147031229395378E-3  -4.395821645800589E-2   3.308777722323019E-3  -4.382752442797792E-2  -9.964800445518128E-1  -4.097202948251966E-2  
 1.647880790762838E6    -9.974003309722590E-1  -4.054150674046644E-2   3.009901764053437E-3  -4.304096466614556E-2   3.168969598309146E-3  -4.315019041962683E-2  -9.963279009248650E-1  -4.023850404932547E-2  
 1.681639841336839E6    -9.971015572691394E-1  -3.926705807857086E-2   2.843008897156489E-3  -4.212224625937996E-2   2.957558805632248E-3  -4.214084621889472E-2  -9.966191325317885E-1  -3.966234771164597E-2  
 1.716090491389422E6    -9.974936941976873E-1  -3.863549183906930E-2   2.850775116345778E-3  -4.133231883400000E-2   2.963010499572896E-3  -4.129071338532410E-2  -9.966322176027457E-1  -3.847384579210962E-2  
 1.751246909264502E6    -9.975013755690814E-1  -3.768504378161883E-2   2.770005593647089E-3  -4.042203966629482E-2   2.847720192052837E-3  -4.048969166998564E-2  -9.967663984896287E-1  -3.720544542494128E-2  
 1.787123553563544E6    -9.975765927045480E-1  -3.646079822296115E-2   2.860868274168045E-3  -3.969321586151319E-2   2.802721210379783E-3  -3.958711642164265E-2  -9.968021023448764E-1  -3.665032733072178E-2  
 1.823735179091875E6    -9.975097282961615E-1  -3.564212988009904E-2   2.622945269608970E-3  -3.893591122170655E-2   2.675325725627418E-3  -3.872428706742655E-2  -9.966814834123159E-1  -3.571857427253965E-2  
 1.861096842926821E6    -9.979094935293887E-1  -3.493950197392663E-2   2.485962141633435E-3  -3.803925339828694E-2   2.628728896252825E-3  -3.798613876128575E-2  -9.968209405190447E-1  -3.469910831547456E-2  
 1.899223910610154E6    -9.977837096798350E-1  -3.384939324919813E-2   2.521663587733536E-3  -3.728562513082732E-2   2.417114946737783E-3  -3.732732028558328E-2  -9.972472608797895E-1  -3.402755882419333E-2  
 1.938132062467400E6    -9.977941291601579E-1  -3.341129350505457E-2   2.354788025329327E-3  -3.653571550016246E-2   2.600592886782870E-3  -3.645103376005355E-2  -9.970632840874731E-1  -3.346127749123268E-2  
 1.977837300056607E6    -9.982221086883992E-1  -3.245840988438677E-2   2.337700310822163E-3  -3.578132665136495E-2   2.393897311628819E-3  -3.581918775914376E-2  -9.968347382068716E-1  -3.235554951111686E-2  
