#  HZ   S   RI   R     50 
! Rohde & Schwarz ZVA/B 
! 
! 
! 
 3.000000000000000E5    -1.750891995242575E-1  -3.740094862827120E-1   8.281249335625343E-1  -3.731486104684755E-1   8.288232619456107E-1  -3.740887957772382E-1  -1.745585991342620E-1  -3.722138601769915E-1  
 3.061459028037530E5    -1.809595110464448E-1  -3.791809222248684E-1   8.225992626237991E-1  -3.780991936971591E-1   8.228967420638431E-1  -3.789416228872275E-1  -1.802686973867269E-1  -3.769642574221140E-1  
 3.124177126784167E5    -1.868097157658115E-1  -3.835308774025672E-1   8.163316946906788E-1  -3.830983986394890E-1   8.169393882343654E-1  -3.836407438826064E-1  -1.863563323085230E-1  -3.818921138078048E-1  
 3.188180089993913E5    -1.929254260701793E-1  -3.882402168655146E-1   8.105403361678388E-1  -3.879769582177489E-1   8.109232709160414E-1  -3.887283102793884E-1  -1.920449314908540E-1  -3.864734254488992E-1  
 3.253494239840457E5    -1.989630085432879E-1  -3.930722322602898E-1   8.040219116146525E-1  -3.925913134382931E-1   8.045357645290170E-1  -3.931580357120826E-1  -1.985617603836242E-1  -3.909426281462368E-1  
 3.320146437742557E5    -2.054497317945886E-1  -3.976816137339375E-1   7.977255451905437E-1  -3.973574220266177E-1   7.980510443251675E-1  -3.978164989639046E-1  -2.049256473282384E-1  -3.956144913872028E-1  
 3.388164095411199E5    -2.118561126521527E-1  -4.020545262057221E-1   7.908856262677010E-1  -4.020800017637435E-1   7.914371368972932E-1  -4.025518914852204E-1  -2.111524378254716E-1  -4.000953662007926E-1  
 3.457575186123076E5    -2.186066481590794E-1  -4.064477786919601E-1   7.841290539728618E-1  -4.068980943307730E-1   7.846819560654864E-1  -4.073377511370911E-1  -2.177736578482123E-1  -4.044348433639731E-1  
 3.528408256225012E5    -2.253522062073286E-1  -4.108516543366569E-1   7.773578404454040E-1  -4.111296021485247E-1   7.781202831607863E-1  -4.115881567012608E-1  -2.245817247565764E-1  -4.090912036832912E-1  
 3.600692436874074E5    -2.323856253935112E-1  -4.154425871625264E-1   7.703911361827529E-1  -4.158298526716618E-1   7.711095844689077E-1  -4.162859139931037E-1  -2.314170545259534E-1  -4.133797768115182E-1  
 3.674457456018197E5    -2.394064837375852E-1  -4.197144616612826E-1   7.633263068126870E-1  -4.202049174713348E-1   7.639502087750585E-1  -4.206981229239226E-1  -2.384322514396151E-1  -4.178177047845453E-1  
 3.749733650622242E5    -2.469944013244934E-1  -4.239930905672409E-1   7.561381068502228E-1  -4.247415945443428E-1   7.563828313182757E-1  -4.251668901279982E-1  -2.455789399246958E-1  -4.220838936099998E-1  
 3.826551979144529E5    -2.540250495071620E-1  -4.280007877444980E-1   7.487140364613671E-1  -4.288822382526711E-1   7.491467813299843E-1  -4.295300394892536E-1  -2.528905377914464E-1  -4.263232777862024E-1  
 3.904944034268967E5    -2.616738992067882E-1  -4.320258452476898E-1   7.409260177098981E-1  -4.329086695725130E-1   7.413068354692948E-1  -4.335110722457238E-1  -2.603428580644227E-1  -4.305716041470871E-1  
 3.984942055898008E5    -2.693576062070949E-1  -4.360435964934785E-1   7.332284174790608E-1  -4.369860324191121E-1   7.336398634090259E-1  -4.376458845216516E-1  -2.679618097734475E-1  -4.345822387074059E-1  
 4.066578944411798E5    -2.772048073221085E-1  -4.397934997681658E-1   7.255687919699142E-1  -4.411425143078608E-1   7.257871215864271E-1  -4.416555017718628E-1  -2.758656549144776E-1  -4.386541352255965E-1  
 4.149888274198943E5    -2.850293601332695E-1  -4.437021653090338E-1   7.174191552567640E-1  -4.450273565568957E-1   7.177299189352779E-1  -4.457344022030664E-1  -2.839428835176759E-1  -4.424928996163342E-1  
 4.234904307464480E5    -2.930748385926359E-1  -4.471593919317510E-1   7.091040381482336E-1  -4.488395145415763E-1   7.096536000725002E-1  -4.493566850448377E-1  -2.918295790851265E-1  -4.463790923170072E-1  
 4.321662008320720E5    -3.013763223161727E-1  -4.509022985423429E-1   7.009441268336867E-1  -4.523970215755682E-1   7.012448363377364E-1  -4.531488309480610E-1  -3.000469644731197E-1  -4.498566032676619E-1  
 4.410197057166757E5    -3.095825151477931E-1  -4.542952799027554E-1   6.923329947793974E-1  -4.561016783705036E-1   6.926402911612735E-1  -4.564637180505253E-1  -3.083074038071296E-1  -4.533226405971569E-1  
 4.500545865362572E5    -3.181561207587647E-1  -4.578228122627153E-1   6.838642998359819E-1  -4.595291647458029E-1   6.840387859602771E-1  -4.598953988947126E-1  -3.167352427638882E-1  -4.565935863470619E-1  
 4.592745590203743E5    -3.266100428935218E-1  -4.610861298830494E-1   6.752130475889211E-1  -4.626092644754432E-1   6.755245186614599E-1  -4.631423180124545E-1  -3.253904150807643E-1  -4.597945023389602E-1  
 4.686834150202934E5    -3.349620404932124E-1  -4.639000874576064E-1   6.661266082316725E-1  -4.654441462387760E-1   6.665033466522938E-1  -4.664240567585111E-1  -3.341395185380473E-1  -4.629881612519958E-1  
 4.782850240684460E5    -3.439247657032249E-1  -4.669322522387505E-1   6.573350061832874E-1  -4.686527222759174E-1   6.576448973132638E-1  -4.692316466556153E-1  -3.429038628900578E-1  -4.658890192614045E-1  
 4.880833349698305E5    -3.530387674376927E-1  -4.696688452947411E-1   6.484848229418440E-1  -4.714416948100015E-1   6.485206345413455E-1  -4.719978417544553E-1  -3.515920568277642E-1  -4.689991240138182E-1  
 4.980823774260179E5    -3.619058823898557E-1  -4.722939197619971E-1   6.394332567390345E-1  -4.741981540471988E-1   6.395526190591200E-1  -4.747338950800746E-1  -3.608498644319367E-1  -4.716569642003661E-1  
 5.082862636924264E5    -3.710925777626966E-1  -4.748533366378283E-1   6.301356343853045E-1  -4.766551895147132E-1   6.302556864714218E-1  -4.772215708534182E-1  -3.699160467522591E-1  -4.741552637795093E-1  
 5.186991902695479E5    -3.803041361294979E-1  -4.770966494422189E-1   6.208719359965139E-1  -4.788549613163674E-1   6.209951276313468E-1  -4.795145992880205E-1  -3.791135604576693E-1  -4.763609743106528E-1  
 5.293254396288213E5    -3.897901020976068E-1  -4.792326175452994E-1   6.114043273655990E-1  -4.811892887431271E-1   6.112946228376736E-1  -4.815838341304236E-1  -3.883968707645287E-1  -4.786814463475207E-1  
 5.401693819738632E5    -3.990242196005863E-1  -4.811408603182899E-1   6.019323636317846E-1  -4.830300469575273E-1   6.020667178681628E-1  -4.835770963741817E-1  -3.979192145617509E-1  -4.807005866158881E-1  
 5.512354770377789E5    -4.084526277944373E-1  -4.830968405451157E-1   5.923087653853232E-1  -4.849015603668267E-1   5.923656451301887E-1  -4.853091427630054E-1  -4.073037832193353E-1  -4.825068996826322E-1  
 5.625282759172944E5    -4.178668754590989E-1  -4.846656764947753E-1   5.827385183632432E-1  -4.865504012255947E-1   5.829627860932182E-1  -4.870453954940878E-1  -4.170297488451684E-1  -4.844136572161296E-1  
 5.740524229444626E5    -4.275578620587890E-1  -4.861708008712835E-1   5.730697207791310E-1  -4.881098287389883E-1   5.731623100717082E-1  -4.885103436243860E-1  -4.264628396592828E-1  -4.857573439074223E-1  
 5.858126575967147E5    -4.373026809924871E-1  -4.875122238908752E-1   5.634305326243466E-1  -4.894052301175322E-1   5.633872259836068E-1  -4.899118800826580E-1  -4.362421952501870E-1  -4.870497285697248E-1  
 5.978138164460403E5    -4.468771662669836E-1  -4.885098067195400E-1   5.536234592350455E-1  -4.903618483074342E-1   5.537817797622709E-1  -4.909232874836084E-1  -4.459185202410726E-1  -4.883089675672204E-1  
 6.100608351481004E5    -4.567115695623659E-1  -4.896626092921522E-1   5.439053531638369E-1  -4.913534554107449E-1   5.438184176128195E-1  -4.917701661835768E-1  -4.557993836756338E-1  -4.891076508166910E-1  
 6.225587504720892E5    -4.664792664863283E-1  -4.904006346907263E-1   5.341857603170130E-1  -4.920832277946223E-1   5.339179805542269E-1  -4.923126427941658E-1  -4.656373455707876E-1  -4.898568669181695E-1  
 6.353127023721805E5    -4.762878784750217E-1  -4.908100160447027E-1   5.241636063913506E-1  -4.925376169860257E-1   5.241163396787207E-1  -4.929021323650376E-1  -4.754764385475064E-1  -4.902370139498964E-1  
 6.483279361014109E5    -4.861132746703272E-1  -4.911242817002118E-1   5.142543407789358E-1  -4.927543423248613E-1   5.143321563009988E-1  -4.931247637469642E-1  -4.853718335534245E-1  -4.908369652399022E-1  
 6.616098043688679E5    -4.958652126941517E-1  -4.912153330202145E-1   5.043534406944203E-1  -4.928895593042012E-1   5.044758631793124E-1  -4.933207154591971E-1  -4.953156269155608E-1  -4.908728911158392E-1  
 6.751637695410716E5    -5.057869875548394E-1  -4.912125107186693E-1   4.945021730950438E-1  -4.928247357371346E-1   4.944638897915917E-1  -4.931873438461678E-1  -5.049615950907331E-1  -4.906551626361405E-1  
 6.889954058884548E5    -5.157609791512299E-1  -4.909851122331204E-1   4.846508067206312E-1  -4.926259979377539E-1   4.845594961200295E-1  -4.927820642753835E-1  -5.147783376073259E-1  -4.905127173342293E-1  
 7.031104018778642E5    -5.256549044998913E-1  -4.907392740193071E-1   4.747665841403291E-1  -4.921427657597747E-1   4.748681578436132E-1  -4.925437781224163E-1  -5.247217739090523E-1  -4.900945111949969E-1  
 7.175145625120278E5    -5.351773654946319E-1  -4.897872253214594E-1   4.649457275977066E-1  -4.914346647510752E-1   4.650296240574375E-1  -4.917136023824757E-1  -5.346451417640259E-1  -4.895681452042781E-1  
 7.322138117169489E5    -5.451407238873762E-1  -4.889437669778582E-1   4.551368781081060E-1  -4.906790630908863E-1   4.550440939663691E-1  -4.908164376757225E-1  -5.442452100313769E-1  -4.887819471896860E-1  
 7.472141947782085E5    -5.547128035855174E-1  -4.880631075080532E-1   4.453611463084189E-1  -4.895069536556962E-1   4.453482979959253E-1  -4.899495962083633E-1  -5.542568348887551E-1  -4.876150886147403E-1  
 7.625218808271801E5    -5.644774447893816E-1  -4.868791826007481E-1   4.355967053626201E-1  -4.884052251000072E-1   4.355612808011810E-1  -4.886863902267569E-1  -5.640389136116416E-1  -4.863127804625961E-1  
 7.781431653781761E5    -5.743019742820397E-1  -4.853586953600616E-1   4.258175002998484E-1  -4.869501033964000E-1   4.258670532250632E-1  -4.871554141935786E-1  -5.736659323409027E-1  -4.850005541944967E-1  
 7.940844729175728E5    -5.838040265363280E-1  -4.838310353435782E-1   4.161972023736398E-1  -4.853046376732090E-1   4.162143237021989E-1  -4.856214138033789E-1  -5.832445541520943E-1  -4.834734792075954E-1  
 8.103523595459757E5    -5.934214035434637E-1  -4.822061895513385E-1   4.066915135477322E-1  -4.835473320177331E-1   4.067175135474739E-1  -4.838227816124564E-1  -5.927810065639118E-1  -4.816580832237757E-1  
 8.269535156745140E5    -6.029691669660729E-1  -4.802164362171834E-1   3.971748013281944E-1  -4.815445132906854E-1   3.971451046690833E-1  -4.820988693107252E-1  -6.023423931029165E-1  -4.797353511129833E-1  
 8.438947687763721E5    -6.123923364636987E-1  -4.781352264537234E-1   3.878763333132252E-1  -4.795534300913343E-1   3.877120972768385E-1  -4.797739246004802E-1  -6.116689454233826E-1  -4.775023946243472E-1  
 8.611830861946895E5    -6.216883411879914E-1  -4.757700556573351E-1   3.785022463320248E-1  -4.771243057000575E-1   3.784711464618065E-1  -4.775794036857685E-1  -6.210081528955472E-1  -4.751944589502570E-1  
 8.788255780079850E5    -6.309235457985010E-1  -4.732877831724440E-1   3.692869889663096E-1  -4.748891415554618E-1   3.692488474844701E-1  -4.749122936613640E-1  -6.302169118613272E-1  -4.728006454412169E-1  
 8.968294999542822E5    -6.401322808995341E-1  -4.705860222762573E-1   3.601617794564135E-1  -4.720833969839391E-1   3.599503971745482E-1  -4.723508986610218E-1  -6.391764555231787E-1  -4.701116991942668E-1  
 9.152022564151404E5    -6.489937956445374E-1  -4.678951739734658E-1   3.510476263597416E-1  -4.693454470876881E-1   3.509500064931390E-1  -4.696182813475458E-1  -6.484577494403381E-1  -4.673315926906102E-1  
 9.339514034608167E5    -6.579036687580531E-1  -4.650360944952223E-1   3.421582110856595E-1  -4.663500070263497E-1   3.420605068617456E-1  -4.666174655171329E-1  -6.573303286747810E-1  -4.644233701451281E-1  
 9.530846519578132E5    -6.668976167799626E-1  -4.618562601554945E-1   3.333142643020665E-1  -4.634414199623771E-1   3.332946934220695E-1  -4.635725258404392E-1  -6.661879428187372E-1  -4.613882474271615E-1  
 9.726098707400849E5    -6.756437090945545E-1  -4.585357117749496E-1   3.245805099926055E-1  -4.602239852004169E-1   3.245617128586406E-1  -4.603583188253382E-1  -6.748640463707897E-1  -4.580674877040247E-1  
 9.925350898452161E5    -6.840972519553540E-1  -4.554797646599640E-1   3.161104457678183E-1  -4.567887680135230E-1   3.159651237799946E-1  -4.570185339632783E-1  -6.835091770961692E-1  -4.546985507933352E-1  
 1.012868503816893E6    -6.932620005823705E-1  -4.516202839618914E-1   3.076141480460684E-1  -4.536123870723754E-1   3.071521467805453E-1  -4.535542318305980E-1  -6.917354808483123E-1  -4.512200508185524E-1  
 1.033618475075031E6    -7.008799172168863E-1  -4.482513960049233E-1   2.994836435071654E-1  -4.496798555169657E-1   2.989273243645502E-1  -4.502537327393863E-1  -7.001894003758131E-1  -4.475817547720987E-1  
 1.054793537354946E6    -7.092170362879042E-1  -4.444768399237991E-1   2.910179044992906E-1  -4.459566156449500E-1   2.908828127053591E-1  -4.460708250397811E-1  -7.080513289541701E-1  -4.439524271359530E-1  
 1.076402399216980E6    -7.173798644650150E-1  -4.408998121598470E-1   2.829238729130425E-1  -4.420836445984049E-1   2.827594564835219E-1  -4.425570948592886E-1  -7.163657153918805E-1  -4.399105547582109E-1  
 1.098453947628028E6    -7.254703198333794E-1  -4.366356675194615E-1   2.750207148689143E-1  -4.380553293384832E-1   2.747925634330114E-1  -4.384300930347942E-1  -7.242589574820009E-1  -4.356632205664107E-1  
 1.120957251616430E6    -7.327421029713904E-1  -4.322562409035552E-1   2.671907473493816E-1  -4.342302608880862E-1   2.671611515621526E-1  -4.343856598066556E-1  -7.321555455100077E-1  -4.313702060167083E-1  
 1.143921566001752E6    -7.403493794751604E-1  -4.284215086991435E-1   2.593434432739484E-1  -4.296036571888143E-1   2.594446014804965E-1  -4.304528805902820E-1  -7.404978084586268E-1  -4.274792954998764E-1  
 1.167356335200965E6    -7.479122559071835E-1  -4.240327130782073E-1   2.522841354140929E-1  -4.258006825932327E-1   2.524422893997910E-1  -4.257200143053677E-1  -7.473804087673475E-1  -4.235383142378473E-1  
 1.191271197112600E6    -7.553934053140348E-1  -4.197929802877223E-1   2.448873906721689E-1  -4.215052156892668E-1   2.447426007058753E-1  -4.214405234934825E-1  -7.542441638700066E-1  -4.189737249604455E-1  
 1.215675987080482E6    -7.624380094170846E-1  -4.151683140846512E-1   2.377501460344961E-1  -4.171825063648139E-1   2.377408251311522E-1  -4.173841340405775E-1  -7.621118848479638E-1  -4.146635078812194E-1  
 1.240580741938659E6    -7.696460926694297E-1  -4.105781521650133E-1   2.306548464544806E-1  -4.124614709091518E-1   2.305747475568394E-1  -4.129700629236350E-1  -7.693825681549336E-1  -4.097936431379256E-1  
 1.265995704139202E6    -7.762998954403316E-1  -4.062512695007892E-1   2.237900570887411E-1  -4.080837943007971E-1   2.236245211055412E-1  -4.080140137422218E-1  -7.755277679133866E-1  -4.056003486575216E-1  
 1.291931325964563E6    -7.833619818387735E-1  -4.014743667872818E-1   2.172328795785236E-1  -4.036637826782580E-1   2.169668000883939E-1  -4.036632913529812E-1  -7.823828938657411E-1  -4.009507449100085E-1  
 1.318398273826236E6    -7.899394996745175E-1  -3.967614078429282E-1   2.104200132738310E-1  -3.989070836637060E-1   2.104610433735182E-1  -3.986996615811024E-1  -7.887706773099503E-1  -3.964142685119065E-1  
 1.345407432651476E6    -7.963751174935563E-1  -3.919291450701020E-1   2.039229129814704E-1  -3.944214037028755E-1   2.041169990567056E-1  -3.943498512892829E-1  -7.956229512418960E-1  -3.915391956061552E-1  
 1.372969910359885E6    -8.029450563585407E-1  -3.874407726001186E-1   1.978200518198931E-1  -3.896333154667845E-1   1.977409042972198E-1  -3.897079718306340E-1  -8.019447601864409E-1  -3.867308194843808E-1  
 1.401097042431717E6    -8.085934781101007E-1  -3.824437544056578E-1   1.916287474474301E-1  -3.845461187914654E-1   1.914751008939875E-1  -3.846793550435663E-1  -8.076739224984063E-1  -3.818194111657945E-1  
 1.429800396569754E6    -8.147021786662615E-1  -3.775560550845076E-1   1.853600469934123E-1  -3.799948302431393E-1   1.855980183965019E-1  -3.798278468134486E-1  -8.141317960205003E-1  -3.773511485085765E-1  
 1.459091777456705E6    -8.201087140774249E-1  -3.727176506755665E-1   1.798150077408130E-1  -3.748565168692221E-1   1.800532001722853E-1  -3.748545821172238E-1  -8.198670144016524E-1  -3.724676016606363E-1  
 1.488983231610052E6    -8.264393685954881E-1  -3.678410618179026E-1   1.739921529858952E-1  -3.702415732790993E-1   1.739296115299119E-1  -3.701876369329682E-1  -8.256869235439597E-1  -3.672244900955838E-1  
 1.519487052336364E6    -8.314844722621487E-1  -3.628650633822493E-1   1.685266673047148E-1  -3.651937607340342E-1   1.683665465989146E-1  -3.652900441067368E-1  -8.310826965207199E-1  -3.621111225090836E-1  
 1.550615784787099E6    -8.375806422522347E-1  -3.581584760905959E-1   1.631855058344813E-1  -3.604788176708257E-1   1.631540651826200E-1  -3.607003776421436E-1  -8.368974226157240E-1  -3.572036407609134E-1  
 1.582382231117988E6    -8.426666085869243E-1  -3.528180187563845E-1   1.578043122259099E-1  -3.555090334887180E-1   1.578649393573008E-1  -3.556687472625127E-1  -8.418827111953298E-1  -3.526140662129542E-1  
 1.614799455754111E6    -8.477437459546885E-1  -3.476702639239248E-1   1.524620169163698E-1  -3.504965832753204E-1   1.528012570787941E-1  -3.504293773095308E-1  -8.470580229987494E-1  -3.473523325794151E-1  
 1.647880790762838E6    -8.526931754773361E-1  -3.430460441664546E-1   1.478158641758971E-1  -3.455841755336744E-1   1.479411523822136E-1  -3.455029866192064E-1  -8.519174153927088E-1  -3.427653509642344E-1  
 1.681639841336839E6    -8.572137607220951E-1  -3.376857987053133E-1   1.426966867936730E-1  -3.405586877102261E-1   1.430350675731015E-1  -3.405957926103491E-1  -8.566436553277625E-1  -3.376676227158822E-1  
 1.716090491389422E6    -8.621888441281892E-1  -3.333892381360554E-1   1.384391149120694E-1  -3.358221298695179E-1   1.382094603353141E-1  -3.358946040640825E-1  -8.611973275958003E-1  -3.324903096058154E-1  
 1.751246909264502E6    -8.666367464145329E-1  -3.281989482965430E-1   1.337308147813393E-1  -3.308246768911926E-1   1.336996032158334E-1  -3.308384970790042E-1  -8.658270720374158E-1  -3.272870903039142E-1  
 1.787123553563544E6    -8.708358530114864E-1  -3.232299891596304E-1   1.293515431603887E-1  -3.258868378260601E-1   1.292379094701679E-1  -3.259031193483894E-1  -8.703048623468267E-1  -3.225351317684337E-1  
 1.823735179091875E6    -8.750147495741033E-1  -3.183911766417952E-1   1.249741821794426E-1  -3.209446030255144E-1   1.248015967198418E-1  -3.210290889250096E-1  -8.745606214252253E-1  -3.176249138349376E-1  
 1.861096842926821E6    -8.794332921532956E-1  -3.133641895435244E-1   1.206319567089280E-1  -3.161539342983121E-1   1.206831622396506E-1  -3.164930728379415E-1  -8.788785229630631E-1  -3.124198415972380E-1  
 1.899223910610154E6    -8.838955440443140E-1  -3.083332627295608E-1   1.166919996531268E-1  -3.115348943642621E-1   1.166000549971690E-1  -3.115379947724734E-1  -8.833813318402833E-1  -3.077043209775643E-1  
 1.938132062467400E6    -8.872638567535124E-1  -3.036107049144760E-1   1.126723898834431E-1  -3.064944085540342E-1   1.128390517423053E-1  -3.065514546377343E-1  -8.867273568489943E-1  -3.035232344579372E-1  
 1.977837300056607E6    -8.911073360683606E-1  -2.988086261434192E-1   1.090668139940116E-1  -3.016511398650424E-1   1.087872093604362E-1  -3.017663000227696E-1  -8.905807760844514E-1  -2.979116877948237E-1  
