#  HZ   S   RI   R     50 
! Rohde & Schwarz ZVA/B 
! 
! 
! 
 3.000000000000000E5    -1.680121397639485E-3  -4.621725765139696E-2   9.975843949805406E-1  -4.676975874640686E-2   9.979616918354195E-1  -4.712947357010282E-2  -1.937115647190246E-3  -4.545378465480664E-2  
 3.061459028037530E5    -1.945430039726708E-3  -4.729505049763526E-2   9.974188836976011E-1  -4.777183006694458E-2   9.977316603533738E-1  -4.817822803119196E-2  -1.899024744927101E-3  -4.656214864666225E-2  
 3.124177126784167E5    -2.061609305203551E-3  -4.807420803225232E-2   9.973526391849148E-1  -4.855427332729966E-2   9.977152878638819E-1  -4.926082376315297E-2  -2.221654342653587E-3  -4.779938810108672E-2  
 3.188180089993913E5    -2.291583976658460E-3  -4.901945663528608E-2   9.972069557879282E-1  -5.000110301540658E-2   9.973698508539844E-1  -5.010279455067699E-2  -2.063902440015725E-3  -4.835184928636980E-2  
 3.253494239840457E5    -2.260393371634777E-3  -5.012463907898911E-2   9.973481632361568E-1  -5.084188307974987E-2   9.974893637046305E-1  -5.100683972943539E-2  -2.458141496149805E-3  -4.961667210891878E-2  
 3.320146437742557E5    -2.342396571074876E-3  -5.131776700828084E-2   9.970929780671141E-1  -5.155719906214962E-2   9.971544561865079E-1  -5.176461010111495E-2  -2.748510291166541E-3  -5.076250101291131E-2  
 3.388164095411199E5    -2.538841802259455E-3  -5.222771326796825E-2   9.970591656513077E-1  -5.265273761595583E-2   9.972968095306146E-1  -5.311777431136333E-2  -2.692604469948019E-3  -5.177607303385507E-2  
 3.457575186123076E5    -2.739827595020768E-3  -5.317252746661600E-2   9.967846514642013E-1  -5.409824639016818E-2   9.969856114394040E-1  -5.443497000105985E-2  -2.902816623749850E-3  -5.267177457712954E-2  
 3.528408256225012E5    -2.956239784247439E-3  -5.444705530934238E-2   9.967493914129366E-1  -5.493277081920801E-2   9.967677622086634E-1  -5.504157384200668E-2  -3.204335581347550E-3  -5.391728969488445E-2  
 3.600692436874074E5    -3.188356482124075E-3  -5.557891829849376E-2   9.967422759373223E-1  -5.615593381942365E-2   9.969098242887059E-1  -5.634359825064808E-2  -3.229852773510774E-3  -5.490360063057772E-2  
 3.674457456018197E5    -3.289313030587104E-3  -5.664332634043423E-2   9.967662175980380E-1  -5.706242047411630E-2   9.968222468143543E-1  -5.731439492371494E-2  -3.535369940115758E-3  -5.605764322635769E-2  
 3.749733650622242E5    -3.505741367147494E-3  -5.777122800865647E-2   9.963732287729293E-1  -5.852128801731225E-2   9.963913265080461E-1  -5.858641075729805E-2  -3.477053699617443E-3  -5.720098344190147E-2  
 3.826551979144529E5    -3.618246966240931E-3  -5.881325056169256E-2   9.962070172819382E-1  -5.967521874833967E-2   9.966044266902850E-1  -5.969334797792134E-2  -3.685759543106068E-3  -5.843079231890476E-2  
 3.904944034268967E5    -4.016545210686451E-3  -6.022058070961401E-2   9.962216573666456E-1  -6.061998125812874E-2   9.965234379886544E-1  -6.092668203753815E-2  -3.762711884895787E-3  -5.972171958157588E-2  
 3.984942055898008E5    -4.100143778768699E-3  -6.142360541277964E-2   9.961544934817642E-1  -6.211074554720252E-2   9.961795033988963E-1  -6.226053956456688E-2  -4.012458704129845E-3  -6.098534665478313E-2  
 4.066578944411798E5    -4.227690377331529E-3  -6.257595237192261E-2   9.960383750916262E-1  -6.314361885946365E-2   9.959564648638730E-1  -6.349443018180026E-2  -4.153604380619343E-3  -6.233444061745320E-2  
 4.149888274198943E5    -4.304502488980654E-3  -6.374646142042509E-2   9.956188146726508E-1  -6.464205990990771E-2   9.959431987714422E-1  -6.481697603403389E-2  -4.475682905988064E-3  -6.353802952474955E-2  
 4.234904307464480E5    -4.503475836600946E-3  -6.497493567858516E-2   9.954196568831258E-1  -6.591692551019417E-2   9.957414334694604E-1  -6.622698222778962E-2  -4.525078827627310E-3  -6.491902604529742E-2  
 4.321662008320720E5    -4.915746352118625E-3  -6.654174330628908E-2   9.955184392045757E-1  -6.708738384425371E-2   9.956320158425743E-1  -6.762097120883717E-2  -4.722910480264477E-3  -6.614198295046926E-2  
 4.410197057166757E5    -4.953363924647400E-3  -6.771054177733127E-2   9.950990449180225E-1  -6.882868997657397E-2   9.952464751378005E-1  -6.856000002873387E-2  -4.820854868504070E-3  -6.755480965757094E-2  
 4.500545865362572E5    -4.979625552846568E-3  -6.918640581964479E-2   9.947801004100736E-1  -7.015785831186353E-2   9.951844941151017E-1  -7.015187799061924E-2  -5.084197210422589E-3  -6.881802043718481E-2  
 4.592745590203743E5    -5.335931289999344E-3  -7.073264543572287E-2   9.946685200813157E-1  -7.151519622166268E-2   9.950201814643715E-1  -7.164020041774130E-2  -5.496065999515213E-3  -7.020449499201170E-2  
 4.686834150202934E5    -5.357462769416422E-3  -7.189496443380755E-2   9.944715606429302E-1  -7.276381212270792E-2   9.947003860785483E-1  -7.335291237313157E-2  -5.569651312271207E-3  -7.172918340125398E-2  
 4.782850240684460E5    -5.692460060071074E-3  -7.352176121586657E-2   9.940119560546127E-1  -7.419886755077086E-2   9.944168757996278E-1  -7.465447812640087E-2  -5.949447651248312E-3  -7.327204378029528E-2  
 4.880833349698305E5    -6.019056202971508E-3  -7.488986865308242E-2   9.941455969910289E-1  -7.589032904248798E-2   9.943058206980850E-1  -7.613667099670092E-2  -5.856222957265973E-3  -7.468617908923468E-2  
 4.980823774260179E5    -6.136870600060866E-3  -7.638942425912311E-2   9.937183176312950E-1  -7.743357165800510E-2   9.939456422388112E-1  -7.748652645025302E-2  -6.335127051886908E-3  -7.624679730012574E-2  
 5.082862636924264E5    -6.373147402025191E-3  -7.795895230457245E-2   9.935094568281481E-1  -7.901841427140038E-2   9.936164110803248E-1  -7.905917844959819E-2  -6.429206930428885E-3  -7.774043514796342E-2  
 5.186991902695479E5    -6.788906297058236E-3  -7.961925091815196E-2   9.933926509874224E-1  -8.033496291647001E-2   9.936810696434407E-1  -8.091978090428155E-2  -6.895186892028122E-3  -7.934241081466745E-2  
 5.293254396288213E5    -7.040016223431228E-3  -8.124180999293250E-2   9.931248655008973E-1  -8.233458372464234E-2   9.931944237201604E-1  -8.244909100837405E-2  -6.886994033296317E-3  -8.104486411518184E-2  
 5.401693819738632E5    -7.364480943026648E-3  -8.290666160214308E-2   9.928502090001060E-1  -8.398168904623707E-2   9.929481818411776E-1  -8.406922571537738E-2  -7.388817259063893E-3  -8.273891026098169E-2  
 5.512354770377789E5    -7.519277145947704E-3  -8.459131810463993E-2   9.924456322917143E-1  -8.549238318309767E-2   9.927098878691768E-1  -8.583350314362813E-2  -7.695969697666586E-3  -8.433637028633544E-2  
 5.625282759172944E5    -7.817027201849324E-3  -8.619256532628351E-2   9.921087262034877E-1  -8.729458230984050E-2   9.923226525118354E-1  -8.742466379881035E-2  -7.806398328573550E-3  -8.628742921215551E-2  
 5.740524229444626E5    -8.088116916372089E-3  -8.787417696355453E-2   9.919727474645677E-1  -8.913523459015704E-2   9.919739379751668E-1  -8.921181000340744E-2  -8.213369285156744E-3  -8.780012939442614E-2  
 5.858126575967147E5    -8.364770323731213E-3  -8.968462764476991E-2   9.915741049676150E-1  -9.089962161829183E-2   9.917474165468895E-1  -9.103418094387464E-2  -8.430927054411761E-3  -8.948916183993856E-2  
 5.978138164460403E5    -8.746342574995734E-3  -9.149423793254830E-2   9.911332023754895E-1  -9.251094528569746E-2   9.914209556546583E-1  -9.277750379013429E-2  -8.835939127211451E-3  -9.146684654269606E-2  
 6.100608351481004E5    -8.972971204085635E-3  -9.335715305724422E-2   9.908863094002806E-1  -9.466209568973830E-2   9.910113128354531E-1  -9.462897516471738E-2  -9.159906141817338E-3  -9.325848576455796E-2  
 6.225587504720892E5    -9.376005934525570E-3  -9.526501417114454E-2   9.906825652980590E-1  -9.641974968082306E-2   9.905161472069841E-1  -9.665706421910331E-2  -9.583194232166534E-3  -9.528854236338760E-2  
 6.353127023721805E5    -9.798045471231085E-3  -9.720154964368682E-2   9.901042728037410E-1  -9.845235346842030E-2   9.903235020779614E-1  -9.860504541170029E-2  -1.008722123522440E-2  -9.704633254070585E-2  
 6.483279361014109E5    -1.014498185368900E-2  -9.913601069879172E-2   9.895577082181880E-1  -1.005405023290758E-1   9.898880109442949E-1  -1.005012853353719E-1  -1.032635848571569E-2  -9.920836253153641E-2  
 6.616098043688679E5    -1.054158991356535E-2  -1.011655693789181E-1   9.892063508153089E-1  -1.023689350813365E-1   9.895283349282064E-1  -1.025703137542306E-1  -1.087707855692002E-2  -1.011332448949460E-1  
 6.751637695410716E5    -1.097673217014323E-2  -1.032380741792772E-1   9.886524699241811E-1  -1.044826129663850E-1   9.889756685861728E-1  -1.046083008259862E-1  -1.121090927746322E-2  -1.029862432621339E-1  
 6.889954058884548E5    -1.145965096159033E-2  -1.053918267150741E-1   9.884877632959147E-1  -1.066894920483417E-1   9.885639907650613E-1  -1.066970535056031E-1  -1.170911380532561E-2  -1.051126027233170E-1  
 7.031104018778642E5    -1.195125711514933E-2  -1.073961769375878E-1   9.878501091631780E-1  -1.086349092293155E-1   9.882430305851900E-1  -1.088670516510993E-1  -1.225062522100344E-2  -1.072045020246159E-1  
 7.175145625120278E5    -1.244234932885762E-2  -1.095741622643836E-1   9.873968736693092E-1  -1.110021331310347E-1   9.875839309814745E-1  -1.109703237552731E-1  -1.269102385714559E-2  -1.095168244423443E-1  
 7.322138117169489E5    -1.295270676958241E-2  -1.117172975860594E-1   9.867836326623370E-1  -1.130799702712895E-1   9.872143345664276E-1  -1.131730007872140E-1  -1.295638008773409E-2  -1.115669636240635E-1  
 7.472141947782085E5    -1.344146628472656E-2  -1.139269945285520E-1   9.862413176334570E-1  -1.153446026425775E-1   9.865199073841973E-1  -1.153153580822262E-1  -1.374741072333019E-2  -1.137829705910371E-1  
 7.625218808271801E5    -1.391181444943185E-2  -1.162339877548804E-1   9.858730073672530E-1  -1.175887490569544E-1   9.861883423430093E-1  -1.178177240682607E-1  -1.434140307365262E-2  -1.161651238382575E-1  
 7.781431653781761E5    -1.445291293019620E-2  -1.185424648804648E-1   9.853033101137858E-1  -1.199077038735974E-1   9.855030191170484E-1  -1.200246080469412E-1  -1.473023267105657E-2  -1.185448839992523E-1  
 7.940844729175728E5    -1.504041037393012E-2  -1.209083321253202E-1   9.845147846024747E-1  -1.223407575923722E-1   9.849997565460469E-1  -1.223738116768330E-1  -1.525522498256025E-2  -1.207872018015325E-1  
 8.103523595459757E5    -1.565248367517359E-2  -1.234497109788333E-1   9.842653826093895E-1  -1.246646815800225E-1   9.842784748573468E-1  -1.248896860703549E-1  -1.591284039877615E-2  -1.231984950928664E-1  
 8.269535156745140E5    -1.633100664805481E-2  -1.259034985237106E-1   9.832656261828775E-1  -1.270969283905775E-1   9.836875961601024E-1  -1.273618593121759E-1  -1.648555538776340E-2  -1.256208477148245E-1  
 8.438947687763721E5    -1.691555950388894E-2  -1.282816652886397E-1   9.828046493275110E-1  -1.297046775132400E-1   9.830187667714679E-1  -1.298492358662976E-1  -1.739553394853602E-2  -1.282276952248906E-1  
 8.611830861946895E5    -1.765237243765435E-2  -1.309274217314347E-1   9.819739757229948E-1  -1.323587482870610E-1   9.822940753377052E-1  -1.324392031151857E-1  -1.803695909527980E-2  -1.305930873557079E-1  
 8.788255780079850E5    -1.833991497443071E-2  -1.333292853636814E-1   9.814620004428388E-1  -1.349301246814700E-1   9.816894496436888E-1  -1.350416094106610E-1  -1.872862541121203E-2  -1.333525654175648E-1  
 8.968294999542822E5    -1.922690790962769E-2  -1.361346196782951E-1   9.806382274467381E-1  -1.374854440823902E-1   9.807603297509948E-1  -1.376812322018598E-1  -1.937906698701618E-2  -1.358656113880606E-1  
 9.152022564151404E5    -1.983470791985679E-2  -1.387804393881093E-1   9.798829990056931E-1  -1.403601575814266E-1   9.800202354018295E-1  -1.403874622102823E-1  -2.006260017529490E-2  -1.385012680716365E-1  
 9.339514034608167E5    -2.059182297568822E-2  -1.414849129422602E-1   9.791736528490813E-1  -1.431258461889997E-1   9.791311441638567E-1  -1.432176650171634E-1  -2.103114972143915E-2  -1.413563799401781E-1  
 9.530846519578132E5    -2.151818928818704E-2  -1.442213834703884E-1   9.783490045345298E-1  -1.458546052218938E-1   9.783328917972521E-1  -1.459440669386228E-1  -2.175028090244192E-2  -1.440633344415718E-1  
 9.726098707400849E5    -2.243240799561240E-2  -1.469981119382963E-1   9.773841233133391E-1  -1.487437251370503E-1   9.775259658061123E-1  -1.488043226161107E-1  -2.255893259467863E-2  -1.469179818360671E-1  
 9.925350898452161E5    -2.324407461197847E-2  -1.499066189287019E-1   9.763276538257946E-1  -1.516026917317927E-1   9.767226384701556E-1  -1.517802221163755E-1  -2.371805997192559E-2  -1.498634140155633E-1  
 1.012868503816893E6    -2.410166880934868E-2  -1.530711971100514E-1   9.752102233980302E-1  -1.542214923744348E-1   9.755591133511008E-1  -1.551683220869314E-1  -2.433764891659108E-2  -1.526378591115891E-1  
 1.033618475075031E6    -2.525882566562173E-2  -1.557472506806651E-1   9.747173628244732E-1  -1.579952928375137E-1   9.748115719922923E-1  -1.581198388497337E-1  -2.532214599664088E-2  -1.553868967555955E-1  
 1.054793537354946E6    -2.619848252284573E-2  -1.590854159019637E-1   9.740981454814779E-1  -1.608439050868698E-1   9.735469396008215E-1  -1.606418470715987E-1  -2.656993665326102E-2  -1.585843013598050E-1  
 1.076402399216980E6    -2.716418284608532E-2  -1.618999097871153E-1   9.725143882970055E-1  -1.645936412602959E-1   9.728051914637760E-1  -1.640434154126790E-1  -2.715711341234695E-2  -1.615776736710688E-1  
 1.098453947628028E6    -2.850184894711362E-2  -1.652783068116147E-1   9.717844311084898E-1  -1.670375865430560E-1   9.716358928570124E-1  -1.673525307026797E-1  -2.871091542172739E-2  -1.647702448796213E-1  
 1.120957251616430E6    -2.977628279958805E-2  -1.684584776063373E-1   9.700132849267086E-1  -1.705425263625487E-1   9.705706650668983E-1  -1.705178710100223E-1  -3.005596328013569E-2  -1.684974536683765E-1  
 1.143921566001752E6    -3.038447572189841E-2  -1.717305885173740E-1   9.687461187819904E-1  -1.736551918039245E-1   9.694070614622512E-1  -1.738589513778172E-1  -3.105617971641308E-2  -1.714961641556071E-1  
 1.167356335200965E6    -3.199585808364410E-2  -1.749750295802884E-1   9.679886544938237E-1  -1.768547636166554E-1   9.678902033893864E-1  -1.766504669734355E-1  -3.257928184777969E-2  -1.747241934122004E-1  
 1.191271197112600E6    -3.319562501324910E-2  -1.783615045453860E-1   9.667331983254940E-1  -1.802938425372354E-1   9.669228516849273E-1  -1.801578708157178E-1  -3.348277522391398E-2  -1.776778690574222E-1  
 1.215675987080482E6    -3.485655444607573E-2  -1.815047884866460E-1   9.652339210617011E-1  -1.836558372549405E-1   9.652176517165525E-1  -1.840561134520001E-1  -3.512767180018483E-2  -1.814322809750600E-1  
 1.240580741938659E6    -3.616933290003065E-2  -1.850935319787220E-1   9.641802535430155E-1  -1.876606223342090E-1   9.642611855287642E-1  -1.868755993861005E-1  -3.594203120336931E-2  -1.849399738627731E-1  
 1.265995704139202E6    -3.716678083614439E-2  -1.884441434051924E-1   9.626859065961145E-1  -1.907229354342734E-1   9.628203189736522E-1  -1.907652103122821E-1  -3.759905179004643E-2  -1.887023723657184E-1  
 1.291931325964563E6    -3.884193303042032E-2  -1.920350747691863E-1   9.614018460212178E-1  -1.947008067412751E-1   9.608519292645694E-1  -1.945768948171967E-1  -3.922790894359913E-2  -1.916473548376253E-1  
 1.318398273826236E6    -4.038508205479278E-2  -1.959036692718023E-1   9.592716248937144E-1  -1.981300123359156E-1   9.592605626248385E-1  -1.980223684725367E-1  -4.080788001617559E-2  -1.956667236217484E-1  
 1.345407432651476E6    -4.196577947118022E-2  -1.992477558341700E-1   9.582500834089627E-1  -2.018408317943951E-1   9.579738046811073E-1  -2.015272420358196E-1  -4.244745992264068E-2  -1.989782193704689E-1  
 1.372969910359885E6    -4.384663546950540E-2  -2.032190234054781E-1   9.562306090031394E-1  -2.055643011118010E-1   9.564146241410874E-1  -2.058872984899930E-1  -4.410423717027460E-2  -2.025417453490466E-1  
 1.401097042431717E6    -4.505755137883949E-2  -2.067154377831159E-1   9.543773969781318E-1  -2.088459347971970E-1   9.544231353701929E-1  -2.094198593905488E-1  -4.558732597980775E-2  -2.067283869510348E-1  
 1.429800396569754E6    -4.694816990334227E-2  -2.106547687324449E-1   9.526159896848910E-1  -2.132072277932994E-1   9.531039358117948E-1  -2.132700047064507E-1  -4.747379884460472E-2  -2.106551182347870E-1  
 1.459091777456705E6    -4.885025724661625E-2  -2.143900216598902E-1   9.506349884509693E-1  -2.166742105179443E-1   9.509176969743289E-1  -2.169230705326004E-1  -4.936144478592024E-2  -2.148807950592694E-1  
 1.488983231610052E6    -5.082392150227599E-2  -2.187445030231816E-1   9.492429293662497E-1  -2.211081646682396E-1   9.488146253334020E-1  -2.216738120305352E-1  -5.132072630762156E-2  -2.188533493198537E-1  
 1.519487052336364E6    -5.268297199228364E-2  -2.227731416543056E-1   9.468201489980317E-1  -2.253878139730848E-1   9.467814978500615E-1  -2.254508991205447E-1  -5.331435506121432E-2  -2.225887574460083E-1  
 1.550615784787099E6    -5.498352271923079E-2  -2.268977500234684E-1   9.448689176205576E-1  -2.293858671255923E-1   9.452539740406863E-1  -2.288799575167629E-1  -5.529406820511662E-2  -2.264922612041455E-1  
 1.582382231117988E6    -5.717215341074339E-2  -2.309583462439478E-1   9.427927837411256E-1  -2.335717796343477E-1   9.425428043168658E-1  -2.335616375670079E-1  -5.773733536111966E-2  -2.306503406671279E-1  
 1.614799455754111E6    -5.914972062428166E-2  -2.352797964289469E-1   9.403366859629585E-1  -2.381836573781608E-1   9.405991707026586E-1  -2.379299446864935E-1  -6.001573374219611E-2  -2.353270852882124E-1  
 1.647880790762838E6    -6.147952205881507E-2  -2.393975617124233E-1   9.382294250528447E-1  -2.415138215737867E-1   9.383671723707914E-1  -2.423040745603210E-1  -6.232480866807599E-2  -2.388900004385694E-1  
 1.681639841336839E6    -6.393008944102066E-2  -2.440538158324787E-1   9.356941437489423E-1  -2.461651924265175E-1   9.355924428452643E-1  -2.461788230425449E-1  -6.470783734821299E-2  -2.433111569495638E-1  
 1.716090491389422E6    -6.625138227198421E-2  -2.479457472942113E-1   9.334997331354918E-1  -2.503558627347474E-1   9.331669800924833E-1  -2.507524171791928E-1  -6.702126933657077E-2  -2.476937399291629E-1  
 1.751246909264502E6    -6.889161190842728E-2  -2.521595932844336E-1   9.308866595941637E-1  -2.548601481390755E-1   9.309126723977673E-1  -2.556992298033862E-1  -6.976006274711455E-2  -2.520610392058602E-1  
 1.787123553563544E6    -7.180964610243519E-2  -2.562982410908852E-1   9.281581485340816E-1  -2.598508331313303E-1   9.282991061606061E-1  -2.599650112668913E-1  -7.247684226067522E-2  -2.568486295277194E-1  
 1.823735179091875E6    -7.445610067054034E-2  -2.610733787113777E-1   9.254353680414139E-1  -2.640727155397897E-1   9.251126565468113E-1  -2.641412803300715E-1  -7.480069501763929E-2  -2.607363961537388E-1  
 1.861096842926821E6    -7.725703503858224E-2  -2.655891895025432E-1   9.224077330515514E-1  -2.689312079353263E-1   9.225648583658629E-1  -2.692661368737909E-1  -7.815734174558281E-2  -2.651369827125880E-1  
 1.899223910610154E6    -8.008710789129532E-2  -2.703659290520149E-1   9.194023848602381E-1  -2.733581108283925E-1   9.193713830674630E-1  -2.735618898575135E-1  -8.091712035211365E-2  -2.696616858978014E-1  
 1.938132062467400E6    -8.370910517980085E-2  -2.751539382111640E-1   9.159679481939406E-1  -2.780512961087265E-1   9.164092067317116E-1  -2.784574546898110E-1  -8.379577971033481E-2  -2.747601226230975E-1  
 1.977837300056607E6    -8.651349600567296E-2  -2.797073611904251E-1   9.130660399951224E-1  -2.828497520068435E-1   9.132637338751397E-1  -2.832724276790798E-1  -8.682502598169978E-2  -2.790758050293050E-1  
