#  HZ   S   RI   R     50 
! Rohde & Schwarz ZVA/B 
! 
! 
! 
 3.000000000000000E5     6.449299595880137E-4  -3.898462347079571E-3   9.997093066066705E-1  -5.017942972410473E-3   1.000116531912819  -5.354017709308923E-3   3.415432905721687E-4  -3.342204733496835E-3  
 3.061459028037530E5     4.299516561291126E-4  -4.193860111719606E-3   9.996249778736063E-1  -5.043517676752513E-3   1.000029486906779  -5.457202241899195E-3   6.306556640296187E-4  -3.636455619482949E-3  
 3.124177126784167E5     5.574959887085954E-4  -4.101410472525994E-3   9.997771422904056E-1  -5.027094928299011E-3   9.998804382479472E-1  -5.644276445438632E-3   3.258198962876661E-4  -4.005911945051691E-3  
 3.188180089993913E5     2.445438160244301E-4  -4.355567143637992E-3   9.995032588646046E-1  -5.117145240299715E-3   9.997839006502796E-1  -5.697457020690857E-3   5.802674069816298E-4  -3.784941646396781E-3  
 3.253494239840457E5     5.301308645679588E-4  -4.316272090751054E-3   9.995668833261197E-1  -5.462569399093873E-3   9.999019592083758E-1  -5.779322260830225E-3   2.573858177306288E-4  -4.060566491435835E-3  
 3.320146437742557E5     5.849873764813839E-4  -4.644742912546492E-3   9.995477935558871E-1  -5.352292169356752E-3   9.996851187323655E-1  -5.498823422303330E-3   1.411088671765542E-4  -4.224730304745534E-3  
 3.388164095411199E5     4.084198287229032E-4  -4.553892677353102E-3   9.994827074885228E-1  -5.377397364267072E-3   1.000014936367831  -5.747935011315417E-3   2.982810264410816E-4  -4.448566186704989E-3  
 3.457575186123076E5     3.572748122766844E-4  -4.632368420062477E-3   9.995542908418338E-1  -5.738130910750390E-3   9.996825595198551E-1  -6.165735525201190E-3   1.477580707868310E-4  -4.352241331118436E-3  
 3.528408256225012E5     3.127694495821527E-4  -4.853676914074707E-3   9.997984563592390E-1  -5.891229053918894E-3   9.997694814065806E-1  -6.132179354398882E-3   9.247905251639316E-5  -4.628094878019682E-3  
 3.600692436874074E5     2.207762216639873E-4  -5.070651507749245E-3   9.997054922835731E-1  -5.993650966135811E-3   9.999724175760922E-1  -5.987839622642365E-3   8.966735367717257E-5  -4.694974127813319E-3  
 3.674457456018197E5     2.861518974258425E-4  -5.128957510983455E-3   9.996778636400796E-1  -6.099840464042150E-3   9.999269663535122E-1  -6.133311040854149E-3   2.484439307495665E-5  -4.859022288287459E-3  
 3.749733650622242E5     1.892045226770395E-4  -5.338908916831509E-3   9.996448338215771E-1  -6.118653380801434E-3   9.997143938194001E-1  -6.220355381494565E-3   1.361806367062344E-5  -4.905961125330491E-3  
 3.826551979144529E5     1.488255301084095E-4  -5.244646921052649E-3   9.996905165986464E-1  -6.138886608684324E-3   9.998818162877859E-1  -6.404538542519004E-3   3.007675600757917E-5  -5.088090088944685E-3  
 3.904944034268967E5     4.993249318257643E-5  -5.588886345517971E-3   9.995632081151289E-1  -6.605737754432308E-3   1.000066251612543  -6.421381867559218E-3   1.252740854389547E-4  -5.333690587117181E-3  
 3.984942055898008E5     2.859857514418690E-5  -5.723946575376116E-3   9.997998234064731E-1  -6.587983803721578E-3   9.999306495230822E-1  -6.689424158719154E-3  -6.264393987262439E-5  -5.471324275658296E-3  
 4.066578944411798E5    -1.153662731090840E-4  -5.807107719443522E-3   9.997536608695984E-1  -6.658946953156422E-3   1.000096383519916  -6.706204500411519E-3  -5.690175598099761E-5  -5.744514021573255E-3  
 4.149888274198943E5     1.290559303884135E-4  -5.853384792078540E-3   9.993833491719932E-1  -6.678922567548430E-3   1.000006373880993  -7.044594833788753E-3  -1.100820915873393E-4  -5.853211753627271E-3  
 4.234904307464480E5     3.784215535861368E-5  -5.955178923714272E-3   9.994820686574264E-1  -7.216957683690652E-3   9.998930661160863E-1  -7.294095915768608E-3  -2.221502300067892E-5  -6.038285176744587E-3  
 4.321662008320720E5    -8.633152807580041E-5  -6.269548709466722E-3   9.997972709818193E-1  -7.257397943332490E-3   9.999497113733538E-1  -7.557200879666175E-3  -9.646158130853427E-5  -6.031286315226533E-3  
 4.410197057166757E5     4.621166880415299E-5  -6.323468835760317E-3   9.996974660065168E-1  -7.474255015037803E-3   9.998462236802869E-1  -7.385191057811720E-3   2.471444506963819E-5  -6.254943706984946E-3  
 4.500545865362572E5     1.769313593093938E-4  -6.489523384654476E-3   9.994888342225871E-1  -7.646736847778874E-3   1.000050605424493  -7.611137016403672E-3  -9.337570423635100E-5  -6.291305716014451E-3  
 4.592745590203743E5     5.984882713541973E-5  -6.695450052506287E-3   9.995104613785867E-1  -7.687749904763713E-3   9.999927853784896E-1  -7.789560104790998E-3  -2.937081107577294E-4  -6.489044031389003E-3  
 4.686834150202934E5     1.830209745703925E-4  -6.674249373921700E-3   9.996776764543396E-1  -7.902230231592280E-3   9.998662004024844E-1  -7.882937629367495E-3  -1.646093821479026E-4  -6.689104101823549E-3  
 4.782850240684460E5     1.242355654878597E-5  -6.951723127972166E-3   9.996371941344100E-1  -8.003327986408137E-3   1.000006718892526  -8.055922881785596E-3  -3.291095064911401E-4  -6.824151444113209E-3  
 4.880833349698305E5     5.041817591806191E-5  -7.093431261076390E-3   9.995216836206644E-1  -8.070369602894574E-3   1.000026385769017  -8.281284800513867E-3   2.887057310323055E-5  -7.019843255666298E-3  
 4.980823774260179E5     5.306946572574951E-5  -7.107869336458756E-3   9.998121251627307E-1  -8.343341075223843E-3   9.999206508787660E-1  -8.594737971963900E-3  -3.156594230954041E-4  -7.229187076512039E-3  
 5.082862636924264E5     3.156719506419690E-6  -7.365142021363039E-3   9.996390976709819E-1  -8.532967636627770E-3   9.998473401895294E-1  -8.719183985518356E-3  -1.434377813507915E-4  -7.243628633337206E-3  
 5.186991902695479E5    -4.241679851908731E-5  -7.552966301444665E-3   9.995352243366860E-1  -8.715974889263276E-3   9.999747400800099E-1  -8.875678554845461E-3  -4.027546032219436E-4  -7.554191257095321E-3  
 5.293254396288213E5    -9.755367692867537E-5  -7.788115779547847E-3   9.996311507007175E-1  -8.881297987940918E-3   9.999191935236117E-1  -8.923634033267142E-3  -1.418148594313383E-4  -7.724418859766498E-3  
 5.401693819738632E5    -1.633456980450630E-4  -7.997266554540364E-3   9.997046230943819E-1  -8.728164689085749E-3   9.998100511232106E-1  -9.080755104676732E-3  -2.798604643867408E-4  -7.946519373032115E-3  
 5.512354770377789E5    -7.652135218674368E-5  -8.178052055104374E-3   9.995517281530746E-1  -9.390375974809120E-3   9.997576326558716E-1  -9.323773708201604E-3  -3.306976727410075E-4  -8.021243457642907E-3  
 5.625282759172944E5    -4.260317850279646E-5  -8.211087067716651E-3   9.995381665807323E-1  -9.489023559420903E-3   9.997898886656698E-1  -9.473863290191077E-3  -1.189328576312222E-4  -8.510874034330795E-3  
 5.740524229444626E5     6.091606773000815E-5  -8.430483754564861E-3   9.994487651898786E-1  -9.715512531753755E-3   9.999500481219563E-1  -9.750652362988808E-3  -2.290386661236353E-4  -8.387501918916570E-3  
 5.858126575967147E5     6.426297397382625E-5  -8.609340084346417E-3   9.995199783773515E-1  -9.983906173313614E-3   9.999396929154415E-1  -9.963939803679977E-3  -1.208217593780707E-4  -8.574515199277660E-3  
 5.978138164460403E5     3.251903781078358E-5  -8.890070899970390E-3   9.994982586638609E-1  -1.002186446232607E-2   9.998138791813204E-1  -1.004414887363817E-2  -2.860546109416869E-4  -8.867525913096745E-3  
 6.100608351481004E5     5.440829769255941E-5  -9.079214137149287E-3   9.994536115062487E-1  -1.032224982666395E-2   9.998193912303639E-1  -1.024030773027921E-2  -2.632258219386660E-4  -9.030426495058854E-3  
 6.225587504720892E5     9.091717947195238E-5  -9.224861995067167E-3   9.998417513917872E-1  -1.048227439775850E-2   9.997873221545542E-1  -1.046971422729209E-2  -2.488648459682074E-4  -9.330193395587532E-3  
 6.353127023721805E5     6.424482222533467E-5  -9.395015190386604E-3   9.996036493378009E-1  -1.085770765346561E-2   9.998335928901159E-1  -1.077216373555776E-2  -4.740193052538374E-4  -9.386924214836723E-3  
 6.483279361014109E5     2.736456034015257E-5  -9.606804863209625E-3   9.996081497360988E-1  -1.114657668359715E-2   9.998507914934927E-1  -1.096751970783019E-2  -3.069895491049634E-4  -9.792256271366807E-3  
 6.616098043688679E5     9.047934464008066E-7  -9.854021609388032E-3   9.994963470510284E-1  -1.121586504491480E-2   9.998696359132263E-1  -1.118378352342316E-2  -3.607823907957420E-4  -1.004303248616101E-2  
 6.751637695410716E5    -3.015879606168949E-5  -1.009623009075760E-2   9.996999022126833E-1  -1.145138932980834E-2   9.996110420663353E-1  -1.141968391889040E-2  -4.008070211840190E-4  -9.974053718027240E-3  
 6.889954058884548E5    -3.290974017727256E-5  -1.041657034360742E-2   9.994800681369289E-1  -1.163305503364451E-2   9.996959189080154E-1  -1.166551603067854E-2  -3.899888919532441E-4  -1.027418253275099E-2  
 7.031104018778642E5    -1.072795600359002E-5  -1.053233614768494E-2   9.994204057357649E-1  -1.209874745460612E-2   1.000000672486088  -1.193366270675312E-2  -5.031975386518135E-4  -1.047913402182783E-2  
 7.175145625120278E5    -8.747116271214090E-5  -1.074648843800573E-2   9.996392363482287E-1  -1.218763951461816E-2   9.998571414014503E-1  -1.217350466401062E-2  -4.496098774070212E-4  -1.080300151832257E-2  
 7.322138117169489E5    -2.097679098341090E-4  -1.094579357501628E-2   9.994889400367979E-1  -1.226528824391975E-2   1.000024385378313  -1.225810354877171E-2  -2.846114156959157E-4  -1.087230436863609E-2  
 7.472141947782085E5    -7.051431456493269E-5  -1.114470616084958E-2   9.994856390062876E-1  -1.253770545341129E-2   1.000020753960008  -1.266567277618332E-2  -4.767021971005839E-4  -1.113076965507977E-2  
 7.625218808271801E5    -1.363850586358141E-4  -1.142329573880996E-2   9.995551192453422E-1  -1.281316135375273E-2   9.998852730995542E-1  -1.303329218893281E-2  -5.089381319031732E-4  -1.152646177166138E-2  
 7.781431653781761E5    -1.146589011555552E-5  -1.167497554906796E-2   9.992998706070668E-1  -1.300601407332174E-2   9.999045710474709E-1  -1.332101336013037E-2  -3.816336239311954E-4  -1.186935703257235E-2  
 7.940844729175728E5    -2.968775164347162E-5  -1.191153321709681E-2   9.994643055479981E-1  -1.346761269076020E-2   9.999480135222956E-1  -1.330264588180988E-2  -3.470659893095344E-4  -1.191431981847918E-2  
 8.103523595459757E5    -1.167815595192260E-4  -1.223854828540993E-2   9.996283629167725E-1  -1.360749501140594E-2   9.996578333900301E-1  -1.362891669808990E-2  -3.952274356350494E-4  -1.221249825205893E-2  
 8.269535156745140E5    -7.078214429137343E-5  -1.254130362820228E-2   9.995183556646433E-1  -1.399333090281524E-2   9.998187905740952E-1  -1.396846864048735E-2  -3.362733298362589E-4  -1.236261617219419E-2  
 8.438947687763721E5     1.612986168011902E-5  -1.263390059205164E-2   9.995491911731482E-1  -1.424234250634783E-2   9.997743386191828E-1  -1.433346115389736E-2  -5.696410485666088E-4  -1.285589555332817E-2  
 8.611830861946895E5    -1.047757746148264E-4  -1.313428107457930E-2   9.995496845064869E-1  -1.466011529739471E-2   9.997455459776891E-1  -1.466835057798224E-2  -6.016220131975767E-4  -1.286708242749837E-2  
 8.788255780079850E5    -9.145580253605397E-5  -1.316771203428452E-2   9.995768998509427E-1  -1.490867137440580E-2   9.997579197453871E-1  -1.499601394000288E-2  -4.750849537293787E-4  -1.333743580154154E-2  
 8.968294999542822E5    -2.295821918375460E-4  -1.358115144108179E-2   9.994068982172778E-1  -1.504289850619286E-2   9.998166028508920E-1  -1.523754766960361E-2  -4.575137837986675E-4  -1.349766239125083E-2  
 9.152022564151404E5    -8.392067066389928E-5  -1.374330554382335E-2   9.994975856060346E-1  -1.563502354282310E-2   9.997276442734897E-1  -1.537729204019939E-2  -4.461901753363508E-4  -1.377899763199479E-2  
 9.339514034608167E5     5.411475371387329E-5  -1.402769526985052E-2   9.995239177306068E-1  -1.576580790793076E-2   9.997349712127626E-1  -1.571127790305697E-2  -5.793124147285278E-4  -1.415523073016247E-2  
 9.530846519578132E5    -1.162114497031772E-4  -1.436661301344668E-2   9.995354924024494E-1  -1.614580334955841E-2   9.996602177713454E-1  -1.615480318833884E-2  -4.681923742860384E-4  -1.438331558173993E-2  
 9.726098707400849E5    -2.049302923747612E-4  -1.468965321382459E-2   9.994731485492088E-1  -1.641791660747361E-2   9.998770642680213E-1  -1.643695162106519E-2  -4.297920282105572E-4  -1.469068754341121E-2  
 9.925350898452161E5    -1.372960454196992E-4  -1.491184441166451E-2   9.993322025684478E-1  -1.674280416480822E-2   9.997507780103586E-1  -1.678059786151742E-2  -6.333548171708357E-4  -1.511113550935762E-2  
 1.012868503816893E6    -3.142423002761514E-5  -1.532889343440459E-2   1.000041949697859  -1.688243689466266E-2   9.998031418065368E-1  -1.719526141598930E-2  -4.702694826927741E-4  -1.507522765875496E-2  
 1.033618475075031E6    -2.978478106354850E-4  -1.573817075146641E-2   9.991856969331939E-1  -1.718128705666158E-2   9.996856164777238E-1  -1.778768442758230E-2  -4.321258325110611E-4  -1.524271240249334E-2  
 1.054793537354946E6    -8.536125929738334E-5  -1.598342987267897E-2   9.996281068059389E-1  -1.741672974178731E-2   9.992528596345379E-1  -1.780050523021206E-2  -5.349038904248591E-4  -1.579085552727080E-2  
 1.076402399216980E6     5.370644976769359E-5  -1.608511082416580E-2   9.992831020759649E-1  -1.826358595586614E-2   9.998915609751894E-1  -1.814189396260360E-2  -3.220527475867257E-4  -1.598412185182895E-2  
 1.098453947628028E6    -2.299316313021286E-4  -1.657758570357573E-2   9.992430750712091E-1  -1.835204576375399E-2   9.997950417647478E-1  -1.867774981881505E-2  -7.176285905136923E-4  -1.652309331546535E-2  
 1.120957251616430E6    -4.618158435831428E-4  -1.689672462427977E-2   9.993754733597975E-1  -1.884115513601004E-2   9.996815086013142E-1  -1.918459422310667E-2  -6.296244007726947E-4  -1.725152475404542E-2  
 1.143921566001752E6     2.225133702469533E-4  -1.721274399171779E-2   9.994046404850940E-1  -1.952267894470320E-2   9.995952551057713E-1  -1.926233920633694E-2  -4.412760244491096E-4  -1.748256786643871E-2  
 1.167356335200965E6    -7.617436614718033E-5  -1.769632109767366E-2   9.993207340254933E-1  -2.038115458689164E-2   9.996026852899984E-1  -1.948928126624713E-2  -8.970627156817928E-4  -1.803232934681729E-2  
 1.191271197112600E6    -2.154827200256079E-4  -1.805737515248392E-2   9.993727294991428E-1  -2.051879130859040E-2   9.991540444643365E-1  -2.005262168383682E-2  -9.400567922915422E-4  -1.782182249947898E-2  
 1.215675987080482E6    -3.863066932101873E-4  -1.847568874586585E-2   9.992670040046416E-1  -2.044035950192388E-2   9.996247730575747E-1  -2.077904240413152E-2  -1.006000698450786E-3  -1.863049614499948E-2  
 1.240580741938659E6    -5.831563135457395E-4  -1.874047807052076E-2   9.994014461051778E-1  -2.098090360499725E-2   9.993729265147192E-1  -2.091806775010151E-2  -6.336306723021010E-4  -1.911211762959992E-2  
 1.265995704139202E6    -3.679135403139361E-4  -1.896216572325193E-2   9.994736658995317E-1  -2.130151167128817E-2   9.996786111326868E-1  -2.154931196304300E-2  -6.138215920070482E-4  -1.941880173489177E-2  
 1.291931325964563E6    -5.146467428958065E-4  -1.943996323628406E-2   9.995188187436537E-1  -2.193767584009405E-2   9.995555380829053E-1  -2.219897727108137E-2  -9.235097255041906E-4  -1.951761319961669E-2  
 1.318398273826236E6    -4.458329531586079E-4  -2.013491753284309E-2   9.993842658869998E-1  -2.248149994438634E-2   9.994996987235141E-1  -2.200842528566177E-2  -8.328901149015804E-4  -2.026717151701559E-2  
 1.345407432651476E6    -2.913946125537669E-4  -2.011131982604609E-2   9.989031555890432E-1  -2.299427519003772E-2   9.994218144808038E-1  -2.268487215599028E-2  -9.059465375531736E-4  -2.043918675315229E-2  
 1.372969910359885E6    -6.445108205198352E-4  -2.097550600433229E-2   9.991399382314161E-1  -2.328867280311198E-2   9.991581796863455E-1  -2.349106436490320E-2  -1.059973213220195E-3  -2.052705172103586E-2  
 1.401097042431717E6    -2.944384441388171E-4  -2.104808561756140E-2   9.992237280046139E-1  -2.382573325942903E-2   9.994940584036725E-1  -2.392550024105667E-2  -6.551947613434657E-4  -2.121113015954384E-2  
 1.429800396569754E6    -1.716681286916656E-4  -2.152332317239398E-2   9.991172247565692E-1  -2.466737167541091E-2   9.995526354635351E-1  -2.398793494218047E-2  -5.581366919018930E-4  -2.201610512163964E-2  
 1.459091777456705E6    -6.344039648093945E-4  -2.161305881892798E-2   9.994833620589001E-1  -2.451298299567783E-2   9.996754595092228E-1  -2.465733397759033E-2  -8.415745837918414E-4  -2.247174857479723E-2  
 1.488983231610052E6    -3.737623988278644E-4  -2.254580364721840E-2   9.993500543009264E-1  -2.502299530557849E-2   9.991796174122529E-1  -2.517460601566887E-2  -7.926886934233974E-4  -2.291786811205553E-2  
 1.519487052336364E6    -2.183066156738484E-4  -2.330235547185949E-2   9.991243382563103E-1  -2.645554663257351E-2   9.990149664367185E-1  -2.586284825736089E-2  -7.513867755241691E-4  -2.321215325602771E-2  
 1.550615784787099E6    -5.699740441499649E-4  -2.365545511928326E-2   9.990974900028991E-1  -2.616197587569589E-2   9.993425909693284E-1  -2.624725053997493E-2  -9.351385478085225E-4  -2.372853481953725E-2  
 1.582382231117988E6    -4.632186210458445E-4  -2.404635801078858E-2   9.991958066708777E-1  -2.712394751957262E-2   9.993685906614209E-1  -2.697203922047072E-2  -1.163580905419548E-3  -2.409494231246537E-2  
 1.614799455754111E6    -1.804264695103998E-4  -2.433760763283320E-2   9.991989098428156E-1  -2.783978713020986E-2   9.996492648242770E-1  -2.693538395727134E-2  -1.062323939122136E-3  -2.488946331446808E-2  
 1.647880790762838E6    -3.152444803614591E-4  -2.500791342031989E-2   9.992341399771668E-1  -2.803820137203362E-2   9.997372728385503E-1  -2.803540677224304E-2  -1.377252788188157E-3  -2.508589733387683E-2  
 1.681639841336839E6    -4.848918030708532E-4  -2.579010554134116E-2   9.989279056841076E-1  -2.809995904180789E-2   9.990866578620878E-1  -2.869259591256410E-2  -1.333322673620280E-3  -2.575600534785342E-2  
 1.716090491389422E6    -5.098647489582668E-4  -2.614059963836085E-2   9.993601741389584E-1  -2.857066698754418E-2   9.992339622429598E-1  -2.921564947781803E-2  -1.225931740705649E-3  -2.634574907783980E-2  
 1.751246909264502E6    -6.425846239248274E-4  -2.647523266146584E-2   9.993120765877696E-1  -2.971027468392902E-2   9.989488456143147E-1  -2.986450509878159E-2  -1.260249061587785E-3  -2.660269064502314E-2  
 1.787123553563544E6    -1.100107625799100E-3  -2.682806209547950E-2   9.990178381830397E-1  -3.030329951467920E-2   9.988795010005751E-1  -3.042703555785700E-2  -1.302176659462073E-3  -2.763098096905640E-2  
 1.823735179091875E6    -7.780417288516747E-4  -2.754767813817413E-2   9.987351002290915E-1  -3.087335766027152E-2   9.987353360017643E-1  -3.115128529892577E-2  -1.054630736109089E-3  -2.743891741072577E-2  
 1.861096842926821E6    -6.942012561920194E-4  -2.809166589361192E-2   9.988094727676684E-1  -3.167739856116141E-2   9.994016114653983E-1  -3.181009569473096E-2  -1.515771647503422E-3  -2.816879831653030E-2  
 1.899223910610154E6    -5.203170736164071E-4  -2.869322856402523E-2   9.994630479294336E-1  -3.246918596046995E-2   9.988617320522739E-1  -3.234941737309182E-2  -1.459340282333363E-3  -2.877192325484990E-2  
 1.938132062467400E6    -8.439039553521123E-4  -2.964469481759682E-2   9.985521041057368E-1  -3.282133663221233E-2   9.991301097833810E-1  -3.306298600834332E-2  -1.013595118014857E-3  -2.958992525018356E-2  
 1.977837300056607E6    -7.394940754982251E-4  -3.006350835406172E-2   9.986649622606073E-1  -3.353139001823884E-2   9.988403362635125E-1  -3.341617106117250E-2  -1.424629330029871E-3  -2.981911402050453E-2  
 2.018355952749225E6    -1.523656115082369E-3  -3.024467793854356E-2   9.988524545994830E-1  -3.457226784930259E-2   9.982851277605789E-1  -3.452491532415501E-2  -4.222089632436532E-4  -3.114580839183313E-2  
